date Sat May 09 06:35:23.493 2026
base hex  timestamps absolute
internal events logged
Begin Triggerblock Sat May 09 06:35:23.499 2026
 0.000000 Start of measurement
 0.000000 1  18F100D0x       Rx   d 8 0C FF FF FF FF FF FF FF
 0.000165 1  CFF21CAx        Rx   d 8 03 00 80 0C 3B 36 00 14
 0.000274 1  CFF21CAx        Rx   d 8 03 00 80 0C 3B 36 00 14
 0.000357 1  18F100D0x       Rx   d 8 0C FF FF FF FF FF FF FF
 0.004129 1  CFF21CAx        Rx   d 8 03 00 80 0C 3B 36 00 14
 0.005159 1  18F100F3x       Rx   d 8 03 40 7D 12 FA FA 14 00
 0.005998 1  18F102F3x       Rx   d 8 10 44 10 3D 13 0C 00 07
 0.007339 1  18F106F3x       Rx   d 8 45 E0 FC FF FF FF FF FF
 0.008645 1  18F107F3x       Rx   d 8 38 A4 27 10 01 76 00 00
 0.010343 1  18F108F3x       Rx   d 8 10 00 04 00 00 00 00 01
 0.011240 1  18F155F3x       Rx   d 8 38 38 39 39 39 3A 39 00
 0.012133 1  18F156F3x       Rx   d 8 00 00 00 00 00 00 00 00
 0.013035 1  18F157F3x       Rx   d 8 00 00 00 00 00 00 00 00
 0.013966 1  18F158F3x       Rx   d 8 00 00 00 00 00 00 00 00
 0.014969 1  18F159F3x       Rx   d 8 00 00 00 00 00 00 00 00
 0.015817 1  18F15AF3x       Rx   d 8 00 00 00 00 00 00 00 00
 0.016342 1  CFF21CAx        Rx   d 8 03 00 80 0C 3B 36 00 14
 0.016932 1  18F15BF3x       Rx   d 7 00 00 00 00 00 00 00
 0.018082 1  18F15CF3x       Rx   d 8 00 00 00 00 00 00 00 00
 0.018984 1  18F15DF3x       Rx   d 8 00 00 00 00 00 00 00 00
 0.019881 1  18F15EF3x       Rx   d 8 00 00 00 00 00 00 00 00
 0.020439 1  18F100D0x       Rx   d 8 0C FF FF FF FF FF FF FF
 0.028504 1  CFF21CAx        Rx   d 8 03 00 80 0C 3B 36 00 14
 0.040122 1  CFF21CAx        Rx   d 8 03 00 80 0C 3B 36 00 14
 0.040702 1  18F100D0x       Rx   d 8 0C FF FF FF FF FF FF FF
 0.052236 1  CFF21CAx        Rx   d 8 04 00 80 0C 3B 36 00 14
 0.056153 1  18FF2112x       Rx   d 8 01 00 00 00 00 00 00 00
 0.064253 1  CFF21CAx        Rx   d 8 04 00 80 0C 3B 36 00 14
 0.064852 1  18F100D0x       Rx   d 8 0C FF FF FF FF FF FF FF
 0.076751 1  CFF21CAx        Rx   d 8 04 00 80 0C 3B 36 00 14
 0.084361 1  18F100D0x       Rx   d 8 0C FF FF FF FF FF FF FF
 0.088359 1  CFF21CAx        Rx   d 8 03 00 80 0C 3B 36 00 14
 0.100401 1  CFF21CAx        Rx   d 8 03 00 80 0C 3B 36 00 14
 0.104427 1  18F100D0x       Rx   d 8 0C FF FF FF FF FF FF FF
 0.105315 1  18F100F3x       Rx   d 8 03 40 7D 12 FA FA 14 00
 0.106178 1  18F102F3x       Rx   d 8 10 44 10 3D 13 0C 00 07
 0.107427 1  18F106F3x       Rx   d 8 45 E0 FC FF FF FF FF FF
 0.108704 1  18F107F3x       Rx   d 8 38 A4 27 10 01 76 00 00
 0.110438 1  18F108F3x       Rx   d 8 10 00 04 00 00 00 00 01
 0.111312 1  18F155F3x       Rx   d 8 38 38 39 39 39 3A 39 00
 0.112304 1  18F156F3x       Rx   d 8 00 00 00 00 00 00 00 00
 0.112750 1  CFF21CAx        Rx   d 8 03 00 80 0C 3B 36 00 14
 0.113375 1  18F157F3x       Rx   d 8 00 00 00 00 00 00 00 00
 0.114212 1  18F158F3x       Rx   d 8 00 00 00 00 00 00 00 00
 0.115120 1  18F159F3x       Rx   d 8 00 00 00 00 00 00 00 00
 0.116033 1  18F15AF3x       Rx   d 8 00 00 00 00 00 00 00 00
 0.116958 1  18F15BF3x       Rx   d 7 00 00 00 00 00 00 00
 0.118078 1  18F15CF3x       Rx   d 8 00 00 00 00 00 00 00 00
 0.118969 1  18F15DF3x       Rx   d 8 00 00 00 00 00 00 00 00
 0.119882 1  18F15EF3x       Rx   d 8 00 00 00 00 00 00 00 00
 0.124999 1  CFF21CAx        Rx   d 8 03 00 80 0C 3B 36 00 14
 0.128735 1  18F100D0x       Rx   d 8 0C FF FF FF FF FF FF FF
 0.136542 1  CFF21CAx        Rx   d 8 03 00 80 0C 3B 36 00 14
 0.148765 1  CFF21CAx        Rx   d 8 04 00 80 0C 3B 36 00 14
 0.149289 1  18F100D0x       Rx   d 8 0C FF FF FF FF FF FF FF
 0.153182 1  18FF2112x       Rx   d 8 01 00 00 00 00 00 00 00
 0.160808 1  CFF21CAx        Rx   d 8 04 00 80 0C 3B 36 00 14
 0.168726 1  18F100D0x       Rx   d 8 0C FF FF FF FF FF FF FF
 0.172843 1  CFF21CAx        Rx   d 8 04 00 80 0C 3B 36 00 14
 0.184911 1  CFF21CAx        Rx   d 8 03 00 80 0C 3B 36 00 14
 0.192982 1  18F100D0x       Rx   d 8 0C FF FF FF FF FF FF FF
 0.196974 1  CFF21CAx        Rx   d 8 03 00 80 0C 3B 36 00 14
 0.205165 1  18F100F3x       Rx   d 8 03 40 7D 12 FA FA 14 00
 0.215130 1  18F102F3x       Rx   d 8 10 44 10 3D 13 0C 00 07
 0.215293 1  18F106F3x       Rx   d 8 45 E0 FC FF FF FF FF FF
 0.215421 1  18F107F3x       Rx   d 8 38 A4 27 10 01 76 00 00
 0.215540 1  CFF21CAx        Rx   d 8 03 00 80 0C 3B 36 00 14
 0.215662 1  18F108F3x       Rx   d 8 10 00 04 00 00 00 00 01
 0.215778 1  18F155F3x       Rx   d 8 38 38 39 39 39 3A 39 00
 0.215900 1  18F156F3x       Rx   d 8 00 00 00 00 00 00 00 00
 0.216032 1  18F100D0x       Rx   d 8 0C FF FF FF FF FF FF FF
 0.216232 1  18F157F3x       Rx   d 8 00 00 00 00 00 00 00 00
 0.216405 1  18F158F3x       Rx   d 8 00 00 00 00 00 00 00 00
 0.216535 1  18F159F3x       Rx   d 8 00 00 00 00 00 00 00 00
 0.216656 1  18F15AF3x       Rx   d 8 00 00 00 00 00 00 00 00
 0.217020 1  18F15BF3x       Rx   d 7 00 00 00 00 00 00 00
 0.218185 1  18F15CF3x       Rx   d 8 00 00 00 00 00 00 00 00
 0.219036 1  18F15DF3x       Rx   d 8 00 00 00 00 00 00 00 00
 0.219977 1  18F15EF3x       Rx   d 8 00 00 00 00 00 00 00 00
 0.220978 1  CFF21CAx        Rx   d 8 03 00 80 0C 3B 36 00 14
 0.232962 1  CFF21CAx        Rx   d 8 03 00 80 0C 3B 36 00 14
 0.233510 1  18F100D0x       Rx   d 8 0C FF FF FF FF FF FF FF
 0.245082 1  CFF21CAx        Rx   d 8 03 00 80 0C 3B 36 00 14
 0.250428 1  18FF2112x       Rx   d 8 01 00 00 00 00 00 00 00
 0.257038 1  CFF21CAx        Rx   d 8 03 00 80 0C 3B 36 00 14
 0.257596 1  18F100D0x       Rx   d 8 0C FF FF FF FF FF FF FF
 0.269122 1  CFF21CAx        Rx   d 8 03 00 80 0C 3B 36 00 14
 0.277150 1  18F100D0x       Rx   d 8 0C FF FF FF FF FF FF FF
 0.281143 1  CFF21CAx        Rx   d 8 04 00 80 0C 3B 36 00 14
 0.293350 1  CFF21CAx        Rx   d 8 04 00 80 0C 3B 36 00 14
 0.297372 1  18F100D0x       Rx   d 8 0C FF FF FF FF FF FF FF
 0.297908 1  18F104F3x       Rx   d 8 3A 38 06 01 02 FF FF FF
 0.298895 1  18F113F3x       Rx   d 8 10 40 10 40 10 40 10 40
 0.299832 1  18F114F3x       Rx   d 8 10 3E 10 3E 10 41 10 41
 0.300689 1  18F115F3x       Rx   d 8 10 3E 10 3E 10 3E 10 3D
 0.301601 1  18F116F3x       Rx   d 8 10 41 10 40 10 43 10 43
 0.302473 1  18F117F3x       Rx   d 8 10 3E 10 3F 10 44 10 43
 0.303482 1  18F118F3x       Rx   d 8 00 00 00 00 00 00 00 00
 0.304390 1  18F119F3x       Rx   d 8 00 00 00 00 00 00 00 00
 0.305375 1  CFF21CAx        Rx   d 8 04 00 80 0C 3B 36 00 14
 0.305942 1  18F100F3x       Rx   d 8 03 40 7D 12 FA FA 14 00
 0.306504 1  18F102F3x       Rx   d 8 10 44 10 3D 13 0C 00 07
 0.308136 1  18F106F3x       Rx   d 8 45 E0 FC FF FF FF FF FF
 0.309420 1  18F107F3x       Rx   d 8 38 A4 27 10 01 76 00 00
 0.311258 1  18F108F3x       Rx   d 8 10 00 04 00 00 00 00 01
 0.312218 1  18F11AF3x       Rx   d 8 00 00 00 00 00 00 00 00
 0.313419 1  18F11BF3x       Rx   d 8 00 00 00 00 00 00 00 00
 0.314199 1  18F11CF3x       Rx   d 8 00 00 00 00 00 00 00 00
 0.315196 1  18F11DF3x       Rx   d 8 00 00 00 00 00 00 00 00
 0.316179 1  18F11EF3x       Rx   d 8 00 00 00 00 00 00 00 00
 0.317029 1  18F11FF3x       Rx   d 8 00 00 00 00 00 00 00 00
 0.317556 1  CFF21CAx        Rx   d 8 04 00 80 0C 3B 36 00 14
 0.318278 1  18F120F3x       Rx   d 8 00 00 00 00 00 00 00 00
 0.319348 1  18F121F3x       Rx   d 8 00 00 00 00 00 00 00 00
 0.320262 1  18F122F3x       Rx   d 8 00 00 00 00 00 00 00 00
 0.321138 1  18F123F3x       Rx   d 8 00 00 00 00 00 00 00 00
 0.321659 1  18F100D0x       Rx   d 8 0C FF FF FF FF FF FF FF
 0.322376 1  18F124F3x       Rx   d 8 00 00 00 00 00 00 00 00
 0.323288 1  18F125F3x       Rx   d 8 00 00 00 00 00 00 00 00
 0.324208 1  18F126F3x       Rx   d 8 00 00 00 00 00 00 00 00
 0.325238 1  18F127F3x       Rx   d 8 00 00 00 00 00 00 00 00
 0.326036 1  18F128F3x       Rx   d 8 00 00 00 00 00 00 00 00
 0.327057 1  18F129F3x       Rx   d 8 00 00 00 00 00 00 00 00
 0.328401 1  18F12AF3x       Rx   d 8 00 00 00 00 00 00 00 00
 0.329302 1  18F12BF3x       Rx   d 8 00 00 00 00 00 00 00 00
 0.329713 1  CFF21CAx        Rx   d 8 04 00 80 0C 3B 36 00 14
 0.330439 1  18F12CF3x       Rx   d 8 00 00 00 00 00 00 00 00
 0.331346 1  18F12DF3x       Rx   d 8 00 00 00 00 00 00 00 00
 0.332250 1  18F12EF3x       Rx   d 8 00 00 00 00 00 00 00 00
 0.333173 1  18F12FF3x       Rx   d 8 00 00 00 00 00 00 00 00
 0.333977 1  18F130F3x       Rx   d 8 00 00 00 00 00 00 00 00
 0.334953 1  18F131F3x       Rx   d 8 00 00 00 00 00 00 00 00
 0.335917 1  18F132F3x       Rx   d 8 00 00 00 00 00 00 00 00
 0.336897 1  18F133F3x       Rx   d 8 00 00 00 00 00 00 00 00
 0.337955 1  18F134F3x       Rx   d 8 00 00 00 00 00 00 00 00
 0.339063 1  18F135F3x       Rx   d 8 00 00 00 00 00 00 00 00
 0.339959 1  18F136F3x       Rx   d 8 00 00 00 00 00 00 00 00
 0.340844 1  18F137F3x       Rx   d 8 00 00 00 00 00 00 00 00
 0.341519 1  CFF21CAx        Rx   d 8 04 00 80 0C 3B 36 00 14
 0.342014 1  18F138F3x       Rx   d 8 00 00 00 00 00 00 00 00
 0.342937 1  18F139F3x       Rx   d 8 00 00 00 00 00 00 00 00
 0.343776 1  18F13AF3x       Rx   d 8 00 00 00 00 00 00 00 00
 0.344632 1  18F13BF3x       Rx   d 8 00 00 00 00 00 00 00 00
 0.345396 1  18F100D0x       Rx   d 8 0C FF FF FF FF FF FF FF
 0.346210 1  18F13CF3x       Rx   d 8 00 00 00 00 00 00 00 00
 0.346957 1  18F155F3x       Rx   d 8 38 38 39 39 39 3A 39 00
 0.347663 1  18FF2112x       Rx   d 8 01 00 00 00 00 00 00 00
 0.348202 1  18F156F3x       Rx   d 8 00 00 00 00 00 00 00 00
 0.349227 1  18F157F3x       Rx   d 8 00 00 00 00 00 00 00 00
 0.350144 1  18F158F3x       Rx   d 8 00 00 00 00 00 00 00 00
 0.350946 1  18F159F3x       Rx   d 8 00 00 00 00 00 00 00 00
 0.351943 1  18F15AF3x       Rx   d 8 00 00 00 00 00 00 00 00
 0.352844 1  18F15BF3x       Rx   d 7 00 00 00 00 00 00 00
 0.353579 1  CFF21CAx        Rx   d 8 04 00 80 0C 3B 36 00 14
 0.354156 1  18F15CF3x       Rx   d 8 00 00 00 00 00 00 00 00
 0.354929 1  18F15DF3x       Rx   d 8 00 00 00 00 00 00 00 00
 0.355950 1  18F15EF3x       Rx   d 8 00 00 00 00 00 00 00 00
 0.365631 1  CFF21CAx        Rx   d 8 04 00 80 0C 3B 36 00 14
 0.366182 1  18F100D0x       Rx   d 8 0C FF FF FF FF FF FF FF
 0.377541 1  CFF21CAx        Rx   d 8 04 00 80 0C 3B 36 00 14
 0.385606 1  18F100D0x       Rx   d 8 0C FF FF FF FF FF FF FF
 0.389718 1  CFF21CAx        Rx   d 8 04 00 80 0C 3B 36 00 14
 0.401643 1  CFF21CAx        Rx   d 8 04 00 80 0C 3B 36 00 14
 0.405138 1  18F100F3x       Rx   d 8 03 40 7D 12 FA FA 14 00
 0.406163 1  18F102F3x       Rx   d 8 10 44 10 3D 13 0C 00 07
 0.407465 1  18F106F3x       Rx   d 8 45 E0 FC FF FF FF FF FF
 0.408669 1  18F107F3x       Rx   d 8 38 A4 27 10 01 76 00 00
 0.410153 1  18F100D0x       Rx   d 8 0C FF FF FF FF FF FF FF
 0.410715 1  18F108F3x       Rx   d 8 10 00 04 00 00 00 00 01
 0.411585 1  18F155F3x       Rx   d 8 38 38 39 39 39 3A 39 00
 0.412481 1  18F156F3x       Rx   d 8 00 00 00 00 00 00 00 00
 0.413358 1  18F157F3x       Rx   d 8 00 00 00 00 00 00 00 00
 0.413952 1  CFF21CAx        Rx   d 8 04 00 80 0C 3B 36 00 14
 0.414489 1  18F158F3x       Rx   d 8 00 00 00 00 00 00 00 00
 0.415512 1  18F159F3x       Rx   d 8 00 00 00 00 00 00 00 00
 0.416389 1  18F15AF3x       Rx   d 8 00 00 00 00 00 00 00 00
 0.417058 1  18F15BF3x       Rx   d 7 00 00 00 00 00 00 00
 0.418301 1  18F15CF3x       Rx   d 8 00 00 00 00 00 00 00 00
 0.419069 1  18F15DF3x       Rx   d 8 00 00 00 00 00 00 00 00
 0.420100 1  18F15EF3x       Rx   d 8 00 00 00 00 00 00 00 00
 0.430813 1  CFF21CAx        Rx   d 8 04 00 80 0C 3B 36 00 14
 0.430939 1  18F100D0x       Rx   d 8 0C FF FF FF FF FF FF FF
 0.437805 1  CFF21CAx        Rx   d 8 04 00 80 0C 3B 36 00 14
 0.444974 1  18FF2112x       Rx   d 8 01 00 00 00 00 00 00 00
 0.449884 1  CFF21CAx        Rx   d 8 04 00 80 0C 3B 36 00 14
 0.450423 1  18F100D0x       Rx   d 8 0C FF FF FF FF FF FF FF
 0.462025 1  CFF21CAx        Rx   d 8 04 00 80 0C 3B 36 00 14
 0.473962 1  CFF21CAx        Rx   d 8 04 00 80 0C 3B 36 00 14
 0.474507 1  18F100D0x       Rx   d 8 0C FF FF FF FF FF FF FF
 0.486198 1  CFF21CAx        Rx   d 8 04 00 80 0C 3B 36 00 14
 0.494189 1  18F100D0x       Rx   d 8 0C FF FF FF FF FF FF FF
 0.498215 1  CFF21CAx        Rx   d 8 04 00 80 0C 3B 36 00 14
 0.505240 1  18F100F3x       Rx   d 8 03 40 7D 13 FA FA 14 00
 0.506172 1  18F102F3x       Rx   d 8 10 44 10 3D 13 0C 00 07
 0.507460 1  18F106F3x       Rx   d 8 45 E0 FC FF FF FF FF FF
 0.508750 1  18F107F3x       Rx   d 8 38 A4 27 10 01 76 00 00
 0.510173 1  CFF21CAx        Rx   d 8 04 00 80 0C 3B 36 00 14
 0.510745 1  18F108F3x       Rx   d 8 10 00 04 00 00 00 00 01
 0.511598 1  18F155F3x       Rx   d 8 38 38 39 39 39 3A 39 00
 0.512494 1  18F156F3x       Rx   d 8 00 00 00 00 00 00 00 00
 0.513380 1  18F157F3x       Rx   d 8 00 00 00 00 00 00 00 00
 0.514374 1  18F100D0x       Rx   d 8 0C FF FF FF FF FF FF FF
 0.514765 1  18F158F3x       Rx   d 8 00 00 00 00 00 00 00 00
 0.515687 1  18F159F3x       Rx   d 8 00 00 00 00 00 00 00 00
 0.516588 1  18F15AF3x       Rx   d 8 00 00 00 00 00 00 00 00
 0.517264 1  18F15BF3x       Rx   d 7 00 00 00 00 00 00 00
 0.518286 1  18F15CF3x       Rx   d 8 00 00 00 00 00 00 00 00
 0.519080 1  18F15DF3x       Rx   d 8 00 00 00 00 00 00 00 00
 0.520110 1  18F15EF3x       Rx   d 8 00 00 00 00 00 00 00 00
 0.522312 1  CFF21CAx        Rx   d 8 04 00 80 0C 3B 36 00 14
 0.534172 1  CFF21CAx        Rx   d 8 04 00 80 0C 3B 36 00 14
 0.538202 1  18F100D0x       Rx   d 8 0C FF FF FF FF FF FF FF
 0.542175 1  18FF2112x       Rx   d 8 01 00 00 00 00 00 00 00
 0.546871 1  CFF21CAx        Rx   d 8 04 00 80 0C 3B 36 00 14
 0.558432 1  CFF21CAx        Rx   d 8 04 00 80 0C 3B 36 00 14
 0.558848 1  18F100D0x       Rx   d 8 0C FF FF FF FF FF FF FF
 0.570484 1  CFF21CAx        Rx   d 8 04 00 80 0C 3B 36 00 14
 0.578830 1  18F100D0x       Rx   d 8 0C FF FF FF FF FF FF FF
 0.582523 1  CFF21CAx        Rx   d 8 04 00 80 0C 3B 36 00 14
 0.594621 1  CFF21CAx        Rx   d 8 04 00 80 0C 3B 36 00 14
 0.602492 1  18F100D0x       Rx   d 8 0C FF FF FF FF FF FF FF
 0.605163 1  18F100F3x       Rx   d 8 03 40 7D 13 FA FA 14 00
 0.606194 1  18F102F3x       Rx   d 8 10 44 10 3D 13 0C 00 07
 0.606735 1  CFF21CAx        Rx   d 8 04 00 80 0C 3B 36 00 14
 0.607512 1  18F106F3x       Rx   d 8 45 E0 FC FF FF FF FF FF
 0.608711 1  18F107F3x       Rx   d 8 38 A4 27 10 01 76 00 00
 0.610446 1  18F108F3x       Rx   d 8 10 00 04 00 00 00 00 01
 0.611279 1  18F155F3x       Rx   d 8 38 38 39 39 39 3A 39 00
 0.612160 1  18F156F3x       Rx   d 8 00 00 00 00 00 00 00 00
 0.613121 1  18F157F3x       Rx   d 8 00 00 00 00 00 00 00 00
 0.613975 1  18F158F3x       Rx   d 8 00 00 00 00 00 00 00 00
 0.614920 1  18F159F3x       Rx   d 8 00 00 00 00 00 00 00 00
 0.615940 1  18F15AF3x       Rx   d 8 00 00 00 00 00 00 00 00
 0.616741 1  18F15BF3x       Rx   d 7 00 00 00 00 00 00 00
 0.617484 1  18F15CF3x       Rx   d 8 00 00 00 00 00 00 00 00
 0.618359 1  18F15DF3x       Rx   d 8 00 00 00 00 00 00 00 00
 0.618928 1  CFF21CAx        Rx   d 8 04 00 80 0C 3B 36 00 14
 0.619476 1  18F15EF3x       Rx   d 8 00 00 00 00 00 00 00 00
 0.622695 1  18F100D0x       Rx   d 8 0C FF FF FF FF FF FF FF
 0.630711 1  CFF21CAx        Rx   d 8 03 00 80 0C 3B 36 00 14
 0.653663 1  18FF2112x       Rx   d 8 01 00 00 00 00 00 00 00
 0.653775 1  CFF21CAx        Rx   d 8 03 00 80 0C 3B 36 00 14
 0.654676 1  CFF21CAx        Rx   d 8 03 00 80 0C 3B 36 00 14
 0.655278 1  18F100D0x       Rx   d 8 0C FF FF FF FF FF FF FF
 0.667156 1  CFF21CAx        Rx   d 8 03 00 80 0C 3B 36 00 14
 0.675337 1  18F100D0x       Rx   d 8 0C FF FF FF FF FF FF FF
 0.678883 1  CFF21CAx        Rx   d 8 03 00 80 0C 3B 36 00 14
 0.690865 1  CFF21CAx        Rx   d 8 03 00 80 0C 3B 36 00 14
 0.698998 1  18F100D0x       Rx   d 8 0C FF FF FF FF FF FF FF
 0.702893 1  CFF21CAx        Rx   d 8 03 00 80 0C 3B 36 00 14
 0.705189 1  18F100F3x       Rx   d 8 03 40 7D 12 FA FA 14 00
 0.706069 1  18F102F3x       Rx   d 8 10 44 10 3D 13 0C 00 07
 0.707329 1  18F106F3x       Rx   d 8 45 E0 FC FF FF FF FF FF
 0.708651 1  18F107F3x       Rx   d 8 38 A4 27 10 01 76 00 00
 0.710413 1  18F108F3x       Rx   d 8 10 00 04 00 00 00 00 01
 0.711284 1  18F155F3x       Rx   d 8 38 38 39 39 39 3A 39 00
 0.712171 1  18F156F3x       Rx   d 8 00 00 00 00 00 00 00 00
 0.713082 1  18F157F3x       Rx   d 8 00 00 00 00 00 00 00 00
 0.714004 1  18F158F3x       Rx   d 8 00 00 00 00 00 00 00 00
 0.714958 1  18F159F3x       Rx   d 8 00 00 00 00 00 00 00 00
 0.715489 1  CFF21CAx        Rx   d 8 03 00 80 0C 3B 36 00 14
 0.716073 1  18F15AF3x       Rx   d 8 00 00 00 00 00 00 00 00
 0.717090 1  18F15BF3x       Rx   d 7 00 00 00 00 00 00 00
 0.718098 1  18F15CF3x       Rx   d 8 00 00 00 00 00 00 00 00
 0.718933 1  18F100D0x       Rx   d 8 0C FF FF FF FF FF FF FF
 0.719506 1  18F15DF3x       Rx   d 8 00 00 00 00 00 00 00 00
 0.720347 1  18F15EF3x       Rx   d 8 00 00 00 00 00 00 00 00
 0.726952 1  CFF21CAx        Rx   d 8 03 00 80 0C 3B 36 00 14
 0.736773 1  18FF2112x       Rx   d 8 01 00 00 00 00 00 00 00
 0.739594 1  CFF21CAx        Rx   d 8 03 00 80 0C 3B 36 00 14
 0.740200 1  18F100D0x       Rx   d 8 0C FF FF FF FF FF FF FF
 0.751079 1  CFF21CAx        Rx   d 8 03 00 80 0C 3B 36 00 14
 0.759099 1  18F100D0x       Rx   d 8 0C FF FF FF FF FF FF FF
 0.763179 1  CFF21CAx        Rx   d 8 03 00 80 0C 3B 36 00 14
 0.775260 1  CFF21CAx        Rx   d 8 03 00 80 0C 3B 36 00 14
 0.783393 1  18F100D0x       Rx   d 8 0C FF FF FF FF FF FF FF
 0.787385 1  CFF21CAx        Rx   d 8 03 00 80 0C 3B 36 00 14
 0.799401 1  CFF21CAx        Rx   d 8 03 00 80 0C 3B 36 00 14
 0.803952 1  18F100D0x       Rx   d 8 0C FF FF FF FF FF FF FF
 0.805159 1  18F100F3x       Rx   d 8 03 40 7D 12 FA FA 14 00
 0.806191 1  18F102F3x       Rx   d 8 10 44 10 3D 13 0C 00 07
 0.807540 1  18F106F3x       Rx   d 8 45 E0 FC FF FF FF FF FF
 0.808692 1  18F107F3x       Rx   d 8 38 A4 27 10 01 76 00 00
 0.810484 1  18F108F3x       Rx   d 8 10 00 04 00 00 00 00 01
 0.811327 1  18F155F3x       Rx   d 8 38 38 39 39 39 3A 39 00
 0.811956 1  CFF21CAx        Rx   d 8 03 00 80 0C 3B 36 00 14
 0.812608 1  18F156F3x       Rx   d 8 00 00 00 00 00 00 00 00
 0.813358 1  18F157F3x       Rx   d 8 00 00 00 00 00 00 00 00
 0.814385 1  18F158F3x       Rx   d 8 00 00 00 00 00 00 00 00
 0.815106 1  18F159F3x       Rx   d 8 00 00 00 00 00 00 00 00
 0.816165 1  18F15AF3x       Rx   d 8 00 00 00 00 00 00 00 00
 0.816923 1  18F15BF3x       Rx   d 7 00 00 00 00 00 00 00
 0.818054 1  18F15CF3x       Rx   d 8 00 00 00 00 00 00 00 00
 0.818968 1  18F15DF3x       Rx   d 8 00 00 00 00 00 00 00 00
 0.819980 1  18F15EF3x       Rx   d 8 00 00 00 00 00 00 00 00
 0.823473 1  CFF21CAx        Rx   d 8 04 00 80 0C 3B 36 00 14
 0.827405 1  18F100D0x       Rx   d 8 0C FF FF FF FF FF FF FF
 0.833995 1  18FF2112x       Rx   d 8 01 00 00 00 00 00 00 00
 0.835965 1  CFF21CAx        Rx   d 8 04 00 80 0C 3B 36 00 14
 0.847472 1  CFF21CAx        Rx   d 8 03 00 80 0C 3B 36 00 14
 0.851574 1  18F100D0x       Rx   d 8 0C FF FF FF FF FF FF FF
 0.871896 1  CFF21CAx        Rx   d 8 03 00 80 0C 3B 36 00 14
 0.872038 1  CFF21CAx        Rx   d 8 03 00 80 0C 3B 36 00 14
 0.872159 1  18F100D0x       Rx   d 8 0C FF FF FF FF FF FF FF
 0.883680 1  CFF21CAx        Rx   d 8 04 00 80 0C 3B 36 00 14
 0.891712 1  18F100D0x       Rx   d 8 0C FF FF FF FF FF FF FF
 0.895666 1  CFF21CAx        Rx   d 8 04 00 80 0C 3B 36 00 14
 0.905209 1  18F100F3x       Rx   d 8 03 40 7D 12 FA FA 14 00
 0.906041 1  18F102F3x       Rx   d 8 10 43 10 3D 10 0C 00 06
 0.907353 1  18F106F3x       Rx   d 8 45 E0 FC FF FF FF FF FF
 0.908258 1  CFF21CAx        Rx   d 8 04 00 80 0C 3B 36 00 14
 0.908794 1  18F107F3x       Rx   d 8 38 A4 27 10 01 76 00 00
 0.910564 1  18F108F3x       Rx   d 8 10 00 04 00 00 00 00 01
 0.911409 1  18F155F3x       Rx   d 8 38 38 39 39 39 3A 39 00
 0.912515 1  18F156F3x       Rx   d 8 00 00 00 00 00 00 00 00
 0.913152 1  18F157F3x       Rx   d 8 00 00 00 00 00 00 00 00
 0.914085 1  18F158F3x       Rx   d 8 00 00 00 00 00 00 00 00
 0.915012 1  18F159F3x       Rx   d 8 00 00 00 00 00 00 00 00
 0.915772 1  18F100D0x       Rx   d 8 0C FF FF FF FF FF FF FF
 0.916363 1  18F15AF3x       Rx   d 8 00 00 00 00 00 00 00 00
 0.916946 1  18FECACAx       Rx   d 8 00 00 00 00 00 00 FF FF
 0.917454 1  18F15BF3x       Rx   d 7 00 00 00 00 00 00 00
 0.918340 1  18F15CF3x       Rx   d 8 00 00 00 00 00 00 00 00
 0.919182 1  18F15DF3x       Rx   d 8 00 00 00 00 00 00 00 00
 0.919743 1  CFF21CAx        Rx   d 8 04 00 80 0C 3B 36 00 14
 0.920352 1  18F15EF3x       Rx   d 8 00 00 00 00 00 00 00 00
 0.931392 1  18FF2112x       Rx   d 8 01 00 00 00 00 00 00 00
 0.932331 1  CFF21CAx        Rx   d 8 04 00 80 0C 3B 36 00 14
 0.940291 1  18F100D0x       Rx   d 8 0C FF FF FF FF FF FF FF
 0.943854 1  CFF21CAx        Rx   d 8 04 00 80 0C 3B 36 00 14
 0.956149 1  CFF21CAx        Rx   d 8 04 00 80 0C 3B 36 00 14
 0.960055 1  18F100D0x       Rx   d 8 0C FF FF FF FF FF FF FF
 0.968124 1  CFF21CAx        Rx   d 8 04 00 80 0C 3B 36 00 14
 0.980284 1  CFF21CAx        Rx   d 8 04 00 80 0C 3B 36 00 14
 0.980681 1  18F100D0x       Rx   d 8 0C FF FF FF FF FF FF FF
 0.992092 1  CFF21CAx        Rx   d 8 04 00 80 0C 3B 36 00 14
 1.004557 1  CFF21CAx        Rx   d 8 04 00 80 0C 3B 36 00 14
 1.005129 1  18F100D0x       Rx   d 8 0C FF FF FF FF FF FF FF
 1.005801 1  18F100F3x       Rx   d 8 03 40 7D 12 FA FA 14 00
 1.006675 1  18F102F3x       Rx   d 8 10 43 10 3D 10 0C 00 06
 1.008223 1  18F106F3x       Rx   d 8 45 E0 FC FF FF FF FF FF
 1.009379 1  18F107F3x       Rx   d 8 38 A4 27 10 01 76 00 00
 1.011169 1  18F108F3x       Rx   d 8 10 00 04 00 00 00 00 01
 1.012085 1  18F155F3x       Rx   d 8 38 38 39 39 39 3A 39 00
 1.013043 1  18F156F3x       Rx   d 8 00 00 00 00 00 00 00 00
 1.013978 1  18F157F3x       Rx   d 8 00 00 00 00 00 00 00 00
 1.014826 1  18F158F3x       Rx   d 8 00 00 00 00 00 00 00 00
 1.015852 1  18F159F3x       Rx   d 8 00 00 00 00 00 00 00 00
 1.016400 1  CFF21CAx        Rx   d 8 04 00 80 0C 3B 36 00 14
 1.016887 1  18F15AF3x       Rx   d 8 00 00 00 00 00 00 00 00
 1.018048 1  18F15BF3x       Rx   d 7 00 00 00 00 00 00 00
 1.018936 1  18F15CF3x       Rx   d 8 00 00 00 00 00 00 00 00
 1.019927 1  18F15DF3x       Rx   d 8 00 00 00 00 00 00 00 00
 1.020786 1  18F15EF3x       Rx   d 8 00 00 00 00 00 00 00 00
 1.028705 1  18FF2112x       Rx   d 8 01 00 00 00 00 00 00 00
 1.029275 1  CFF21CAx        Rx   d 8 04 00 80 0C 3B 36 00 14
 1.029694 1  18F100D0x       Rx   d 8 0C FF FF FF FF FF FF FF
 1.040368 1  CFF21CAx        Rx   d 8 04 00 80 0C 3B 36 00 14
 1.048442 1  18F100D0x       Rx   d 8 0C FF FF FF FF FF FF FF
 1.052704 1  CFF21CAx        Rx   d 8 04 00 80 0C 3B 36 00 14
 1.064325 1  CFF21CAx        Rx   d 8 04 00 80 0C 3B 36 00 14
 1.072513 1  18F100D0x       Rx   d 8 0C FF FF FF FF FF FF FF
 1.076400 1  CFF21CAx        Rx   d 8 04 00 80 0C 3B 36 00 14
 1.089662 1  CFF21CAx        Rx   d 8 04 00 80 0C 3B 36 00 14
 1.092457 1  18F100D0x       Rx   d 8 0C FF FF FF FF FF FF FF
 1.100959 1  CFF21CAx        Rx   d 8 04 00 80 0C 3B 36 00 14
 1.105201 1  18F100F3x       Rx   d 8 03 40 7D 12 FA FA 14 00
 1.106102 1  18F102F3x       Rx   d 8 10 43 10 3D 10 0C 00 06
 1.107394 1  18F106F3x       Rx   d 8 45 E0 FC FF FF FF FF FF
 1.108723 1  18F107F3x       Rx   d 8 38 A4 27 10 01 76 00 00
 1.110450 1  18F108F3x       Rx   d 8 10 00 04 00 00 00 00 01
 1.111316 1  18F155F3x       Rx   d 8 38 38 39 39 39 3A 39 00
 1.112223 1  18F156F3x       Rx   d 8 00 00 00 00 00 00 00 00
 1.112753 1  CFF21CAx        Rx   d 8 03 00 80 0C 3B 36 00 14
 1.113326 1  18F157F3x       Rx   d 8 00 00 00 00 00 00 00 00
 1.114233 1  18F158F3x       Rx   d 8 00 00 00 00 00 00 00 00
 1.115110 1  18F159F3x       Rx   d 8 00 00 00 00 00 00 00 00
 1.116039 1  18F15AF3x       Rx   d 8 00 00 00 00 00 00 00 00
 1.116681 1  18F100D0x       Rx   d 8 0C FF FF FF FF FF FF FF
 1.117253 1  18F15BF3x       Rx   d 7 00 00 00 00 00 00 00
 1.118273 1  18F15CF3x       Rx   d 8 00 00 00 00 00 00 00 00
 1.119090 1  18F15DF3x       Rx   d 8 00 00 00 00 00 00 00 00
 1.119964 1  18F15EF3x       Rx   d 8 00 00 00 00 00 00 00 00
 1.124557 1  CFF21CAx        Rx   d 8 03 00 80 0C 3B 36 00 14
 1.125821 1  18FF2112x       Rx   d 8 01 00 00 00 00 00 00 00
 1.136647 1  CFF21CAx        Rx   d 8 04 00 80 0C 3B 36 00 14
 1.140682 1  18F100D0x       Rx   d 8 0C FF FF FF FF FF FF FF
 1.148721 1  CFF21CAx        Rx   d 8 04 00 80 0C 3B 36 00 14
 1.160769 1  CFF21CAx        Rx   d 8 04 00 80 0C 3B 36 00 14
 1.161308 1  18F100D0x       Rx   d 8 0C FF FF FF FF FF FF FF
 1.172886 1  CFF21CAx        Rx   d 8 04 00 80 0C 3B 36 00 14
 1.180981 1  18F100D0x       Rx   d 8 0C FF FF FF FF FF FF FF
 1.184890 1  CFF21CAx        Rx   d 8 04 00 80 0C 3B 36 00 14
 1.197091 1  CFF21CAx        Rx   d 8 04 00 80 0C 3B 36 00 14
 1.204968 1  18F100D0x       Rx   d 8 0C FF FF FF FF FF FF FF
 1.205626 1  18F100F3x       Rx   d 8 03 40 7D 12 FA FA 14 00
 1.206476 1  18F102F3x       Rx   d 8 10 43 10 3D 10 0C 00 06
 1.207718 1  18F106F3x       Rx   d 8 45 E0 FC FF FF FF FF FF
 1.208965 1  18F107F3x       Rx   d 8 38 A4 27 10 01 76 00 00
 1.209451 1  CFF21CAx        Rx   d 8 04 00 80 0C 3B 36 00 14
 1.210666 1  18F108F3x       Rx   d 8 10 00 04 00 00 00 00 01
