date Sat May 09 18:13:21.484 2026
base hex  timestamps absolute
internal events logged
Begin Triggerblock Sat May 09 18:13:21.495 2026
 0.000000 Start of measurement
 0.000000 1  1806E5F4x       Rx   d 8 00 00 00 00 01 FF FF FF
 0.054166 1  18F100F3x       Rx   d 8 03 42 7D 00 FA FA 14 00
 0.054923 1  18F102F3x       Rx   d 8 10 4E 10 47 10 06 00 07
 0.056144 1  18F106F3x       Rx   d 8 80 C4 FC FF FF FF FF FF
 0.057501 1  18F107F3x       Rx   d 8 27 10 27 10 00 00 00 00
 0.059258 1  18F108F3x       Rx   d 8 10 00 04 00 00 00 00 B9
 0.060132 1  18F155F3x       Rx   d 8 3C 3C 3C 3C 3C 3D 3D 00
 0.061018 1  18F156F3x       Rx   d 8 00 00 00 00 00 00 00 00
 0.061935 1  18F157F3x       Rx   d 8 00 00 00 00 00 00 00 00
 0.062944 1  18F158F3x       Rx   d 8 00 00 00 00 00 00 00 00
 0.063838 1  18F159F3x       Rx   d 8 00 00 00 00 00 00 00 00
 0.064809 1  18F15AF3x       Rx   d 8 00 00 00 00 00 00 00 00
 0.065681 1  18F15BF3x       Rx   d 7 00 00 00 00 00 00 00
 0.066857 1  18F15CF3x       Rx   d 8 00 00 00 00 00 00 00 00
 0.067758 1  18F15DF3x       Rx   d 8 00 00 00 00 00 00 00 00
 0.068644 1  18F15EF3x       Rx   d 8 00 00 00 00 00 00 00 00
 0.070257 1  1806E5F4x       Rx   d 8 00 00 00 00 01 FF FF FF
 0.120054 1  1806E5F4x       Rx   d 8 00 00 00 00 01 FF FF FF
 0.154288 1  18F100F3x       Rx   d 8 03 42 7D 00 FA FA 14 00
 0.154934 1  18F102F3x       Rx   d 8 10 4E 10 47 10 06 00 07
 0.156216 1  18F106F3x       Rx   d 8 80 C4 FC FF FF FF FF FF
 0.157510 1  18F107F3x       Rx   d 8 27 10 27 10 00 00 00 00
 0.159283 1  18F108F3x       Rx   d 8 10 00 04 00 00 00 00 B9
 0.160174 1  18F155F3x       Rx   d 8 3C 3C 3C 3C 3C 3D 3D 00
 0.161038 1  18F156F3x       Rx   d 8 00 00 00 00 00 00 00 00
 0.161933 1  18F157F3x       Rx   d 8 00 00 00 00 00 00 00 00
 0.162857 1  18F158F3x       Rx   d 8 00 00 00 00 00 00 00 00
 0.163796 1  18F159F3x       Rx   d 8 00 00 00 00 00 00 00 00
 0.164721 1  18F15AF3x       Rx   d 8 00 00 00 00 00 00 00 00
 0.165492 1  18F15BF3x       Rx   d 7 00 00 00 00 00 00 00
 0.166378 1  18F15CF3x       Rx   d 8 00 00 00 00 00 00 00 00
 0.167248 1  18F15DF3x       Rx   d 8 00 00 00 00 00 00 00 00
 0.168126 1  18F15EF3x       Rx   d 8 00 00 00 00 00 00 00 00
 0.170101 1  1806E5F4x       Rx   d 8 00 00 00 00 01 FF FF FF
 0.220150 1  1806E5F4x       Rx   d 8 00 00 00 00 01 FF FF FF
 0.254121 1  18F100F3x       Rx   d 8 03 42 7D 00 FA FA 14 00
 0.254921 1  18F102F3x       Rx   d 8 10 4E 10 47 10 06 00 07
 0.256222 1  18F106F3x       Rx   d 8 80 C4 FC FF FF FF FF FF
 0.257480 1  18F107F3x       Rx   d 8 27 10 27 10 00 00 00 00
 0.259265 1  18F108F3x       Rx   d 8 10 00 04 00 00 00 00 B9
 0.260213 1  18F155F3x       Rx   d 8 3C 3C 3C 3C 3C 3D 3D 00
 0.261057 1  18F156F3x       Rx   d 8 00 00 00 00 00 00 00 00
 0.261962 1  18F157F3x       Rx   d 8 00 00 00 00 00 00 00 00
 0.262861 1  18F158F3x       Rx   d 8 00 00 00 00 00 00 00 00
 0.263802 1  18F159F3x       Rx   d 8 00 00 00 00 00 00 00 00
 0.264762 1  18F15AF3x       Rx   d 8 00 00 00 00 00 00 00 00
 0.265513 1  18F15BF3x       Rx   d 7 00 00 00 00 00 00 00
 0.266416 1  18F15CF3x       Rx   d 8 00 00 00 00 00 00 00 00
 0.267268 1  18F15DF3x       Rx   d 8 00 00 00 00 00 00 00 00
 0.268111 1  18F15EF3x       Rx   d 8 00 00 00 00 00 00 00 00
 0.270109 1  1806E5F4x       Rx   d 8 00 00 00 00 01 FF FF FF
 0.320130 1  1806E5F4x       Rx   d 8 00 00 00 00 01 FF FF FF
 0.354133 1  18F100F3x       Rx   d 8 03 42 7D 00 FA FA 14 00
 0.354937 1  18F102F3x       Rx   d 8 10 4E 10 47 10 06 00 07
 0.356197 1  18F106F3x       Rx   d 8 80 C4 FC FF FF FF FF FF
 0.357580 1  18F107F3x       Rx   d 8 27 10 27 10 00 00 00 00
 0.359298 1  18F108F3x       Rx   d 8 10 00 04 00 00 00 00 B9
 0.360129 1  18F155F3x       Rx   d 8 3C 3C 3C 3C 3C 3D 3D 00
 0.360995 1  18F156F3x       Rx   d 8 00 00 00 00 00 00 00 00
 0.361906 1  18F157F3x       Rx   d 8 00 00 00 00 00 00 00 00
 0.362832 1  18F158F3x       Rx   d 8 00 00 00 00 00 00 00 00
 0.363759 1  18F159F3x       Rx   d 8 00 00 00 00 00 00 00 00
 0.364799 1  18F15AF3x       Rx   d 8 00 00 00 00 00 00 00 00
 0.365549 1  18F15BF3x       Rx   d 7 00 00 00 00 00 00 00
 0.366413 1  18F15CF3x       Rx   d 8 00 00 00 00 00 00 00 00
 0.367271 1  18F15DF3x       Rx   d 8 00 00 00 00 00 00 00 00
 0.368117 1  18F15EF3x       Rx   d 8 00 00 00 00 00 00 00 00
 0.370057 1  1806E5F4x       Rx   d 8 00 00 00 00 01 FF FF FF
 0.422460 1  1806E5F4x       Rx   d 8 00 00 00 00 01 FF FF FF
 0.454131 1  18F100F3x       Rx   d 8 03 42 7D 00 FA FA 14 00
 0.454924 1  18F102F3x       Rx   d 8 10 4E 10 47 10 06 00 07
 0.456225 1  18F106F3x       Rx   d 8 80 C4 FC FF FF FF FF FF
 0.457504 1  18F107F3x       Rx   d 8 27 10 27 10 00 00 00 00
 0.459298 1  18F108F3x       Rx   d 8 10 00 04 00 00 00 00 B9
 0.460152 1  18F155F3x       Rx   d 8 3C 3C 3C 3C 3C 3D 3D 00
 0.461084 1  18F156F3x       Rx   d 8 00 00 00 00 00 00 00 00
 0.461987 1  18F157F3x       Rx   d 8 00 00 00 00 00 00 00 00
 0.462864 1  18F158F3x       Rx   d 8 00 00 00 00 00 00 00 00
 0.463812 1  18F159F3x       Rx   d 8 00 00 00 00 00 00 00 00
 0.464785 1  18F15AF3x       Rx   d 8 00 00 00 00 00 00 00 00
 0.465529 1  18F15BF3x       Rx   d 7 00 00 00 00 00 00 00
 0.466381 1  18F15CF3x       Rx   d 8 00 00 00 00 00 00 00 00
 0.467222 1  18F15DF3x       Rx   d 8 00 00 00 00 00 00 00 00
 0.468094 1  18F15EF3x       Rx   d 8 00 00 00 00 00 00 00 00
 0.470101 1  1806E5F4x       Rx   d 8 00 00 00 00 01 FF FF FF
 0.532448 1  1806E5F4x       Rx   d 8 00 00 00 00 01 FF FF FF
 0.554122 1  18F100F3x       Rx   d 8 03 42 7D 00 FA FA 14 00
 0.554953 1  18F102F3x       Rx   d 8 10 4E 10 47 10 06 00 07
 0.556225 1  18F106F3x       Rx   d 8 80 C4 FC FF FF FF FF FF
 0.557504 1  18F107F3x       Rx   d 8 27 10 27 10 00 00 00 00
 0.559273 1  18F108F3x       Rx   d 8 10 00 04 00 00 00 00 B9
 0.560149 1  18F155F3x       Rx   d 8 3C 3C 3C 3C 3C 3D 3D 00
 0.561209 1  18F156F3x       Rx   d 8 00 00 00 00 00 00 00 00
 0.561988 1  18F157F3x       Rx   d 8 00 00 00 00 00 00 00 00
 0.562937 1  18F158F3x       Rx   d 8 00 00 00 00 00 00 00 00
 0.563864 1  18F159F3x       Rx   d 8 00 00 00 00 00 00 00 00
 0.564819 1  18F15AF3x       Rx   d 8 00 00 00 00 00 00 00 00
 0.565757 1  18F15BF3x       Rx   d 7 00 00 00 00 00 00 00
 0.566892 1  18F15CF3x       Rx   d 8 00 00 00 00 00 00 00 00
 0.567797 1  18F15DF3x       Rx   d 8 00 00 00 00 00 00 00 00
 0.568672 1  18F15EF3x       Rx   d 8 00 00 00 00 00 00 00 00
 0.582109 1  1806E5F4x       Rx   d 8 00 00 00 00 01 FF FF FF
 0.636748 1  1806E5F4x       Rx   d 8 00 00 00 00 01 FF FF FF
 0.643540 1  18F104F3x       Rx   d 8 3D 3C 06 01 01 FF FF FF
 0.644402 1  18F113F3x       Rx   d 8 10 4A 10 4A 10 4B 10 4A
 0.645333 1  18F114F3x       Rx   d 8 10 48 10 47 10 4B 10 4B
 0.646240 1  18F115F3x       Rx   d 8 10 47 10 47 10 49 10 47
 0.647160 1  18F116F3x       Rx   d 8 10 4B 10 49 10 4C 10 4E
 0.648051 1  18F117F3x       Rx   d 8 10 47 10 49 10 4D 10 4C
 0.648982 1  18F118F3x       Rx   d 8 00 00 00 00 00 00 00 00
 0.649954 1  18F119F3x       Rx   d 8 00 00 00 00 00 00 00 00
 0.650915 1  18F11AF3x       Rx   d 8 00 00 00 00 00 00 00 00
 0.651848 1  18F11BF3x       Rx   d 8 00 00 00 00 00 00 00 00
 0.652795 1  18F11CF3x       Rx   d 8 00 00 00 00 00 00 00 00
 0.653771 1  18F11DF3x       Rx   d 8 00 00 00 00 00 00 00 00
 0.654795 1  18F100F3x       Rx   d 8 03 42 7D 00 FA FA 14 00
 0.655700 1  18F102F3x       Rx   d 8 10 4E 10 47 10 06 00 07
 0.657298 1  18F106F3x       Rx   d 8 80 C4 FC FF FF FF FF FF
 0.658597 1  18F107F3x       Rx   d 8 27 10 27 10 00 00 00 00
 0.660422 1  18F108F3x       Rx   d 8 10 00 04 00 00 00 00 B9
 0.661351 1  18F11EF3x       Rx   d 8 00 00 00 00 00 00 00 00
 0.662266 1  18F11FF3x       Rx   d 8 00 00 00 00 00 00 00 00
 0.663196 1  18F120F3x       Rx   d 8 00 00 00 00 00 00 00 00
 0.664124 1  18F121F3x       Rx   d 8 00 00 00 00 00 00 00 00
 0.665047 1  18F122F3x       Rx   d 8 00 00 00 00 00 00 00 00
 0.665992 1  18F123F3x       Rx   d 8 00 00 00 00 00 00 00 00
 0.667188 1  18F124F3x       Rx   d 8 00 00 00 00 00 00 00 00
 0.668100 1  18F125F3x       Rx   d 8 00 00 00 00 00 00 00 00
 0.668992 1  18F126F3x       Rx   d 8 00 00 00 00 00 00 00 00
 0.669945 1  18F127F3x       Rx   d 8 00 00 00 00 00 00 00 00
 0.670905 1  18F128F3x       Rx   d 8 00 00 00 00 00 00 00 00
 0.671827 1  18F129F3x       Rx   d 8 00 00 00 00 00 00 00 00
 0.672802 1  18F12AF3x       Rx   d 8 00 00 00 00 00 00 00 00
 0.673775 1  18F12BF3x       Rx   d 8 00 00 00 00 00 00 00 00
 0.674681 1  18F12CF3x       Rx   d 8 00 00 00 00 00 00 00 00
 0.675553 1  18F12DF3x       Rx   d 8 00 00 00 00 00 00 00 00
 0.676471 1  18F12EF3x       Rx   d 8 00 00 00 00 00 00 00 00
 0.677379 1  18F12FF3x       Rx   d 8 00 00 00 00 00 00 00 00
 0.678263 1  18F130F3x       Rx   d 8 00 00 00 00 00 00 00 00
 0.679218 1  18F131F3x       Rx   d 8 00 00 00 00 00 00 00 00
 0.680004 1  18F132F3x       Rx   d 8 00 00 00 00 00 00 00 00
 0.680941 1  18F133F3x       Rx   d 8 00 00 00 00 00 00 00 00
 0.681936 1  18F134F3x       Rx   d 8 00 00 00 00 00 00 00 00
 0.682875 1  18F135F3x       Rx   d 8 00 00 00 00 00 00 00 00
 0.683796 1  18F136F3x       Rx   d 8 00 00 00 00 00 00 00 00
 0.684786 1  18F137F3x       Rx   d 8 00 00 00 00 00 00 00 00
 0.685705 1  18F138F3x       Rx   d 8 00 00 00 00 00 00 00 00
 0.686966 1  18F139F3x       Rx   d 8 00 00 00 00 00 00 00 00
 0.687882 1  18F13AF3x       Rx   d 8 00 00 00 00 00 00 00 00
 0.688825 1  18F13BF3x       Rx   d 8 00 00 00 00 00 00 00 00
 0.689753 1  18F13CF3x       Rx   d 8 00 00 00 00 00 00 00 00
 0.690679 1  18F155F3x       Rx   d 8 3C 3C 3C 3C 3C 3D 3D 00
 0.691561 1  18F156F3x       Rx   d 8 00 00 00 00 00 00 00 00
 0.692443 1  18F157F3x       Rx   d 8 00 00 00 00 00 00 00 00
 0.693326 1  18F158F3x       Rx   d 8 00 00 00 00 00 00 00 00
 0.694199 1  18F159F3x       Rx   d 8 00 00 00 00 00 00 00 00
 0.695045 1  18F15AF3x       Rx   d 8 00 00 00 00 00 00 00 00
 0.695884 1  18F15BF3x       Rx   d 7 00 00 00 00 00 00 00
 0.697035 1  18F15CF3x       Rx   d 8 00 00 00 00 00 00 00 00
 0.697939 1  18F15DF3x       Rx   d 8 00 00 00 00 00 00 00 00
 0.698807 1  18F15EF3x       Rx   d 8 00 00 00 00 00 00 00 00
 0.700075 1  1806E5F4x       Rx   d 8 00 00 00 00 01 FF FF FF
 0.742194 1  1806E5F4x       Rx   d 8 00 00 00 00 01 FF FF FF
 0.754148 1  18F100F3x       Rx   d 8 03 42 7D 00 FA FA 14 00
 0.754953 1  18F102F3x       Rx   d 8 10 4E 10 47 10 06 00 07
 0.756238 1  18F106F3x       Rx   d 8 80 C4 FC FF FF FF FF FF
 0.757527 1  18F107F3x       Rx   d 8 27 10 27 10 00 00 00 00
 0.759217 1  18FF50E5x       Rx   d 8 00 09 00 00 08 00 00 00
 0.759788 1  18F108F3x       Rx   d 8 10 00 04 00 00 00 00 B9
 0.760782 1  18F155F3x       Rx   d 8 3C 3C 3C 3C 3C 3D 3D 00
 0.761699 1  18F156F3x       Rx   d 8 00 00 00 00 00 00 00 00
 0.762533 1  18F157F3x       Rx   d 8 00 00 00 00 00 00 00 00
 0.763415 1  18F158F3x       Rx   d 8 00 00 00 00 00 00 00 00
 0.764334 1  18F159F3x       Rx   d 8 00 00 00 00 00 00 00 00
 0.765167 1  18F15AF3x       Rx   d 8 00 00 00 00 00 00 00 00
 0.765976 1  18F15BF3x       Rx   d 7 00 00 00 00 00 00 00
 0.767089 1  18F15CF3x       Rx   d 8 00 00 00 00 00 00 00 00
 0.767928 1  18F15DF3x       Rx   d 8 00 00 00 00 00 00 00 00
 0.768890 1  18F15EF3x       Rx   d 8 00 00 00 00 00 00 00 00
 0.792058 1  1806E5F4x       Rx   d 8 00 00 00 00 01 FF FF FF
 0.842143 1  1806E5F4x       Rx   d 8 00 00 00 00 01 FF FF FF
 0.854123 1  18F100F3x       Rx   d 8 03 42 7D 00 FA FA 14 00
 0.854952 1  18F102F3x       Rx   d 8 10 4E 10 47 10 06 00 07
 0.856235 1  18F106F3x       Rx   d 8 80 C4 FC FF FF FF FF FF
 0.857529 1  18F107F3x       Rx   d 8 27 10 27 10 00 00 00 00
 0.859275 1  18F108F3x       Rx   d 8 10 00 04 00 00 00 00 B9
 0.860171 1  18F155F3x       Rx   d 8 3C 3C 3C 3C 3C 3D 3D 00
 0.861051 1  18F156F3x       Rx   d 8 00 00 00 00 00 00 00 00
 0.861925 1  18F157F3x       Rx   d 8 00 00 00 00 00 00 00 00
 0.862842 1  18F158F3x       Rx   d 8 00 00 00 00 00 00 00 00
 0.863789 1  18F159F3x       Rx   d 8 00 00 00 00 00 00 00 00
 0.864743 1  18F15AF3x       Rx   d 8 00 00 00 00 00 00 00 00
 0.865545 1  18F15BF3x       Rx   d 7 00 00 00 00 00 00 00
 0.866423 1  18F15CF3x       Rx   d 8 00 00 00 00 00 00 00 00
 0.867262 1  18F15DF3x       Rx   d 8 00 00 00 00 00 00 00 00
 0.868105 1  18F15EF3x       Rx   d 8 00 00 00 00 00 00 00 00
 0.892077 1  1806E5F4x       Rx   d 8 00 00 00 00 01 FF FF FF
 0.946069 1  1806E5F4x       Rx   d 8 00 00 00 00 01 FF FF FF
 0.954132 1  18F100F3x       Rx   d 8 03 42 7D 00 FA FA 14 00
 0.954893 1  18F102F3x       Rx   d 8 10 4E 10 47 10 06 00 07
 0.956186 1  18F106F3x       Rx   d 8 80 C4 FC FF FF FF FF FF
 0.957454 1  18F107F3x       Rx   d 8 27 10 27 10 00 00 00 00
 0.959236 1  18F108F3x       Rx   d 8 10 00 04 00 00 00 00 B9
 0.960113 1  18F155F3x       Rx   d 8 3C 3C 3C 3C 3C 3D 3D 00
 0.960999 1  18F156F3x       Rx   d 8 00 00 00 00 00 00 00 00
 0.962009 1  18F157F3x       Rx   d 8 00 00 00 00 00 00 00 00
 0.962902 1  18F158F3x       Rx   d 8 00 00 00 00 00 00 00 00
 0.963854 1  18F159F3x       Rx   d 8 00 00 00 00 00 00 00 00
 0.964775 1  18F15AF3x       Rx   d 8 00 00 00 00 00 00 00 00
 0.965562 1  18F15BF3x       Rx   d 7 00 00 00 00 00 00 00
 0.966441 1  18F15CF3x       Rx   d 8 00 00 00 00 00 00 00 00
 0.967286 1  18F15DF3x       Rx   d 8 00 00 00 00 00 00 00 00
 0.968134 1  18F15EF3x       Rx   d 8 00 00 00 00 00 00 00 00
 0.996072 1  1806E5F4x       Rx   d 8 00 00 00 00 01 FF FF FF
 1.054115 1  18F100F3x       Rx   d 8 03 42 7D 00 FA FA 14 00
 1.054931 1  18F102F3x       Rx   d 8 10 4E 10 47 10 06 00 07
 1.056240 1  18F106F3x       Rx   d 8 80 C4 FC FF FF FF FF FF
 1.068923 1  18F107F3x       Rx   d 8 27 10 27 10 00 00 00 00
 1.069043 1  18F108F3x       Rx   d 8 10 00 04 00 00 00 00 B9
 1.069147 1  18F155F3x       Rx   d 8 3C 3C 3C 3C 3C 3D 3D 00
 1.069251 1  18F156F3x       Rx   d 8 00 00 00 00 00 00 00 00
 1.069349 1  18F157F3x       Rx   d 8 00 00 00 00 00 00 00 00
 1.069446 1  18F158F3x       Rx   d 8 00 00 00 00 00 00 00 00
 1.069545 1  18F159F3x       Rx   d 8 00 00 00 00 00 00 00 00
 1.069642 1  18F15AF3x       Rx   d 8 00 00 00 00 00 00 00 00
 1.069733 1  18F15BF3x       Rx   d 7 00 00 00 00 00 00 00
 1.069830 1  18F15CF3x       Rx   d 8 00 00 00 00 00 00 00 00
 1.070008 1  18F15DF3x       Rx   d 8 00 00 00 00 00 00 00 00
 1.070141 1  18F15EF3x       Rx   d 8 00 00 00 00 00 00 00 00
 1.070250 1  1806E5F4x       Rx   d 8 00 00 00 00 01 FF FF FF
 1.118985 1  1806E5F4x       Rx   d 8 00 00 00 00 01 FF FF FF
 1.154161 1  18F100F3x       Rx   d 8 03 42 7D 00 FA FA 14 00
 1.154985 1  18F102F3x       Rx   d 8 10 4E 10 47 10 06 00 07
 1.156256 1  18F106F3x       Rx   d 8 80 C4 FC FF FF FF FF FF
 1.157654 1  18F107F3x       Rx   d 8 27 10 27 10 00 00 00 00
 1.159277 1  18F108F3x       Rx   d 8 10 00 04 00 00 00 00 B9
 1.160165 1  18F155F3x       Rx   d 8 3C 3C 3C 3C 3C 3D 3D 00
 1.161052 1  18F156F3x       Rx   d 8 00 00 00 00 00 00 00 00
 1.161990 1  18F157F3x       Rx   d 8 00 00 00 00 00 00 00 00
 1.162889 1  18F158F3x       Rx   d 8 00 00 00 00 00 00 00 00
 1.163812 1  18F159F3x       Rx   d 8 00 00 00 00 00 00 00 00
 1.164737 1  18F15AF3x       Rx   d 8 00 00 00 00 00 00 00 00
 1.165521 1  18F15BF3x       Rx   d 7 00 00 00 00 00 00 00
 1.166447 1  18F15CF3x       Rx   d 8 00 00 00 00 00 00 00 00
 1.167234 1  18F15DF3x       Rx   d 8 00 00 00 00 00 00 00 00
 1.168160 1  18F15EF3x       Rx   d 8 00 00 00 00 00 00 00 00
 1.169008 1  1806E5F4x       Rx   d 8 00 00 00 00 01 FF FF FF
 1.218994 1  1806E5F4x       Rx   d 8 00 00 00 00 01 FF FF FF
 1.254175 1  18F100F3x       Rx   d 8 03 42 7D 00 FA FA 14 00
 1.254997 1  18F102F3x       Rx   d 8 10 4E 10 47 10 06 00 07
 1.256317 1  18F106F3x       Rx   d 8 80 C4 FC FF FF FF FF FF
 1.257617 1  18F107F3x       Rx   d 8 27 10 27 10 00 00 00 00
 1.259368 1  18F108F3x       Rx   d 8 10 00 04 00 00 00 00 B9
 1.260284 1  18F155F3x       Rx   d 8 3C 3C 3C 3C 3C 3D 3D 00
 1.261082 1  18F156F3x       Rx   d 8 00 00 00 00 00 00 00 00
 1.261975 1  18F157F3x       Rx   d 8 00 00 00 00 00 00 00 00
 1.262908 1  18F158F3x       Rx   d 8 00 00 00 00 00 00 00 00
 1.263807 1  18F159F3x       Rx   d 8 00 00 00 00 00 00 00 00
 1.264733 1  18F15AF3x       Rx   d 8 00 00 00 00 00 00 00 00
 1.265573 1  18F15BF3x       Rx   d 7 00 00 00 00 00 00 00
 1.266380 1  18F15CF3x       Rx   d 8 00 00 00 00 00 00 00 00
 1.267315 1  18F15DF3x       Rx   d 8 00 00 00 00 00 00 00 00
 1.268306 1  18F15EF3x       Rx   d 8 00 00 00 00 00 00 00 00
 1.269014 1  1806E5F4x       Rx   d 8 00 00 00 00 01 FF FF FF
 1.319015 1  1806E5F4x       Rx   d 8 00 00 00 00 01 FF FF FF
 1.354252 1  18F100F3x       Rx   d 8 03 42 7D 00 FA FA 14 00
 1.354973 1  18F102F3x       Rx   d 8 10 4E 10 47 10 06 00 07
 1.356265 1  18F106F3x       Rx   d 8 80 C4 FC FF FF FF FF FF
 1.357540 1  18F107F3x       Rx   d 8 27 10 27 10 00 00 00 00
 1.359484 1  18F108F3x       Rx   d 8 10 00 04 00 00 00 00 B9
 1.360185 1  18F155F3x       Rx   d 8 3C 3C 3C 3C 3C 3D 3D 00
 1.361072 1  18F156F3x       Rx   d 8 00 00 00 00 00 00 00 00
 1.361984 1  18F157F3x       Rx   d 8 00 00 00 00 00 00 00 00
 1.362971 1  18F158F3x       Rx   d 8 00 00 00 00 00 00 00 00
 1.363797 1  18F159F3x       Rx   d 8 00 00 00 00 00 00 00 00
 1.364757 1  18F15AF3x       Rx   d 8 00 00 00 00 00 00 00 00
 1.365528 1  18F15BF3x       Rx   d 7 00 00 00 00 00 00 00
 1.366403 1  18F15CF3x       Rx   d 8 00 00 00 00 00 00 00 00
 1.367284 1  18F15DF3x       Rx   d 8 00 00 00 00 00 00 00 00
 1.368170 1  18F15EF3x       Rx   d 8 00 00 00 00 00 00 00 00
 1.369009 1  1806E5F4x       Rx   d 8 00 00 00 00 01 FF FF FF
 1.419006 1  1806E5F4x       Rx   d 8 00 00 00 00 01 FF FF FF
 1.454212 1  18F100F3x       Rx   d 8 03 42 7D 00 FA FA 14 00
 1.454982 1  18F102F3x       Rx   d 8 10 4E 10 47 10 06 00 07
 1.456255 1  18F106F3x       Rx   d 8 80 C4 FC FF FF FF FF FF
 1.457537 1  18F107F3x       Rx   d 8 27 10 27 10 00 00 00 00
 1.459282 1  18F108F3x       Rx   d 8 10 00 04 00 00 00 00 B9
 1.460193 1  18F155F3x       Rx   d 8 3C 3C 3C 3C 3C 3D 3D 00
 1.461106 1  18F156F3x       Rx   d 8 00 00 00 00 00 00 00 00
 1.462021 1  18F157F3x       Rx   d 8 00 00 00 00 00 00 00 00
 1.462940 1  18F158F3x       Rx   d 8 00 00 00 00 00 00 00 00
 1.463837 1  18F159F3x       Rx   d 8 00 00 00 00 00 00 00 00
 1.464756 1  18F15AF3x       Rx   d 8 00 00 00 00 00 00 00 00
 1.465568 1  18F15BF3x       Rx   d 7 00 00 00 00 00 00 00
 1.466461 1  18F15CF3x       Rx   d 8 00 00 00 00 00 00 00 00
 1.467323 1  18F15DF3x       Rx   d 8 00 00 00 00 00 00 00 00
 1.468145 1  18F15EF3x       Rx   d 8 00 00 00 00 00 00 00 00
 1.469066 1  1806E5F4x       Rx   d 8 00 00 00 00 01 FF FF FF
 1.518966 1  1806E5F4x       Rx   d 8 00 00 00 00 01 FF FF FF
 1.554199 1  18F100F3x       Rx   d 8 03 42 7D 00 FA FA 14 00
 1.554988 1  18F102F3x       Rx   d 8 10 4E 10 47 10 06 00 07
 1.556256 1  18F106F3x       Rx   d 8 80 C4 FC FF FF FF FF FF
 1.557536 1  18F107F3x       Rx   d 8 27 10 27 10 00 00 00 00
 1.559295 1  18F108F3x       Rx   d 8 10 00 04 00 00 00 00 B9
 1.560193 1  18F155F3x       Rx   d 8 3C 3C 3C 3C 3C 3D 3D 00
 1.561072 1  18F156F3x       Rx   d 8 00 00 00 00 00 00 00 00
 1.561995 1  18F157F3x       Rx   d 8 00 00 00 00 00 00 00 00
 1.562982 1  18F158F3x       Rx   d 8 00 00 00 00 00 00 00 00
 1.563899 1  18F159F3x       Rx   d 8 00 00 00 00 00 00 00 00
 1.564880 1  18F15AF3x       Rx   d 8 00 00 00 00 00 00 00 00
 1.565760 1  18F15BF3x       Rx   d 7 00 00 00 00 00 00 00
 1.566920 1  18F15CF3x       Rx   d 8 00 00 00 00 00 00 00 00
 1.567827 1  18F15DF3x       Rx   d 8 00 00 00 00 00 00 00 00
 1.568753 1  18F15EF3x       Rx   d 8 00 00 00 00 00 00 00 00
 1.569506 1  1806E5F4x       Rx   d 8 00 00 00 00 01 FF FF FF
 1.618976 1  1806E5F4x       Rx   d 8 00 00 00 00 01 FF FF FF
 1.643689 1  18F104F3x       Rx   d 8 3D 3C 06 01 01 FF FF FF
 1.644464 1  18F113F3x       Rx   d 8 10 4A 10 4A 10 4B 10 4A
 1.645667 1  18F114F3x       Rx   d 8 10 48 10 47 10 4B 10 4B
 1.646316 1  18F115F3x       Rx   d 8 10 48 10 47 10 48 10 47
 1.647351 1  18F116F3x       Rx   d 8 10 4B 10 49 10 4C 10 4E
 1.648111 1  18F117F3x       Rx   d 8 10 47 10 49 10 4D 10 4C
 1.649034 1  18F118F3x       Rx   d 8 00 00 00 00 00 00 00 00
 1.650008 1  18F119F3x       Rx   d 8 00 00 00 00 00 00 00 00
 1.651674 1  18F11AF3x       Rx   d 8 00 00 00 00 00 00 00 00
 1.651970 1  18F11BF3x       Rx   d 8 00 00 00 00 00 00 00 00
 1.652933 1  18F11CF3x       Rx   d 8 00 00 00 00 00 00 00 00
 1.653914 1  18F11DF3x       Rx   d 8 00 00 00 00 00 00 00 00
 1.654872 1  18F100F3x       Rx   d 8 03 42 7D 00 FA FA 14 00
 1.655860 1  18F102F3x       Rx   d 8 10 4E 10 47 10 06 00 07
 1.657459 1  18F106F3x       Rx   d 8 80 C4 FC FF FF FF FF FF
 1.658892 1  18F107F3x       Rx   d 8 27 10 27 10 00 00 00 00
 1.660597 1  18F108F3x       Rx   d 8 10 00 04 00 00 00 00 B9
 1.661569 1  18F11EF3x       Rx   d 8 00 00 00 00 00 00 00 00
 1.662490 1  18F11FF3x       Rx   d 8 00 00 00 00 00 00 00 00
 1.663530 1  18F120F3x       Rx   d 8 00 00 00 00 00 00 00 00
 1.664346 1  18F121F3x       Rx   d 8 00 00 00 00 00 00 00 00
 1.665259 1  18F122F3x       Rx   d 8 00 00 00 00 00 00 00 00
 1.666177 1  18F123F3x       Rx   d 8 00 00 00 00 00 00 00 00
 1.667251 1  18F124F3x       Rx   d 8 00 00 00 00 00 00 00 00
 1.668156 1  18F125F3x       Rx   d 8 00 00 00 00 00 00 00 00
 1.669095 1  18F126F3x       Rx   d 8 00 00 00 00 00 00 00 00
 1.670070 1  18F127F3x       Rx   d 8 00 00 00 00 00 00 00 00
 1.671007 1  18F128F3x       Rx   d 8 00 00 00 00 00 00 00 00
 1.671970 1  18F129F3x       Rx   d 8 00 00 00 00 00 00 00 00
 1.672518 1  1806E5F4x       Rx   d 8 00 00 00 00 01 FF FF FF
 1.673082 1  18F12AF3x       Rx   d 8 00 00 00 00 00 00 00 00
 1.674034 1  18F12BF3x       Rx   d 8 00 00 00 00 00 00 00 00
 1.675001 1  18F12CF3x       Rx   d 8 00 00 00 00 00 00 00 00
 1.675977 1  18F12DF3x       Rx   d 8 00 00 00 00 00 00 00 00
 1.677130 1  18F12EF3x       Rx   d 8 00 00 00 00 00 00 00 00
 1.678066 1  18F12FF3x       Rx   d 8 00 00 00 00 00 00 00 00
 1.679080 1  18F130F3x       Rx   d 8 00 00 00 00 00 00 00 00
 1.680043 1  18F131F3x       Rx   d 8 00 00 00 00 00 00 00 00
 1.680915 1  18F132F3x       Rx   d 8 00 00 00 00 00 00 00 00
 1.681852 1  18F133F3x       Rx   d 8 00 00 00 00 00 00 00 00
 1.682869 1  18F134F3x       Rx   d 8 00 00 00 00 00 00 00 00
 1.683825 1  18F135F3x       Rx   d 8 00 00 00 00 00 00 00 00
 1.684856 1  18F136F3x       Rx   d 8 00 00 00 00 00 00 00 00
 1.685717 1  18F137F3x       Rx   d 8 00 00 00 00 00 00 00 00
 1.686488 1  18F138F3x       Rx   d 8 00 00 00 00 00 00 00 00
 1.687433 1  18F139F3x       Rx   d 8 00 00 00 00 00 00 00 00
 1.688237 1  18F13AF3x       Rx   d 8 00 00 00 00 00 00 00 00
 1.689103 1  18F13BF3x       Rx   d 8 00 00 00 00 00 00 00 00
 1.689952 1  18F13CF3x       Rx   d 8 00 00 00 00 00 00 00 00
 1.690887 1  18F155F3x       Rx   d 8 3C 3C 3C 3C 3C 3D 3D 00
 1.691809 1  18F156F3x       Rx   d 8 00 00 00 00 00 00 00 00
 1.693174 1  18F157F3x       Rx   d 8 00 00 00 00 00 00 00 00
 1.693673 1  18F158F3x       Rx   d 8 00 00 00 00 00 00 00 00
 1.694580 1  18F159F3x       Rx   d 8 00 00 00 00 00 00 00 00
 1.695464 1  18F15AF3x       Rx   d 8 00 00 00 00 00 00 00 00
 1.696359 1  18F15BF3x       Rx   d 7 00 00 00 00 00 00 00
 1.697214 1  18F15CF3x       Rx   d 8 00 00 00 00 00 00 00 00
 1.698028 1  18F15DF3x       Rx   d 8 00 00 00 00 00 00 00 00
 1.698932 1  18F15EF3x       Rx   d 8 00 00 00 00 00 00 00 00
 1.720922 1  1806E5F4x       Rx   d 8 00 00 00 00 01 FF FF FF
 1.754195 1  18F100F3x       Rx   d 8 03 42 7D 00 FA FA 14 00
 1.754977 1  18F102F3x       Rx   d 8 10 4E 10 47 10 06 00 07
 1.756270 1  18F106F3x       Rx   d 8 80 C4 FC FF FF FF FF FF
 1.757565 1  18F107F3x       Rx   d 8 27 10 27 10 00 00 00 00
 1.759325 1  18F108F3x       Rx   d 8 10 00 04 00 00 00 00 B9
 1.759874 1  18FF50E5x       Rx   d 8 00 09 00 00 08 00 00 00
 1.760441 1  18F155F3x       Rx   d 8 3C 3C 3C 3C 3C 3D 3D 00
 1.761375 1  18F156F3x       Rx   d 8 00 00 00 00 00 00 00 00
 1.762259 1  18F157F3x       Rx   d 8 00 00 00 00 00 00 00 00
 1.763130 1  18F158F3x       Rx   d 8 00 00 00 00 00 00 00 00
 1.764019 1  18F159F3x       Rx   d 8 00 00 00 00 00 00 00 00
 1.764990 1  18F15AF3x       Rx   d 8 00 00 00 00 00 00 00 00
 1.765783 1  18F15BF3x       Rx   d 7 00 00 00 00 00 00 00
 1.766969 1  18F15CF3x       Rx   d 8 00 00 00 00 00 00 00 00
 1.767846 1  18F15DF3x       Rx   d 8 00 00 00 00 00 00 00 00
 1.768765 1  18F15EF3x       Rx   d 8 00 00 00 00 00 00 00 00
 1.770874 1  1806E5F4x       Rx   d 8 00 00 00 00 01 FF FF FF
 1.821021 1  1806E5F4x       Rx   d 8 00 00 00 00 01 FF FF FF
 1.854170 1  18F100F3x       Rx   d 8 03 42 7D 00 FA FA 14 00
 1.854970 1  18F102F3x       Rx   d 8 10 4E 10 47 10 05 00 07
 1.856311 1  18F106F3x       Rx   d 8 80 C4 FC FF FF FF FF FF
 1.857543 1  18F107F3x       Rx   d 8 27 10 27 10 00 00 00 00
 1.859312 1  18F108F3x       Rx   d 8 10 00 04 00 00 00 00 B9
 1.860207 1  18F155F3x       Rx   d 8 3C 3C 3C 3C 3C 3D 3D 00
 1.861086 1  18F156F3x       Rx   d 8 00 00 00 00 00 00 00 00
