date Sun May 24 06:11:01.301 PM 2026
base hex  timestamps absolute
internal events logged
// version 8.0.0
Begin Triggerblock Sun May 24 06:11:01.301 PM 2026
   0.000000 Start of measurement
   0.000000 1  18FF2112x       Rx   d 8 01 00 00 00 00 00 00 00
   0.003000 1  CFF21CAx        Rx   d 8 66 00 AD 0C 46 40 00 24
   0.015000 1  CFF21CAx        Rx   d 8 70 00 AE 0C 46 40 00 24
   0.016000 1  18F100D0x       Rx   d 8 0C FF FF FF FF FF FF FF
   0.027000 1  CFF21CAx        Rx   d 8 70 00 B3 0C 46 40 00 24
   0.039000 1  CFF21CAx        Rx   d 8 70 00 B9 0C 46 40 00 24
   0.040000 1  18F100D0x       Rx   d 8 0C FF FF FF FF FF FF FF
   0.041000 1  18F100F3x       Rx   d 8 03 06 7D CF BF FA 14 00
   0.128000 1  18F102F3x       Rx   d 8 0F 23 0F 1A 10 0C 00 09
   0.129000 1  18F106F3x       Rx   d 8 45 E0 FC FF FF FF FF FF
   0.131000 1  18F107F3x       Rx   d 8 38 A4 30 70 01 5C 00 BA
   0.133000 1  18F108F3x       Rx   d 8 00 00 00 00 00 00 00 00
   0.134000 1  18F155F3x       Rx   d 8 38 37 37 37 37 3A 39 00
   0.136000 1  18F156F3x       Rx   d 8 00 00 00 00 00 00 00 00
   0.138000 1  18F157F3x       Rx   d 8 00 00 00 00 00 00 00 00
   0.139000 1  18F158F3x       Rx   d 8 00 00 00 00 00 00 00 00
   0.147000 1  CFF21CAx        Rx   d 8 7A 00 B9 0C 46 40 00 24
   0.149000 1  18F159F3x       Rx   d 8 00 00 00 00 00 00 00 00
   0.152000 1  18F15AF3x       Rx   d 8 00 00 00 00 00 00 00 00
   0.153000 1  18F15BF3x       Rx   d 7 00 00 00 00 00 00 00
   0.154000 1  18F15CF3x       Rx   d 8 00 00 00 00 00 00 00 00
   0.155000 1  18F15DF3x       Rx   d 8 00 00 00 00 00 00 00 00
   0.157000 1  18F15EF3x       Rx   d 8 00 00 00 00 00 00 00 00
   0.158000 1  CFF21CAx        Rx   d 8 7A 00 C3 0C 46 40 00 24
   0.301000 1  18F100D0x       Rx   d 8 0C FF FF FF FF FF FF FF
   0.303000 1  CFF21CAx        Rx   d 8 7A 00 C8 0C 46 40 00 24
   0.304000 1  CFF21CAx        Rx   d 8 84 00 CD 0C 46 40 00 24
   0.306000 1  18F100D0x       Rx   d 8 0C FF FF FF FF FF FF FF
   0.307000 1  18FF2112x       Rx   d 8 01 00 00 00 00 00 00 00
   0.308000 1  CFF21CAx        Rx   d 8 84 00 CD 0C 46 40 00 24
   0.309000 1  CFF21CAx        Rx   d 8 8F 00 D9 0C 46 40 00 24
   0.310000 1  18F100D0x       Rx   d 8 0C FF FF FF FF FF FF FF
   0.430000 1  CFF21CAx        Rx   d 8 8F 00 DE 0C 46 40 00 24
   0.432000 1  CFF21CAx        Rx   d 8 8F 00 E7 0C 46 40 00 24
   0.434000 1  18F100D0x       Rx   d 8 0C FF FF FF FF FF FF FF
   0.436000 1  18F100F3x       Rx   d 8 03 06 7D CF BF FA 14 00
   0.438000 1  18F102F3x       Rx   d 8 0F 23 0F 1A 10 0C 00 09
   0.440000 1  18F106F3x       Rx   d 8 45 E0 FC FF FF FF FF FF
   0.442000 1  18F107F3x       Rx   d 8 38 A4 30 70 01 5C 00 BA
   0.444000 1  18F108F3x       Rx   d 8 00 00 00 00 00 00 00 00
   0.446000 1  18F155F3x       Rx   d 8 38 37 37 37 37 3A 39 00
   0.448000 1  CFF21CAx        Rx   d 8 9A 00 E9 0C 46 40 00 24
   0.450000 1  18F156F3x       Rx   d 8 00 00 00 00 00 00 00 00
   0.452000 1  18F157F3x       Rx   d 8 00 00 00 00 00 00 00 00
   0.454000 1  18F158F3x       Rx   d 8 00 00 00 00 00 00 00 00
   0.456000 1  18F159F3x       Rx   d 8 00 00 00 00 00 00 00 00
   0.457000 1  18F15AF3x       Rx   d 8 00 00 00 00 00 00 00 00
   0.458000 1  18F15BF3x       Rx   d 7 00 00 00 00 00 00 00
   0.459000 1  18F15CF3x       Rx   d 8 00 00 00 00 00 00 00 00
   0.460000 1  18F15DF3x       Rx   d 8 00 00 00 00 00 00 00 00
   0.462000 1  18F15EF3x       Rx   d 8 00 00 00 00 00 00 00 00
   0.579000 1  CFF21CAx        Rx   d 8 9A 00 F1 0C 46 40 00 24
   0.581000 1  18F100D0x       Rx   d 8 0C FF FF FF FF FF FF FF
   0.583000 1  CFF21CAx        Rx   d 8 A5 00 FE 0C 46 40 00 24
   0.585000 1  18F104F3x       Rx   d 8 3A 37 06 02 03 FF FF FF
   0.587000 1  18F113F3x       Rx   d 8 0F 1D 0F 1D 0F 1D 0F 1F
   0.589000 1  18F114F3x       Rx   d 8 0F 1D 0F 1D 0F 1E 0F 1E
   0.590000 1  18F115F3x       Rx   d 8 0F 1D 0F 1C 0F 1D 0F 1A
   0.592000 1  CFF21CAx        Rx   d 8 A5 00 02 0D 46 40 00 24
   0.594000 1  18F100D0x       Rx   d 8 0C FF FF FF FF FF FF FF
   0.596000 1  18F116F3x       Rx   d 8 0F 1E 0F 1D 0F 1E 0F 23
   0.598000 1  18F117F3x       Rx   d 8 0F 1E 0F 20 0F 22 0F 20
   0.600000 1  18F118F3x       Rx   d 8 00 00 00 00 00 00 00 00
   0.602000 1  18F119F3x       Rx   d 8 00 00 00 00 00 00 00 00
   0.604000 1  18F11AF3x       Rx   d 8 00 00 00 00 00 00 00 00
   0.605000 1  18F11BF3x       Rx   d 8 00 00 00 00 00 00 00 00
   0.606000 1  18F11CF3x       Rx   d 8 00 00 00 00 00 00 00 00
   0.608000 1  18F11DF3x       Rx   d 8 00 00 00 00 00 00 00 00
   0.609000 1  18F11EF3x       Rx   d 8 00 00 00 00 00 00 00 00
   0.610000 1  18FF2112x       Rx   d 8 01 00 00 00 00 00 00 00
   0.611000 1  18F11FF3x       Rx   d 8 00 00 00 00 00 00 00 00
   0.975000 1  18F120F3x       Rx   d 8 00 00 00 00 00 00 00 00
   0.976000 1  CFF21CAx        Rx   d 8 A5 00 08 0D 46 40 00 24
   0.978000 1  18F121F3x       Rx   d 8 00 00 00 00 00 00 00 00
   0.980000 1  18F122F3x       Rx   d 8 00 00 00 00 00 00 00 00
   0.982000 1  18F123F3x       Rx   d 8 00 00 00 00 00 00 00 00
   0.983000 1  18F124F3x       Rx   d 8 00 00 00 00 00 00 00 00
   0.985000 1  18F125F3x       Rx   d 8 00 00 00 00 00 00 00 00
   0.986000 1  18F126F3x       Rx   d 8 00 00 00 00 00 00 00 00
   0.988000 1  18F127F3x       Rx   d 8 00 00 00 00 00 00 00 00
   0.989000 1  18F128F3x       Rx   d 8 00 00 00 00 00 00 00 00
   0.991000 1  18F129F3x       Rx   d 8 00 00 00 00 00 00 00 00
   1.369000 1  18F12AF3x       Rx   d 8 00 00 00 00 00 00 00 00
   1.371000 1  18F12BF3x       Rx   d 8 00 00 00 00 00 00 00 00
   1.373000 1  18F12CF3x       Rx   d 8 00 00 00 00 00 00 00 00
   1.374000 1  18F12DF3x       Rx   d 8 00 00 00 00 00 00 00 00
   1.377000 1  CFF21CAx        Rx   d 8 B0 00 0D 0D 46 40 00 24
   1.378000 1  18F12EF3x       Rx   d 8 00 00 00 00 00 00 00 00
   1.380000 1  18F12FF3x       Rx   d 8 00 00 00 00 00 00 00 00
   1.382000 1  18F130F3x       Rx   d 8 00 00 00 00 00 00 00 00
   1.384000 1  18F131F3x       Rx   d 8 00 00 00 00 00 00 00 00
   1.386000 1  18F100D0x       Rx   d 8 0C FF FF FF FF FF FF FF
   1.387000 1  18F132F3x       Rx   d 8 00 00 00 00 00 00 00 00
   1.389000 1  18F133F3x       Rx   d 8 00 00 00 00 00 00 00 00
   1.390000 1  18F134F3x       Rx   d 8 00 00 00 00 00 00 00 00
   1.391000 1  18F135F3x       Rx   d 8 00 00 00 00 00 00 00 00
   1.392000 1  18F136F3x       Rx   d 8 00 00 00 00 00 00 00 00
   1.393000 1  18F137F3x       Rx   d 8 00 00 00 00 00 00 00 00
   1.755000 1  18F138F3x       Rx   d 8 00 00 00 00 00 00 00 00
   1.757000 1  18F139F3x       Rx   d 8 00 00 00 00 00 00 00 00
   1.758000 1  CFF21CAx        Rx   d 8 B0 00 11 0D 46 40 00 24
   1.760000 1  18F13AF3x       Rx   d 8 00 00 00 00 00 00 00 00
   1.761000 1  18F13BF3x       Rx   d 8 00 00 00 00 00 00 00 00
   1.763000 1  18F13CF3x       Rx   d 8 00 00 00 00 00 00 00 00
   1.766000 1  CFF21CAx        Rx   d 8 B0 00 22 0D 46 40 00 24
   1.767000 1  18F100D0x       Rx   d 8 0C FF FF FF FF FF FF FF
   1.769000 1  18F100F3x       Rx   d 8 03 06 7D CF BF FA 14 00
   1.770000 1  18F102F3x       Rx   d 8 0F 23 0F 1A 10 0C 00 09
   1.772000 1  18F106F3x       Rx   d 8 45 E0 FC FF FF FF FF FF
   1.773000 1  CFF21CAx        Rx   d 8 BB 00 29 0D 46 40 00 24
   1.774000 1  18F107F3x       Rx   d 8 38 A4 30 70 01 5C 00 BA
   1.775000 1  18F108F3x       Rx   d 8 00 00 00 00 00 00 00 00
   1.781000 1  18F155F3x       Rx   d 8 38 37 37 37 37 3A 39 00
   1.786000 1  18F156F3x       Rx   d 8 00 00 00 00 00 00 00 00
   1.788000 1  18F157F3x       Rx   d 8 00 00 00 00 00 00 00 00
   1.790000 1  18F158F3x       Rx   d 8 00 00 00 00 00 00 00 00
   1.792000 1  18F159F3x       Rx   d 8 00 00 00 00 00 00 00 00
   1.793000 1  18F15AF3x       Rx   d 8 00 00 00 00 00 00 00 00
   1.795000 1  18F15BF3x       Rx   d 7 00 00 00 00 00 00 00
   1.797000 1  18F15CF3x       Rx   d 8 00 00 00 00 00 00 00 00
   1.799000 1  18F15DF3x       Rx   d 8 00 00 00 00 00 00 00 00
   1.801000 1  18F15EF3x       Rx   d 8 00 00 00 00 00 00 00 00
   1.803000 1  CFF21CAx        Rx   d 8 BB 00 34 0D 46 40 00 24
   1.804000 1  18F100D0x       Rx   d 8 0C FF FF FF FF FF FF FF
   1.806000 1  CFF21CAx        Rx   d 8 C5 00 3F 0D 46 40 00 24
   1.808000 1  CFF21CAx        Rx   d 8 C5 00 4C 0D 46 40 00 24
   1.810000 1  18F100D0x       Rx   d 8 0C FF FF FF FF FF FF FF
   1.812000 1  18FF2112x       Rx   d 8 01 00 00 00 00 00 00 00
   1.814000 1  CFF21CAx        Rx   d 8 C5 00 58 0D 46 40 00 24
   1.816000 1  CFF21CAx        Rx   d 8 CF 00 5F 0D 46 40 00 24
   1.817000 1  18F100D0x       Rx   d 8 0C FF FF FF FF FF FF FF
   1.819000 1  CFF21CAx        Rx   d 8 CF 00 6A 0D 46 40 00 24
   1.821000 1  CFF21CAx        Rx   d 8 CF 00 78 0D 46 40 00 24
   1.823000 1  18F100D0x       Rx   d 8 0C FF FF FF FF FF FF FF
   1.825000 1  CFF21CAx        Rx   d 8 D8 00 82 0D 46 40 00 24
   1.826000 1  18F100F3x       Rx   d 8 03 06 7E 83 BF FA 14 00
   1.828000 1  18F102F3x       Rx   d 8 0F 23 0F 1A 10 0C 00 09
   1.830000 1  18F106F3x       Rx   d 8 45 E0 FC FF FF FF FF FF
   1.832000 1  18F107F3x       Rx   d 8 38 A4 30 70 01 5C 00 BA
   1.834000 1  18F108F3x       Rx   d 8 00 00 00 00 00 00 00 00
   1.836000 1  18F155F3x       Rx   d 8 38 37 37 37 37 3A 39 00
   1.838000 1  18F156F3x       Rx   d 8 00 00 00 00 00 00 00 00
   1.839000 1  18F157F3x       Rx   d 8 00 00 00 00 00 00 00 00
   1.842000 1  18F158F3x       Rx   d 8 00 00 00 00 00 00 00 00
   1.843000 1  18F159F3x       Rx   d 8 00 00 00 00 00 00 00 00
   1.845000 1  18F15AF3x       Rx   d 8 00 00 00 00 00 00 00 00
   1.847000 1  CFF21CAx        Rx   d 8 D8 00 8E 0D 46 40 00 24
   1.849000 1  18F15BF3x       Rx   d 7 00 00 00 00 00 00 00
   1.851000 1  18F15CF3x       Rx   d 8 00 00 00 00 00 00 00 00
   1.853000 1  18F15DF3x       Rx   d 8 00 00 00 00 00 00 00 00
   1.855000 1  18F15EF3x       Rx   d 8 00 00 00 00 00 00 00 00
   1.857000 1  18F100D0x       Rx   d 8 0C FF FF FF FF FF FF FF
   1.859000 1  CFF21CAx        Rx   d 8 D8 00 8E 0D 46 40 00 24
   1.861000 1  CFF21CAx        Rx   d 8 E0 00 A1 0D 46 40 00 24
   1.863000 1  18F100D0x       Rx   d 8 0C FF FF FF FF FF FF FF
   1.864000 1  18FF2112x       Rx   d 8 01 00 00 00 00 00 00 00
   1.866000 1  CFF21CAx        Rx   d 8 E0 00 AB 0D 46 40 00 24
   1.868000 1  CFF21CAx        Rx   d 8 E0 00 BF 0D 46 40 00 24
   1.870000 1  18F100D0x       Rx   d 8 0C FF FF FF FF FF FF FF
   1.872000 1  CFF21CAx        Rx   d 8 E7 00 CD 0D 46 40 00 24
   1.874000 1  18F100D0x       Rx   d 8 0C FF FF FF FF FF FF FF
   1.876000 1  CFF21CAx        Rx   d 8 EF 00 DD 0D 46 40 00 24
   1.878000 1  18F100F3x       Rx   d 8 03 06 7E 83 BF FA 14 00
   1.880000 1  18F102F3x       Rx   d 8 0F 22 0F 1A 10 0C 00 08
   1.881000 1  18F106F3x       Rx   d 8 45 E0 FC FF FF FF FF FF
   1.884000 1  18F107F3x       Rx   d 8 38 A4 30 70 01 5C 00 BA
   1.886000 1  18F108F3x       Rx   d 8 00 00 00 00 00 00 00 00
   1.887000 1  18F155F3x       Rx   d 8 38 37 37 37 37 3A 39 00
   1.889000 1  18F156F3x       Rx   d 8 00 00 00 00 00 00 00 00
   1.891000 1  CFF21CAx        Rx   d 8 EF 00 EA 0D 46 40 00 24
   1.893000 1  18F158F3x       Rx   d 8 00 00 00 00 00 00 00 00
   1.895000 1  18F15AF3x       Rx   d 8 00 00 00 00 00 00 00 00
   1.897000 1  18F15DF3x       Rx   d 8 00 00 00 00 00 00 00 00
   1.899000 1  18F100D0x       Rx   d 8 0C FF FF FF FF FF FF FF
   1.901000 1  CFF21CAx        Rx   d 8 EF 00 EB 0D 46 40 00 24
   1.902000 1  CFF21CAx        Rx   d 8 F3 00 06 0E 46 40 00 24
   1.904000 1  18F100D0x       Rx   d 8 0C FF FF FF FF FF FF FF
   1.906000 1  CFF21CAx        Rx   d 8 F3 00 14 0E 46 40 00 24
   1.909000 1  18FF2112x       Rx   d 8 01 00 00 00 00 00 00 00
   1.910000 1  CFF21CAx        Rx   d 8 FC 00 78 0E 46 40 00 24
   1.912000 1  18FF2112x       Rx   d 8 01 00 00 00 00 00 00 00
   1.914000 1  18F100D0x       Rx   d 8 0C FF FF FF FF FF FF FF
   1.916000 1  CFF21CAx        Rx   d 8 FC 00 88 0E 46 40 00 24
   1.918000 1  CFF21CAx        Rx   d 8 FE 00 93 0E 46 40 00 24
   1.920000 1  18F100D0x       Rx   d 8 0C FF FF FF FF FF FF FF
   1.921000 1  CFF21CAx        Rx   d 8 FE 00 A0 0E 46 40 00 24
   1.923000 1  CFF21CAx        Rx   d 8 00 01 B0 0E 46 40 00 24
   1.926000 1  18F100F3x       Rx   d 8 03 06 80 00 BF FA 14 00
   1.927000 1  CFF21CAx        Rx   d 8 00 01 C0 0E 46 40 00 24
   1.929000 1  18F100D0x       Rx   d 8 0C FF FF FF FF FF FF FF
   1.931000 1  18F102F3x       Rx   d 8 0F 22 0F 1A 10 0C 00 08
   1.933000 1  18F106F3x       Rx   d 8 45 E0 FC FF FF FF FF FF
   1.935000 1  18F107F3x       Rx   d 8 38 A4 30 70 01 5C 00 BA
   1.937000 1  18F108F3x       Rx   d 8 00 00 00 00 00 00 00 00
   1.939000 1  18F155F3x       Rx   d 8 38 37 37 37 37 3A 39 00
   1.940000 1  18F156F3x       Rx   d 8 00 00 00 00 00 00 00 00
   1.942000 1  18F157F3x       Rx   d 8 00 00 00 00 00 00 00 00
   1.943000 1  18F158F3x       Rx   d 8 00 00 00 00 00 00 00 00
   1.944000 1  18F159F3x       Rx   d 8 00 00 00 00 00 00 00 00
   1.945000 1  CFF21CAx        Rx   d 8 03 01 16 10 46 41 00 24
   1.947000 1  CFF21CAx        Rx   d 8 03 01 22 10 46 41 00 24
   2.067000 1  18F100D0x       Rx   d 8 0C FF FF FF FF FF FF FF
   2.069000 1  18FECACAx       Rx   d 8 00 00 00 00 00 00 FF FF
   2.070000 1  CFF21CAx        Rx   d 8 03 01 2F 10 46 41 00 24
   2.072000 1  CFF21CAx        Rx   d 8 03 01 2F 10 46 41 00 24
   2.074000 1  18F100D0x       Rx   d 8 0C FF FF FF FF FF FF FF
   2.076000 1  CFF21CAx        Rx   d 8 02 01 41 10 46 41 00 24
   2.078000 1  CFF21CAx        Rx   d 8 02 01 4C 10 46 41 00 24
   2.080000 1  18F100F3x       Rx   d 8 03 06 82 4E BF FA 14 00
   2.082000 1  18F102F3x       Rx   d 8 0F 20 0F 19 10 0A 00 07
   2.084000 1  CFF21CAx        Rx   d 8 03 01 B4 11 46 41 00 24
   2.085000 1  CFF21CAx        Rx   d 8 03 01 BF 11 46 41 00 24
   2.087000 1  18F100D0x       Rx   d 8 0C FF FF FF FF FF FF FF
   2.089000 1  CFF21CAx        Rx   d 8 01 01 CE 11 46 41 00 24
   2.090000 1  CFF21CAx        Rx   d 8 01 01 E2 11 46 41 00 24
   2.092000 1  18F100D0x       Rx   d 8 0C FF FF FF FF FF FF FF
   2.093000 1  CFF21CAx        Rx   d 8 02 01 F2 11 46 41 00 24
   2.094000 1  CFF21CAx        Rx   d 8 02 01 FE 11 46 41 00 24
   2.220000 1  18F100F3x       Rx   d 8 03 06 83 BB BF FA 14 00
   2.222000 1  18F102F3x       Rx   d 8 0F 1F 0F 18 10 0C 00 07
   2.224000 1  18F106F3x       Rx   d 8 45 E0 FC FF FF FF FF FF
   2.226000 1  18F107F3x       Rx   d 8 38 A4 30 70 01 5C 00 BA
   2.228000 1  18F100D0x       Rx   d 8 0C FF FF FF FF FF FF FF
   2.229000 1  18F108F3x       Rx   d 8 00 00 00 00 00 00 00 00
   2.231000 1  18F155F3x       Rx   d 8 38 37 37 37 37 3A 39 00
   2.233000 1  18F156F3x       Rx   d 8 00 00 00 00 00 00 00 00
   2.235000 1  18F15DF3x       Rx   d 8 00 00 00 00 00 00 00 00
   2.237000 1  CFF21CAx        Rx   d 8 D5 00 24 13 46 41 00 24
   2.239000 1  18F100D0x       Rx   d 8 0C FF FF FF FF FF FF FF
   2.241000 1  CFF21CAx        Rx   d 8 D5 00 2B 13 46 41 00 24
   2.243000 1  CFF21CAx        Rx   d 8 D1 00 38 13 46 41 00 24
   2.244000 1  CFF21CAx        Rx   d 8 D1 00 43 13 46 41 00 24
   2.246000 1  18F100D0x       Rx   d 8 0C FF FF FF FF FF FF FF
   2.247000 1  CFF21CAx        Rx   d 8 D1 00 4C 13 46 41 00 24
   2.249000 1  CFF21CAx        Rx   d 8 D1 00 5A 13 46 41 00 24
   2.250000 1  18F100D0x       Rx   d 8 0C FF FF FF FF FF FF FF
   2.368000 1  CFF21CAx        Rx   d 8 D1 00 62 13 46 41 00 24
   2.370000 1  18F100F3x       Rx   d 8 03 05 85 1C BF FA 14 00
   2.371000 1  18F102F3x       Rx   d 8 0F 1F 0F 18 10 09 00 07
   2.373000 1  18F106F3x       Rx   d 8 45 E0 FC FF FF FF FF FF
   2.375000 1  18F107F3x       Rx   d 8 38 A4 30 70 01 5C 00 BA
   2.377000 1  18F108F3x       Rx   d 8 00 00 00 00 00 00 00 00
   2.379000 1  CFF21CAx        Rx   d 8 D1 00 6E 13 46 41 00 24
   2.381000 1  18F155F3x       Rx   d 8 38 37 37 37 37 3A 39 00
   2.383000 1  18FF2112x       Rx   d 8 01 00 00 00 00 00 00 00
   2.385000 1  18F156F3x       Rx   d 8 00 00 00 00 00 00 00 00
   2.387000 1  18F157F3x       Rx   d 8 00 00 00 00 00 00 00 00
   2.388000 1  18F158F3x       Rx   d 8 00 00 00 00 00 00 00 00
   2.390000 1  18F100D0x       Rx   d 8 0C FF FF FF FF FF FF FF
   2.392000 1  18F159F3x       Rx   d 8 00 00 00 00 00 00 00 00
   2.394000 1  18F15AF3x       Rx   d 8 00 00 00 00 00 00 00 00
   2.395000 1  18F15BF3x       Rx   d 7 00 00 00 00 00 00 00
   2.396000 1  18F15CF3x       Rx   d 8 00 00 00 00 00 00 00 00
   2.397000 1  18F15DF3x       Rx   d 8 00 00 00 00 00 00 00 00
   2.398000 1  18F15EF3x       Rx   d 8 00 00 00 00 00 00 00 00
   2.400000 1  CFF21CAx        Rx   d 8 D1 00 6E 13 46 41 00 24
   2.520000 1  CFF21CAx        Rx   d 8 D1 00 7E 13 46 41 00 24
   2.522000 1  18F100D0x       Rx   d 8 0C FF FF FF FF FF FF FF
   2.524000 1  CFF21CAx        Rx   d 8 D1 00 7E 13 46 41 00 24
   2.526000 1  CFF21CAx        Rx   d 8 CF 00 8A 13 46 41 00 24
   2.527000 1  18F100D0x       Rx   d 8 0C FF FF FF FF FF FF FF
   2.529000 1  CFF21CAx        Rx   d 8 CF 00 96 13 46 41 00 24
   2.531000 1  CFF21CAx        Rx   d 8 CB 00 A6 13 46 41 00 24
   2.534000 1  18F100D0x       Rx   d 8 0C FF FF FF FF FF FF FF
   2.535000 1  CFF21CAx        Rx   d 8 CB 00 B1 13 46 41 00 24
   2.537000 1  18F100F3x       Rx   d 8 03 05 85 1C BF FA 14 00
   2.539000 1  18F102F3x       Rx   d 8 0F 1F 0F 18 10 09 00 07
   2.541000 1  CFF21CAx        Rx   d 8 C5 00 BE 13 46 41 00 24
   2.543000 1  18F106F3x       Rx   d 8 45 E0 FC FF FF FF FF FF
   2.545000 1  18FF2112x       Rx   d 8 01 00 00 00 00 00 00 00
   2.546000 1  18F107F3x       Rx   d 8 38 A4 30 70 01 5C 00 BA
   2.548000 1  18F108F3x       Rx   d 8 00 00 00 00 00 00 00 00
   2.549000 1  18F155F3x       Rx   d 8 38 37 37 37 37 3A 39 00
   2.551000 1  18F156F3x       Rx   d 8 00 00 00 00 00 00 00 00
   2.552000 1  18F157F3x       Rx   d 8 00 00 00 00 00 00 00 00
   2.670000 1  18F158F3x       Rx   d 8 00 00 00 00 00 00 00 00
   2.672000 1  18F159F3x       Rx   d 8 00 00 00 00 00 00 00 00
   2.673000 1  18F15AF3x       Rx   d 8 00 00 00 00 00 00 00 00
   2.675000 1  18F15BF3x       Rx   d 7 00 00 00 00 00 00 00
   2.677000 1  18F15CF3x       Rx   d 8 00 00 00 00 00 00 00 00
   2.679000 1  18F15DF3x       Rx   d 8 00 00 00 00 00 00 00 00
   2.681000 1  CFF21CAx        Rx   d 8 C5 00 C9 13 46 41 00 24
   2.683000 1  18F100D0x       Rx   d 8 0C FF FF FF FF FF FF FF
   2.684000 1  18F15EF3x       Rx   d 8 00 00 00 00 00 00 00 00
   2.686000 1  CFF21CAx        Rx   d 8 C5 00 D6 13 46 41 00 24
   2.689000 1  CFF21CAx        Rx   d 8 C6 00 E3 13 46 41 00 24
   2.690000 1  18F100D0x       Rx   d 8 0C FF FF FF FF FF FF FF
   2.692000 1  CFF21CAx        Rx   d 8 C6 00 EC 13 46 41 00 24
   2.695000 1  CFF21CAx        Rx   d 8 C8 00 F5 13 46 41 00 24
   2.696000 1  18F100D0x       Rx   d 8 0C FF FF FF FF FF FF FF
   2.697000 1  18FECACAx       Rx   d 8 00 00 00 00 00 00 FF FF
   2.698000 1  CFF21CAx        Rx   d 8 C8 00 FA 13 46 41 00 24
   2.700000 1  CFF21CAx        Rx   d 8 C8 00 FA 13 46 41 00 24
   2.701000 1  18F100D0x       Rx   d 8 0C FF FF FF FF FF FF FF
   2.823000 1  CFF21CAx        Rx   d 8 C8 00 0A 14 46 41 00 24
   2.825000 1  18F100F3x       Rx   d 8 03 05 85 F0 BF FA 14 00
   2.826000 1  18FF2112x       Rx   d 8 01 00 00 00 00 00 00 00
   2.829000 1  18F102F3x       Rx   d 8 0F 1F 0F 18 10 09 00 07
   2.831000 1  18F106F3x       Rx   d 8 45 E0 FC FF FF FF FF FF
   2.832000 1  18F107F3x       Rx   d 8 38 A4 30 70 01 5C 00 BA
   2.834000 1  18F108F3x       Rx   d 8 00 00 00 00 00 00 00 00
   2.836000 1  18F155F3x       Rx   d 8 38 37 37 37 37 3A 39 00
   2.838000 1  18F156F3x       Rx   d 8 00 00 00 00 00 00 00 00
   2.839000 1  18F157F3x       Rx   d 8 00 00 00 00 00 00 00 00
   2.840000 1  18F158F3x       Rx   d 8 00 00 00 00 00 00 00 00
   2.841000 1  CFF21CAx        Rx   d 8 CB 00 14 14 46 41 00 24
   2.843000 1  18F159F3x       Rx   d 8 00 00 00 00 00 00 00 00
   2.844000 1  18F15AF3x       Rx   d 8 00 00 00 00 00 00 00 00
   3.133000 1  18F15BF3x       Rx   d 7 00 00 00 00 00 00 00
   3.134000 1  18F15CF3x       Rx   d 8 00 00 00 00 00 00 00 00
   3.136000 1  18F15DF3x       Rx   d 8 00 00 00 00 00 00 00 00
   3.138000 1  18F15EF3x       Rx   d 8 00 00 00 00 00 00 00 00
   3.140000 1  18F100D0x       Rx   d 8 0C FF FF FF FF FF FF FF
   3.142000 1  CFF21CAx        Rx   d 8 CB 00 1E 14 46 41 00 24
   3.144000 1  CFF21CAx        Rx   d 8 CC 00 2E 14 46 41 00 24
   3.146000 1  CFF21CAx        Rx   d 8 CC 00 32 14 46 41 00 24
   3.148000 1  18F100D0x       Rx   d 8 0C FF FF FF FF FF FF FF
   3.150000 1  CFF21CAx        Rx   d 8 CC 00 3A 14 46 41 00 24
   3.151000 1  CFF21CAx        Rx   d 8 D0 00 43 14 46 41 00 24
   3.152000 1  18F100D0x       Rx   d 8 0C FF FF FF FF FF FF FF
   3.153000 1  CFF21CAx        Rx   d 8 D0 00 49 14 46 41 00 24
   3.155000 1  CFF21CAx        Rx   d 8 D0 00 56 14 46 41 00 24
   3.156000 1  18F100D0x       Rx   d 8 0C FF FF FF FF FF FF FF
   3.272000 1  18FF2112x       Rx   d 8 01 00 00 00 00 00 00 00
   3.274000 1  18F100F3x       Rx   d 8 03 05 85 F0 BF FA 14 00
   3.276000 1  18F102F3x       Rx   d 8 0F 1F 0F 18 10 09 00 07
   3.278000 1  18F106F3x       Rx   d 8 45 E0 FC FF FF FF FF FF
   3.280000 1  18F107F3x       Rx   d 8 38 A4 30 70 01 5C 00 BA
   3.282000 1  18F108F3x       Rx   d 8 00 00 00 00 00 00 00 00
   3.284000 1  18F155F3x       Rx   d 8 38 37 37 37 37 3A 39 00
   3.286000 1  CFF21CAx        Rx   d 8 D0 00 61 14 46 41 00 24
   3.287000 1  18F156F3x       Rx   d 8 00 00 00 00 00 00 00 00
   3.289000 1  18F157F3x       Rx   d 8 00 00 00 00 00 00 00 00
   3.291000 1  18F158F3x       Rx   d 8 00 00 00 00 00 00 00 00
   3.293000 1  18F159F3x       Rx   d 8 00 00 00 00 00 00 00 00
   3.295000 1  18F15AF3x       Rx   d 8 00 00 00 00 00 00 00 00
   3.296000 1  18F15BF3x       Rx   d 7 00 00 00 00 00 00 00
   3.299000 1  18F15CF3x       Rx   d 8 00 00 00 00 00 00 00 00
   3.300000 1  18F15DF3x       Rx   d 8 00 00 00 00 00 00 00 00
   3.302000 1  18F15EF3x       Rx   d 8 00 00 00 00 00 00 00 00
   3.303000 1  CFF21CAx        Rx   d 8 D0 00 6F 14 46 41 00 24
   3.305000 1  18F100D0x       Rx   d 8 0C FF FF FF FF FF FF FF
   3.306000 1  CFF21CAx        Rx   d 8 CC 00 7F 14 46 41 00 24
   3.308000 1  18F104F3x       Rx   d 8 3A 37 06 02 03 FF FF FF
   3.426000 1  18F113F3x       Rx   d 8 0F 1B 0F 1A 0F 1A 0F 1C
   3.428000 1  18F114F3x       Rx   d 8 0F 1A 0F 1B 0F 1B 0F 1A
   3.430000 1  18F13BF3x       Rx   d 8 00 00 00 00 00 00 00 00
   3.431000 1  CFF21CAx        Rx   d 8 C7 00 A1 14 46 41 00 24
   3.433000 1  18F100D0x       Rx   d 8 0C FF FF FF FF FF FF FF
   3.435000 1  18FF2112x       Rx   d 8 01 00 00 00 00 00 00 00
   3.437000 1  18F100F3x       Rx   d 8 03 05 85 F0 BF FA 14 00
   3.438000 1  18F102F3x       Rx   d 8 0F 1F 0F 18 10 09 00 07
   3.440000 1  18F106F3x       Rx   d 8 45 E0 FC FF FF FF FF FF
   3.443000 1  CFF21CAx        Rx   d 8 C7 00 A7 14 46 41 00 24
   3.444000 1  18F107F3x       Rx   d 8 38 A4 30 70 01 5C 00 BA
   3.446000 1  18F108F3x       Rx   d 8 00 00 00 00 00 00 00 00
   3.448000 1  18F155F3x       Rx   d 8 38 37 37 37 37 3A 39 00
   3.450000 1  18F156F3x       Rx   d 8 00 00 00 00 00 00 00 00
   3.451000 1  18F157F3x       Rx   d 8 00 00 00 00 00 00 00 00
   3.453000 1  18F158F3x       Rx   d 8 00 00 00 00 00 00 00 00
   3.454000 1  18F159F3x       Rx   d 8 00 00 00 00 00 00 00 00
   3.455000 1  18F15AF3x       Rx   d 8 00 00 00 00 00 00 00 00
   3.456000 1  18F15BF3x       Rx   d 7 00 00 00 00 00 00 00
   3.819000 1  18F15CF3x       Rx   d 8 00 00 00 00 00 00 00 00
   3.821000 1  CFF21CAx        Rx   d 8 C2 00 E7 14 46 41 00 24
   3.822000 1  18F100D0x       Rx   d 8 0C FF FF FF FF FF FF FF
   3.823000 1  CFF21CAx        Rx   d 8 C2 00 EE 14 46 41 00 24
   3.824000 1  CFF21CAx        Rx   d 8 C1 00 F9 14 46 41 00 24
   3.826000 1  18F100D0x       Rx   d 8 0C FF FF FF FF FF FF FF
   3.827000 1  CFF21CAx        Rx   d 8 C1 00 0F 15 46 41 00 24
   3.828000 1  CFF21CAx        Rx   d 8 C1 00 15 15 46 41 00 24
   4.208000 1  18FF2112x       Rx   d 8 01 00 00 00 00 00 00 00
   4.210000 1  18F100D0x       Rx   d 8 0C FF FF FF FF FF FF FF
   4.212000 1  CFF21CAx        Rx   d 8 C1 00 1E 15 46 41 00 24
   4.214000 1  18F100F3x       Rx   d 8 03 05 86 23 BF FA 14 00
   4.216000 1  18F102F3x       Rx   d 8 0F 1E 0F 17 10 09 00 07
   4.218000 1  18F106F3x       Rx   d 8 45 E0 FC FF FF FF FF FF
   4.219000 1  18F107F3x       Rx   d 8 38 A4 30 70 01 5C 00 BA
   4.221000 1  18F108F3x       Rx   d 8 00 00 00 00 00 00 00 00
   4.224000 1  18F155F3x       Rx   d 8 38 37 37 37 37 3A 39 00
   4.225000 1  18F156F3x       Rx   d 8 00 00 00 00 00 00 00 00
   4.227000 1  CFF21CAx        Rx   d 8 C1 00 1D 15 46 41 00 24
   4.229000 1  18F157F3x       Rx   d 8 00 00 00 00 00 00 00 00
   4.232000 1  18F158F3x       Rx   d 8 00 00 00 00 00 00 00 00
   4.233000 1  CFF21CAx        Rx   d 8 C1 00 28 15 46 41 00 24
   4.234000 1  18FF2112x       Rx   d 8 01 00 00 00 00 00 00 00
   4.236000 1  CFF21CAx        Rx   d 8 C1 00 2E 15 46 41 00 24
   4.237000 1  18F100D0x       Rx   d 8 0C FF FF FF FF FF FF FF
   4.238000 1  18F100F3x       Rx   d 8 03 05 84 DC BF FA 14 00
   4.600000 1  18F102F3x       Rx   d 8 0F 1E 0F 17 10 09 00 07
   4.602000 1  18F106F3x       Rx   d 8 45 E0 FC FF FF FF FF FF
   4.604000 1  18F107F3x       Rx   d 8 38 A4 30 70 01 5C 00 BA
   4.606000 1  CFF21CAx        Rx   d 8 C1 00 31 15 46 41 00 24
   4.608000 1  18F108F3x       Rx   d 8 00 00 00 00 00 00 00 00
   4.610000 1  18F155F3x       Rx   d 8 38 37 37 37 37 3A 39 00
   4.612000 1  18F156F3x       Rx   d 8 00 00 00 00 00 00 00 00
   4.613000 1  18F157F3x       Rx   d 8 00 00 00 00 00 00 00 00
   4.614000 1  18F158F3x       Rx   d 8 00 00 00 00 00 00 00 00
   4.615000 1  18F159F3x       Rx   d 8 00 00 00 00 00 00 00 00
   4.617000 1  18F15AF3x       Rx   d 8 00 00 00 00 00 00 00 00
   4.618000 1  18F15BF3x       Rx   d 7 00 00 00 00 00 00 00
   4.619000 1  18F15CF3x       Rx   d 8 00 00 00 00 00 00 00 00
   4.649000 1  18F15DF3x       Rx   d 8 00 00 00 00 00 00 00 00
   4.652000 1  CFF21CAx        Rx   d 8 BC 00 67 15 46 41 00 24
   4.654000 1  18F100D0x       Rx   d 8 0C FF FF FF FF FF FF FF
   4.656000 1  CFF21CAx        Rx   d 8 BB 00 71 15 46 41 00 24
   4.658000 1  CFF21CAx        Rx   d 8 BB 00 6C 15 46 41 00 24
   4.660000 1  18F100D0x       Rx   d 8 0C FF FF FF FF FF FF FF
   4.662000 1  CFF21CAx        Rx   d 8 BB 00 70 15 46 41 00 24
   4.663000 1  18FF2112x       Rx   d 8 01 00 00 00 00 00 00 00
   4.665000 1  CFF21CAx        Rx   d 8 BA 00 75 15 46 41 00 24
   4.667000 1  18F100D0x       Rx   d 8 0C FF FF FF FF FF FF FF
   4.669000 1  CFF21CAx        Rx   d 8 BA 00 7C 15 46 41 00 24
   4.671000 1  18F100F3x       Rx   d 8 03 05 84 DC BF FA 14 00
   4.673000 1  18F102F3x       Rx   d 8 0F 1E 0F 17 10 09 00 07
   4.675000 1  18F106F3x       Rx   d 8 45 E0 FC FF FF FF FF FF
   4.677000 1  18F107F3x       Rx   d 8 38 A4 30 70 01 5C 00 BA
   4.679000 1  18F108F3x       Rx   d 8 00 00 00 00 00 00 00 00
   4.680000 1  18F155F3x       Rx   d 8 38 37 37 37 37 3A 39 00
   4.683000 1  18F156F3x       Rx   d 8 00 00 00 00 00 00 00 00
   4.684000 1  18F157F3x       Rx   d 8 00 00 00 00 00 00 00 00
   4.686000 1  CFF21CAx        Rx   d 8 B9 00 85 15 46 41 00 24
   4.688000 1  CFF21CAx        Rx   d 8 B8 00 99 15 46 41 00 24
   4.690000 1  18F100D0x       Rx   d 8 0C FF FF FF FF FF FF FF
   4.692000 1  18F100F3x       Rx   d 8 03 03 84 0B BF FA 14 00
   4.694000 1  18F102F3x       Rx   d 8 0F 14 0F 0C 13 09 00 08
   4.695000 1  18F106F3x       Rx   d 8 45 E0 FC FF FF FF FF FF
   4.697000 1  18F107F3x       Rx   d 8 38 A4 30 70 01 5B 00 B9
   4.699000 1  18F108F3x       Rx   d 8 00 00 00 00 00 00 00 00
   4.701000 1  CFF21CAx        Rx   d 8 B8 00 A6 15 46 41 00 24
   4.703000 1  18F155F3x       Rx   d 8 38 37 37 37 37 3A 39 00
   4.704000 1  18F156F3x       Rx   d 8 00 00 00 00 00 00 00 00
   4.706000 1  18F157F3x       Rx   d 8 00 00 00 00 00 00 00 00
   4.708000 1  18F158F3x       Rx   d 8 00 00 00 00 00 00 00 00
   4.710000 1  18F159F3x       Rx   d 8 00 00 00 00 00 00 00 00
   4.712000 1  18F15AF3x       Rx   d 8 00 00 00 00 00 00 00 00
   4.714000 1  CFF21CAx        Rx   d 8 B1 00 2F 16 46 41 00 24
   4.715000 1  18F100D0x       Rx   d 8 0C FF FF FF FF FF FF FF
   4.717000 1  18F100F3x       Rx   d 8 03 03 85 12 BF FA 14 00
   4.719000 1  18F102F3x       Rx   d 8 0F 14 0F 0C 13 09 00 08
   4.721000 1  18F106F3x       Rx   d 8 45 E0 FC FF FF FF FF FF
   4.723000 1  18F107F3x       Rx   d 8 38 A4 30 70 01 5B 00 B9
   4.725000 1  18F108F3x       Rx   d 8 00 00 00 00 00 00 00 00
   4.727000 1  18F155F3x       Rx   d 8 38 37 37 37 37 3A 39 00
   4.729000 1  18F157F3x       Rx   d 8 00 00 00 00 00 00 00 00
   4.731000 1  18F158F3x       Rx   d 8 00 00 00 00 00 00 00 00
   4.733000 1  18F15AF3x       Rx   d 8 00 00 00 00 00 00 00 00
   4.734000 1  18F15BF3x       Rx   d 7 00 00 00 00 00 00 00
   4.736000 1  18F15CF3x       Rx   d 8 00 00 00 00 00 00 00 00
   4.738000 1  18F15EF3x       Rx   d 8 00 00 00 00 00 00 00 00
   4.740000 1  CFF21CAx        Rx   d 8 B1 00 33 16 46 41 00 24
   4.742000 1  CFF21CAx        Rx   d 8 B3 00 6B 16 46 41 00 24
   4.743000 1  18F100D0x       Rx   d 8 0C FF FF FF FF FF FF FF
   4.745000 1  CFF21CAx        Rx   d 8 B3 00 70 16 46 41 00 24
   4.747000 1  CFF21CAx        Rx   d 8 B3 00 77 16 46 41 00 24
   4.749000 1  18FF2112x       Rx   d 8 01 00 00 00 00 00 00 00
   4.751000 1  18F100D0x       Rx   d 8 0C FF FF FF FF FF FF FF
   4.753000 1  CFF21CAx        Rx   d 8 B3 00 79 16 46 41 00 24
   4.754000 1  CFF21CAx        Rx   d 8 B2 00 79 16 46 41 00 24
   4.756000 1  18F100D0x       Rx   d 8 0C FF FF FF FF FF FF FF
   4.758000 1  CFF21CAx        Rx   d 8 B2 00 80 16 46 41 00 24
   4.759000 1  18F100F3x       Rx   d 8 03 03 85 63 BF FA 14 00
   4.760000 1  18F102F3x       Rx   d 8 0F 14 0F 0C 13 09 00 08
   4.761000 1  18F106F3x       Rx   d 8 45 E0 FC FF FF FF FF FF
   4.763000 1  18F107F3x       Rx   d 8 38 A4 30 70 01 5B 00 B9
   4.764000 1  18F108F3x       Rx   d 8 00 00 00 00 00 00 00 00
   4.906000 1  18F155F3x       Rx   d 8 38 37 37 37 37 3A 39 00
   4.908000 1  18F156F3x       Rx   d 8 00 00 00 00 00 00 00 00
   4.909000 1  18F157F3x       Rx   d 8 00 00 00 00 00 00 00 00
   4.911000 1  18F158F3x       Rx   d 8 00 00 00 00 00 00 00 00
   4.913000 1  18F159F3x       Rx   d 8 00 00 00 00 00 00 00 00
   4.915000 1  18F15AF3x       Rx   d 8 00 00 00 00 00 00 00 00
   4.916000 1  18F100D0x       Rx   d 8 0C FF FF FF FF FF FF FF
   4.918000 1  CFF21CAx        Rx   d 8 AE 00 94 16 46 41 00 24
   4.920000 1  18F100F3x       Rx   d 8 02 FF 85 63 BF FA 14 00
   4.922000 1  18F102F3x       Rx   d 8 0F 02 0E F7 10 09 00 0B
   4.924000 1  18F106F3x       Rx   d 8 45 E0 FC FF FF FF FF FF
   4.926000 1  18F107F3x       Rx   d 8 38 A4 30 70 01 59 00 B8
   4.927000 1  18F108F3x       Rx   d 8 00 00 00 00 00 00 00 00
   4.930000 1  18F155F3x       Rx   d 8 38 37 37 37 37 3A 39 00
   4.932000 1  18F156F3x       Rx   d 8 00 00 00 00 00 00 00 00
   4.933000 1  CFF21CAx        Rx   d 8 AE 00 98 16 46 41 00 24
   4.934000 1  18F157F3x       Rx   d 8 00 00 00 00 00 00 00 00
   4.936000 1  18F158F3x       Rx   d 8 00 00 00 00 00 00 00 00
   4.937000 1  18F159F3x       Rx   d 8 00 00 00 00 00 00 00 00
   4.939000 1  18F15AF3x       Rx   d 8 00 00 00 00 00 00 00 00
   5.060000 1  18F15BF3x       Rx   d 7 00 00 00 00 00 00 00
   5.062000 1  18F15CF3x       Rx   d 8 00 00 00 00 00 00 00 00
   5.064000 1  18F15DF3x       Rx   d 8 00 00 00 00 00 00 00 00
   5.066000 1  18F15EF3x       Rx   d 8 00 00 00 00 00 00 00 00
   5.067000 1  18F100D0x       Rx   d 8 0C FF FF FF FF FF FF FF
   5.069000 1  CFF21CAx        Rx   d 8 A2 00 F3 16 46 41 00 24
   5.071000 1  18F100D0x       Rx   d 8 0C FF FF FF FF FF FF FF
   5.073000 1  CFF21CAx        Rx   d 8 A2 00 FC 16 46 41 00 24
   5.074000 1  18F100F3x       Rx   d 8 02 FD 84 1B BF FA 14 00
   5.077000 1  18F102F3x       Rx   d 8 0E F6 0E E9 10 0C 00 0D
   5.078000 1  18F106F3x       Rx   d 8 45 E0 FC FF FF FF FF FF
   5.081000 1  18F107F3x       Rx   d 8 38 A4 30 70 01 58 00 B8
   5.082000 1  18F108F3x       Rx   d 8 00 00 00 00 00 00 00 00
   5.084000 1  18F100D0x       Rx   d 8 0C FF FF FF FF FF FF FF
   5.085000 1  18F12FF3x       Rx   d 8 00 00 00 00 00 00 00 00
   5.086000 1  18F132F3x       Rx   d 8 00 00 00 00 00 00 00 00
   5.087000 1  18F134F3x       Rx   d 8 00 00 00 00 00 00 00 00
   5.088000 1  18F136F3x       Rx   d 8 00 00 00 00 00 00 00 00
   5.209000 1  18F138F3x       Rx   d 8 00 00 00 00 00 00 00 00
   5.211000 1  CFF21CAx        Rx   d 8 8A 00 53 17 46 41 00 24
   5.213000 1  18F13CF3x       Rx   d 8 00 00 00 00 00 00 00 00
   5.215000 1  CFF21CAx        Rx   d 8 88 00 51 17 46 41 00 24
   5.217000 1  18F100D0x       Rx   d 8 0C FF FF FF FF FF FF FF
   5.219000 1  18F100F3x       Rx   d 8 02 FD 84 29 BF FA 14 00
   5.220000 1  18F102F3x       Rx   d 8 0E F6 0E E9 10 0C 00 0D
   5.222000 1  18F106F3x       Rx   d 8 45 E0 FC FF FF FF FF FF
   5.223000 1  CFF21CAx        Rx   d 8 88 00 4A 17 46 41 00 24
   5.224000 1  18F107F3x       Rx   d 8 38 A4 30 70 01 58 00 B8
   5.225000 1  18F108F3x       Rx   d 8 00 00 00 00 00 00 00 00
   5.227000 1  18F155F3x       Rx   d 8 38 37 37 37 37 3A 39 00
   5.383000 1  18F156F3x       Rx   d 8 00 00 00 00 00 00 00 00
   5.385000 1  18F100D0x       Rx   d 8 0C FF FF FF FF FF FF FF
   5.386000 1  CFF21CAx        Rx   d 8 7E 00 6B 17 46 41 00 24
   5.387000 1  CFF21CAx        Rx   d 8 7C 00 72 17 46 41 00 24
   5.388000 1  CFF21CAx        Rx   d 8 7C 00 71 17 46 41 00 24
   5.389000 1  18F100D0x       Rx   d 8 0C FF FF FF FF FF FF FF
   5.390000 1  18F100F3x       Rx   d 8 02 FC 83 03 BF FA 14 00
   5.392000 1  CFF21CAx        Rx   d 8 79 00 7D 17 46 41 00 24
   5.512000 1  18F102F3x       Rx   d 8 0E F2 0E E7 11 0C 00 0B
   5.514000 1  18F106F3x       Rx   d 8 45 E0 FC FF FF FF FF FF
   5.515000 1  18F107F3x       Rx   d 8 38 A4 30 70 01 58 00 B7
   5.517000 1  18F108F3x       Rx   d 8 00 00 00 00 00 00 00 00
   5.519000 1  18F155F3x       Rx   d 8 38 37 37 38 37 3A 39 00
   5.521000 1  18F156F3x       Rx   d 8 00 00 00 00 00 00 00 00
   5.523000 1  18F157F3x       Rx   d 8 00 00 00 00 00 00 00 00
   5.524000 1  18F15BF3x       Rx   d 7 00 00 00 00 00 00 00
   5.526000 1  18F15DF3x       Rx   d 8 00 00 00 00 00 00 00 00
   5.528000 1  18F100D0x       Rx   d 8 0C FF FF FF FF FF FF FF
   5.530000 1  CFF21CAx        Rx   d 8 79 00 7B 17 46 41 00 24
   5.532000 1  18FF2112x       Rx   d 8 01 00 00 00 00 00 00 00
   5.535000 1  CFF21CAx        Rx   d 8 77 00 7F 17 46 41 00 24
   5.536000 1  18F100D0x       Rx   d 8 0C FF FF FF FF FF FF FF
   5.537000 1  CFF21CAx        Rx   d 8 77 00 7E 17 46 41 00 24
   5.538000 1  CFF21CAx        Rx   d 8 76 00 7E 17 46 41 00 24
   5.539000 1  18F100D0x       Rx   d 8 0C FF FF FF FF FF FF FF
   5.541000 1  CFF21CAx        Rx   d 8 76 00 79 17 46 41 00 24
   5.542000 1  CFF21CAx        Rx   d 8 76 00 7A 17 46 41 00 24
   5.662000 1  18F100D0x       Rx   d 8 0C FF FF FF FF FF FF FF
   5.664000 1  CFF21CAx        Rx   d 8 78 00 79 17 46 41 00 24
   5.665000 1  18F100F3x       Rx   d 8 02 FC 83 03 BF FA 14 00
   5.667000 1  18F102F3x       Rx   d 8 0E F2 0E E7 11 0C 00 0B
   5.669000 1  18F106F3x       Rx   d 8 45 E0 FC FF FF FF FF FF
   5.671000 1  18F107F3x       Rx   d 8 38 A4 30 70 01 58 00 B7
   5.673000 1  18F108F3x       Rx   d 8 00 00 00 00 00 00 00 00
   5.675000 1  18F155F3x       Rx   d 8 38 37 37 38 37 3A 39 00
   5.677000 1  18F156F3x       Rx   d 8 00 00 00 00 00 00 00 00
   5.678000 1  18F157F3x       Rx   d 8 00 00 00 00 00 00 00 00
   5.680000 1  CFF21CAx        Rx   d 8 78 00 79 17 46 41 00 24
   5.682000 1  18F158F3x       Rx   d 8 00 00 00 00 00 00 00 00
   5.684000 1  18F159F3x       Rx   d 8 00 00 00 00 00 00 00 00
   5.686000 1  18F15AF3x       Rx   d 8 00 00 00 00 00 00 00 00
   5.688000 1  18F15BF3x       Rx   d 7 00 00 00 00 00 00 00
   5.689000 1  18F15CF3x       Rx   d 8 00 00 00 00 00 00 00 00
   5.690000 1  18F100D0x       Rx   d 8 0C FF FF FF FF FF FF FF
   5.691000 1  18F15DF3x       Rx   d 8 00 00 00 00 00 00 00 00
   5.692000 1  18F15EF3x       Rx   d 8 00 00 00 00 00 00 00 00
   5.693000 1  CFF21CAx        Rx   d 8 78 00 6F 17 46 41 00 24
   5.812000 1  18FF2112x       Rx   d 8 01 00 00 00 00 00 00 00
   5.813000 1  CFF21CAx        Rx   d 8 78 00 6F 17 46 41 00 24
   5.815000 1  18F100D0x       Rx   d 8 0C FF FF FF FF FF FF FF
   5.816000 1  CFF21CAx        Rx   d 8 78 00 6C 17 46 41 00 24
   5.818000 1  CFF21CAx        Rx   d 8 78 00 6E 17 46 41 00 24
   5.820000 1  18F100D0x       Rx   d 8 0C FF FF FF FF FF FF FF
   5.822000 1  CFF21CAx        Rx   d 8 78 00 6D 17 46 41 00 24
   5.824000 1  CFF21CAx        Rx   d 8 78 00 6E 17 46 41 00 24
   5.826000 1  18F100D0x       Rx   d 8 0C FF FF FF FF FF FF FF
   5.828000 1  CFF21CAx        Rx   d 8 78 00 73 17 46 41 00 24
   5.830000 1  18F100F3x       Rx   d 8 02 FC 82 71 BF FA 14 00
   5.832000 1  18F102F3x       Rx   d 8 0E F2 0E E7 11 0C 00 0B
   5.833000 1  18F106F3x       Rx   d 8 45 E0 FC FF FF FF FF FF
   5.836000 1  18F107F3x       Rx   d 8 38 A4 30 70 01 58 00 B7
   5.838000 1  18F108F3x       Rx   d 8 00 00 00 00 00 00 00 00
   5.839000 1  CFF21CAx        Rx   d 8 78 00 71 17 46 41 00 24
   5.840000 1  18F155F3x       Rx   d 8 38 37 37 37 37 3A 39 00
   5.841000 1  18F156F3x       Rx   d 8 00 00 00 00 00 00 00 00
   5.843000 1  18F157F3x       Rx   d 8 00 00 00 00 00 00 00 00
   5.844000 1  18F158F3x       Rx   d 8 00 00 00 00 00 00 00 00
   5.845000 1  18F159F3x       Rx   d 8 00 00 00 00 00 00 00 00
   6.131000 1  18F15AF3x       Rx   d 8 00 00 00 00 00 00 00 00
   6.132000 1  18F15BF3x       Rx   d 7 00 00 00 00 00 00 00
   6.134000 1  18F15CF3x       Rx   d 8 00 00 00 00 00 00 00 00
   6.136000 1  18F100D0x       Rx   d 8 0C FF FF FF FF FF FF FF
   6.138000 1  18F15DF3x       Rx   d 8 00 00 00 00 00 00 00 00
   6.140000 1  18F15EF3x       Rx   d 8 00 00 00 00 00 00 00 00
   6.141000 1  CFF21CAx        Rx   d 8 78 00 6D 17 46 41 00 24
   6.142000 1  18FF2112x       Rx   d 8 01 00 00 00 00 00 00 00
   6.144000 1  CFF21CAx        Rx   d 8 77 00 66 17 46 41 00 24
   6.145000 1  CFF21CAx        Rx   d 8 77 00 68 17 46 41 00 24
   6.146000 1  CFF21CAx        Rx   d 8 77 00 72 17 46 41 00 24
   6.147000 1  CFF21CAx        Rx   d 8 77 00 7A 17 46 41 00 24
   6.267000 1  CFF21CAx        Rx   d 8 75 00 77 17 46 41 00 24
   6.269000 1  18F100D0x       Rx   d 8 0C FF FF FF FF FF FF FF
   6.271000 1  18F100F3x       Rx   d 8 02 FC 82 71 BF FA 14 00
   6.272000 1  18F102F3x       Rx   d 8 0E F2 0E E7 11 0C 00 0B
   6.274000 1  CFF21CAx        Rx   d 8 75 00 77 17 46 41 00 24
   6.276000 1  18F106F3x       Rx   d 8 45 E0 FC FF FF FF FF FF
   6.278000 1  18F107F3x       Rx   d 8 38 A4 30 70 01 58 00 B7
   6.280000 1  18F108F3x       Rx   d 8 00 00 00 00 00 00 00 00
   6.282000 1  18F155F3x       Rx   d 8 38 37 37 37 37 3A 39 00
   6.283000 1  18F156F3x       Rx   d 8 00 00 00 00 00 00 00 00
   6.285000 1  18F157F3x       Rx   d 8 00 00 00 00 00 00 00 00
   6.287000 1  18F158F3x       Rx   d 8 00 00 00 00 00 00 00 00
   6.288000 1  18F159F3x       Rx   d 8 00 00 00 00 00 00 00 00
   6.290000 1  18F15AF3x       Rx   d 8 00 00 00 00 00 00 00 00
   6.292000 1  18F15BF3x       Rx   d 7 00 00 00 00 00 00 00
   6.293000 1  18F15CF3x       Rx   d 8 00 00 00 00 00 00 00 00
   6.659000 1  18F15DF3x       Rx   d 8 00 00 00 00 00 00 00 00
   6.660000 1  CFF21CAx        Rx   d 8 75 00 73 17 46 41 00 24
   6.662000 1  CFF21CAx        Rx   d 8 73 00 76 17 46 41 00 24
   6.663000 1  CFF21CAx        Rx   d 8 71 00 79 17 46 41 00 24
   6.665000 1  18F100D0x       Rx   d 8 0C FF FF FF FF FF FF FF
   6.667000 1  CFF21CAx        Rx   d 8 71 00 7E 17 46 41 00 24
   6.669000 1  CFF21CAx        Rx   d 8 72 00 84 17 46 41 00 24
   6.671000 1  18F100D0x       Rx   d 8 0C FF FF FF FF FF FF FF
   6.673000 1  CFF21CAx        Rx   d 8 72 00 85 17 46 41 00 24
   6.675000 1  CFF21CAx        Rx   d 8 72 00 84 17 46 41 00 24
   6.676000 1  18F100D0x       Rx   d 8 0C FF FF FF FF FF FF FF
   6.678000 1  CFF21CAx        Rx   d 8 70 00 88 17 46 41 00 24
   6.679000 1  18F100F3x       Rx   d 8 02 FC 82 92 BF FA 14 00
   6.680000 1  18F102F3x       Rx   d 8 0E F2 0E E7 11 0C 00 0B
   6.681000 1  18F106F3x       Rx   d 8 45 E0 FC FF FF FF FF FF
   6.683000 1  18F107F3x       Rx   d 8 38 A4 30 70 01 58 00 B7
   6.684000 1  18F108F3x       Rx   d 8 00 00 00 00 00 00 00 00
   7.441000 1  18F155F3x       Rx   d 8 38 37 37 37 37 3A 39 00
   7.442000 1  CFF21CAx        Rx   d 8 70 00 83 17 46 41 00 24
   7.444000 1  18F156F3x       Rx   d 8 00 00 00 00 00 00 00 00
   7.446000 1  18F12FF3x       Rx   d 8 00 00 00 00 00 00 00 00
   7.448000 1  18F131F3x       Rx   d 8 00 00 00 00 00 00 00 00
   7.450000 1  18F133F3x       Rx   d 8 00 00 00 00 00 00 00 00
   7.452000 1  18F135F3x       Rx   d 8 00 00 00 00 00 00 00 00
   7.454000 1  18F138F3x       Rx   d 8 00 00 00 00 00 00 00 00
   7.456000 1  18F139F3x       Rx   d 8 00 00 00 00 00 00 00 00
   7.458000 1  18F13BF3x       Rx   d 8 00 00 00 00 00 00 00 00
   7.459000 1  18F13CF3x       Rx   d 8 00 00 00 00 00 00 00 00
   7.461000 1  CFF21CAx        Rx   d 8 6C 00 89 17 46 41 00 24
   7.464000 1  18F100D0x       Rx   d 8 0C FF FF FF FF FF FF FF
   7.470000 1  18F100F3x       Rx   d 8 02 FC 82 92 BF FA 14 00
   7.472000 1  18F102F3x       Rx   d 8 0E F2 0E E7 11 0C 00 0B
   7.474000 1  18F100D0x       Rx   d 8 0C FF FF FF FF FF FF FF
   7.476000 1  CFF21CAx        Rx   d 8 6D 00 77 17 46 41 00 24
   7.478000 1  CFF21CAx        Rx   d 8 6D 00 73 17 46 41 00 24
   7.480000 1  CFF21CAx        Rx   d 8 6D 00 75 17 46 41 00 24
   7.482000 1  18F100D0x       Rx   d 8 0C FF FF FF FF FF FF FF
   7.484000 1  CFF21CAx        Rx   d 8 6D 00 79 17 46 41 00 24
   7.485000 1  CFF21CAx        Rx   d 8 6D 00 7E 17 46 41 00 24
   7.487000 1  18F100D0x       Rx   d 8 0C FF FF FF FF FF FF FF
   7.489000 1  CFF21CAx        Rx   d 8 6D 00 83 17 46 41 00 24
   7.491000 1  CFF21CAx        Rx   d 8 6D 00 86 17 46 41 00 24
   7.493000 1  18F100D0x       Rx   d 8 0C FF FF FF FF FF FF FF
   7.494000 1  18F100F3x       Rx   d 8 02 FC 82 0F BF FA 14 00
   7.496000 1  18F102F3x       Rx   d 8 0E F2 0E E7 11 0C 00 0B
   7.498000 1  18F106F3x       Rx   d 8 45 E0 FC FF FF FF FF FF
   7.500000 1  18FF2112x       Rx   d 8 01 00 00 00 00 00 00 00
   7.502000 1  18F107F3x       Rx   d 8 38 A4 30 70 01 58 00 B7
   7.504000 1  CFF21CAx        Rx   d 8 6D 00 84 17 46 41 00 24
   7.505000 1  18F108F3x       Rx   d 8 00 00 00 00 00 00 00 00
   7.507000 1  18F155F3x       Rx   d 8 38 37 37 37 37 3A 39 00
   7.509000 1  18F156F3x       Rx   d 8 00 00 00 00 00 00 00 00
   7.511000 1  18F157F3x       Rx   d 8 00 00 00 00 00 00 00 00
   7.512000 1  18F158F3x       Rx   d 8 00 00 00 00 00 00 00 00
   7.514000 1  18F159F3x       Rx   d 8 00 00 00 00 00 00 00 00
   7.516000 1  18F15AF3x       Rx   d 8 00 00 00 00 00 00 00 00
   7.518000 1  18F15BF3x       Rx   d 7 00 00 00 00 00 00 00
   7.520000 1  18F15CF3x       Rx   d 8 00 00 00 00 00 00 00 00
   7.522000 1  18F15DF3x       Rx   d 8 00 00 00 00 00 00 00 00
   7.524000 1  CFF21CAx        Rx   d 8 6B 00 8C 17 46 41 00 24
   7.525000 1  CFF21CAx        Rx   d 8 69 00 8C 17 46 41 00 24
   7.527000 1  18F100D0x       Rx   d 8 0C FF FF FF FF FF FF FF
   7.529000 1  CFF21CAx        Rx   d 8 69 00 8C 17 46 41 00 24
   7.531000 1  CFF21CAx        Rx   d 8 67 00 8B 17 46 41 00 24
   7.533000 1  18F100D0x       Rx   d 8 0C FF FF FF FF FF FF FF
   7.534000 1  CFF21CAx        Rx   d 8 67 00 91 17 46 41 00 24
   7.536000 1  CFF21CAx        Rx   d 8 67 00 8F 17 46 41 00 24
   7.538000 1  CFF21CAx        Rx   d 8 67 00 8C 17 46 41 00 24
   7.540000 1  18F100D0x       Rx   d 8 0C FF FF FF FF FF FF FF
   7.542000 1  18FF2112x       Rx   d 8 01 00 00 00 00 00 00 00
   7.544000 1  18F100F3x       Rx   d 8 02 FC 82 0F BF FA 14 00
   7.546000 1  18F102F3x       Rx   d 8 0E F2 0E E7 11 0C 00 0B
   7.548000 1  18F106F3x       Rx   d 8 45 E0 FC FF FF FF FF FF
   7.550000 1  18F107F3x       Rx   d 8 38 A4 30 70 01 58 00 B7
   7.552000 1  18F108F3x       Rx   d 8 00 00 00 00 00 00 00 00
   7.554000 1  18F155F3x       Rx   d 8 38 37 37 37 37 3A 39 00
   7.556000 1  18F156F3x       Rx   d 8 00 00 00 00 00 00 00 00
   7.558000 1  18F157F3x       Rx   d 8 00 00 00 00 00 00 00 00
   7.560000 1  CFF21CAx        Rx   d 8 67 00 8E 17 46 41 00 24
   7.561000 1  18F100D0x       Rx   d 8 0C FF FF FF FF FF FF FF
   7.563000 1  CFF21CAx        Rx   d 8 66 00 7A 17 46 41 00 24
   7.566000 1  CFF21CAx        Rx   d 8 67 00 74 17 46 41 00 24
   7.567000 1  18FF2112x       Rx   d 8 01 00 00 00 00 00 00 00
   7.569000 1  18F100D0x       Rx   d 8 0C FF FF FF FF FF FF FF
   7.571000 1  18F100F3x       Rx   d 8 02 FC 81 C9 BE FA 14 00
   7.573000 1  18F102F3x       Rx   d 8 0E F2 0E E7 11 0C 00 0B
   7.575000 1  18F106F3x       Rx   d 8 45 E0 FC FF FF FF FF FF
   7.576000 1  18F107F3x       Rx   d 8 38 A4 30 70 01 58 00 B7
   7.578000 1  18F108F3x       Rx   d 8 00 00 00 00 00 00 00 00
   7.580000 1  CFF21CAx        Rx   d 8 67 00 74 17 46 41 00 24
   7.582000 1  18F155F3x       Rx   d 8 38 37 37 37 37 3A 39 00
   7.584000 1  18F156F3x       Rx   d 8 00 00 00 00 00 00 00 00
   7.585000 1  18F157F3x       Rx   d 8 00 00 00 00 00 00 00 00
   7.587000 1  18F158F3x       Rx   d 8 00 00 00 00 00 00 00 00
   7.589000 1  18F159F3x       Rx   d 8 00 00 00 00 00 00 00 00
   7.591000 1  18F15AF3x       Rx   d 8 00 00 00 00 00 00 00 00
   7.593000 1  18F15BF3x       Rx   d 7 00 00 00 00 00 00 00
   7.595000 1  18F15CF3x       Rx   d 8 00 00 00 00 00 00 00 00
   7.597000 1  18F15DF3x       Rx   d 8 00 00 00 00 00 00 00 00
   7.599000 1  18F15EF3x       Rx   d 8 00 00 00 00 00 00 00 00
   7.600000 1  CFF21CAx        Rx   d 8 6E 00 78 17 46 41 00 24
   7.602000 1  18F100D0x       Rx   d 8 0C FF FF FF FF FF FF FF
   7.603000 1  18F100F3x       Rx   d 8 02 FC 81 F6 BE FA 14 00
   7.605000 1  18F102F3x       Rx   d 8 0E F2 0E E7 11 0C 00 0B
   7.608000 1  18F106F3x       Rx   d 8 45 E0 FC FF FF FF FF FF
   7.609000 1  18F107F3x       Rx   d 8 38 A4 30 70 01 58 00 B7
   7.611000 1  18F108F3x       Rx   d 8 00 00 00 00 00 00 00 00
   7.613000 1  18F155F3x       Rx   d 8 38 37 37 37 37 3A 39 00
   7.614000 1  CFF21CAx        Rx   d 8 6E 00 78 17 46 41 00 24
   7.616000 1  18F156F3x       Rx   d 8 00 00 00 00 00 00 00 00
   7.618000 1  18F157F3x       Rx   d 8 00 00 00 00 00 00 00 00
   7.620000 1  18F158F3x       Rx   d 8 00 00 00 00 00 00 00 00
   7.621000 1  CFF21CAx        Rx   d 8 6F 00 73 17 46 41 00 24
   7.624000 1  CFF21CAx        Rx   d 8 70 00 72 17 46 41 00 24
   7.625000 1  18F100D0x       Rx   d 8 0C FF FF FF FF FF FF FF
   7.626000 1  CFF21CAx        Rx   d 8 70 00 73 17 46 41 00 24
   7.627000 1  CFF21CAx        Rx   d 8 70 00 6F 17 46 41 00 24
   7.628000 1  CFF21CAx        Rx   d 8 70 00 72 17 46 41 00 24
   7.629000 1  18F100D0x       Rx   d 8 0C FF FF FF FF FF FF FF
   7.751000 1  18FF2112x       Rx   d 8 01 00 00 00 00 00 00 00
   7.752000 1  CFF21CAx        Rx   d 8 70 00 73 17 46 41 00 24
   7.754000 1  CFF21CAx        Rx   d 8 70 00 71 17 46 41 00 24
   7.756000 1  18F100D0x       Rx   d 8 0C FF FF FF FF FF FF FF
   7.758000 1  18F100F3x       Rx   d 8 02 FC 81 FB BE FA 14 00
   7.760000 1  18F102F3x       Rx   d 8 0E F2 0E E7 11 0C 00 0B
   7.762000 1  18F106F3x       Rx   d 8 45 E0 FC FF FF FF FF FF
   7.764000 1  18F107F3x       Rx   d 8 38 A4 30 70 01 58 00 B7
   7.766000 1  18F108F3x       Rx   d 8 00 00 00 00 00 00 00 00
   7.768000 1  CFF21CAx        Rx   d 8 70 00 6D 17 46 41 00 24
   7.769000 1  18F100D0x       Rx   d 8 0C FF FF FF FF FF FF FF
   7.771000 1  CFF21CAx        Rx   d 8 70 00 74 17 46 41 00 24
   7.774000 1  CFF21CAx        Rx   d 8 70 00 78 17 46 41 00 24
   7.775000 1  18F100D0x       Rx   d 8 0C FF FF FF FF FF FF FF
   7.777000 1  CFF21CAx        Rx   d 8 6E 00 72 17 46 41 00 24
   7.778000 1  18FF2112x       Rx   d 8 01 00 00 00 00 00 00 00
   7.779000 1  CFF21CAx        Rx   d 8 6E 00 74 17 46 41 00 24
   7.781000 1  18F100D0x       Rx   d 8 0C FF FF FF FF FF FF FF
   7.782000 1  CFF21CAx        Rx   d 8 6E 00 6F 17 46 41 00 24
   7.904000 1  CFF21CAx        Rx   d 8 6E 00 76 17 46 41 00 24
   7.906000 1  18F100D0x       Rx   d 8 0C FF FF FF FF FF FF FF
   7.907000 1  18F100F3x       Rx   d 8 02 FC 81 FC BE FA 14 00
   7.909000 1  18F102F3x       Rx   d 8 0E F2 0E E7 11 0C 00 0B
   7.911000 1  18F106F3x       Rx   d 8 45 E0 FC FF FF FF FF FF
   7.913000 1  18F107F3x       Rx   d 8 38 A4 30 70 01 58 00 B7
   7.915000 1  18F108F3x       Rx   d 8 00 00 00 00 00 00 00 00
   7.917000 1  18F100F3x       Rx   d 8 02 FE 81 DD BE FA 14 00
   7.919000 1  18F106F3x       Rx   d 8 45 E0 FC FF FF FF FF FF
   7.920000 1  18F107F3x       Rx   d 8 38 A4 30 70 01 59 00 B8
   7.922000 1  18F108F3x       Rx   d 8 00 00 00 00 00 00 00 00
   7.924000 1  CFF21CAx        Rx   d 8 69 00 5F 17 46 41 00 24
   7.926000 1  18F158F3x       Rx   d 8 00 00 00 00 00 00 00 00
   7.927000 1  18F15AF3x       Rx   d 8 00 00 00 00 00 00 00 00
   7.928000 1  18F15DF3x       Rx   d 8 00 00 00 00 00 00 00 00
   7.929000 1  CFF21CAx        Rx   d 8 69 00 64 17 46 41 00 24
   7.930000 1  18F100D0x       Rx   d 8 0C FF FF FF FF FF FF FF
   8.051000 1  CFF21CAx        Rx   d 8 6A 00 6C 17 46 41 00 24
   8.053000 1  CFF21CAx        Rx   d 8 6A 00 72 17 46 41 00 24
   8.055000 1  18FF2112x       Rx   d 8 01 00 00 00 00 00 00 00
   8.057000 1  18F100D0x       Rx   d 8 0C FF FF FF FF FF FF FF
   8.059000 1  CFF21CAx        Rx   d 8 6A 00 6E 17 46 41 00 24
   8.061000 1  CFF21CAx        Rx   d 8 6A 00 68 17 46 41 00 24
   8.063000 1  18F100D0x       Rx   d 8 0C FF FF FF FF FF FF FF
   8.065000 1  CFF21CAx        Rx   d 8 6A 00 62 17 46 41 00 24
   8.066000 1  CFF21CAx        Rx   d 8 6A 00 5D 17 46 41 00 24
   8.068000 1  18F100D0x       Rx   d 8 0C FF FF FF FF FF FF FF
   8.070000 1  18F100F3x       Rx   d 8 02 FE 81 E5 BE FA 14 00
   8.072000 1  18F102F3x       Rx   d 8 0E FA 0E EF 11 0A 00 0B
   8.074000 1  18F106F3x       Rx   d 8 45 E0 FC FF FF FF FF FF
   8.077000 1  18F107F3x       Rx   d 8 38 A4 30 70 01 59 00 B8
   8.078000 1  CFF21CAx        Rx   d 8 6B 00 64 17 46 41 00 24
   8.080000 1  18F108F3x       Rx   d 8 00 00 00 00 00 00 00 00
   8.081000 1  18F155F3x       Rx   d 8 38 37 37 37 37 3A 39 00
   8.082000 1  18F156F3x       Rx   d 8 00 00 00 00 00 00 00 00
   8.084000 1  18F157F3x       Rx   d 8 00 00 00 00 00 00 00 00
   8.085000 1  18F158F3x       Rx   d 8 00 00 00 00 00 00 00 00
   8.086000 1  18F159F3x       Rx   d 8 00 00 00 00 00 00 00 00
   8.352000 1  18F15AF3x       Rx   d 8 00 00 00 00 00 00 00 00
   8.354000 1  18F15BF3x       Rx   d 7 00 00 00 00 00 00 00
   8.356000 1  18F15CF3x       Rx   d 8 00 00 00 00 00 00 00 00
   8.357000 1  18F15DF3x       Rx   d 8 00 00 00 00 00 00 00 00
   8.359000 1  18F15EF3x       Rx   d 8 00 00 00 00 00 00 00 00
   8.361000 1  CFF21CAx        Rx   d 8 6B 00 6A 17 46 41 00 24
   8.363000 1  18F100D0x       Rx   d 8 0C FF FF FF FF FF FF FF
   8.365000 1  CFF21CAx        Rx   d 8 6B 00 76 17 46 41 00 24
   8.367000 1  CFF21CAx        Rx   d 8 6B 00 77 17 46 41 00 24
   8.369000 1  18FF2112x       Rx   d 8 01 00 00 00 00 00 00 00
   8.371000 1  CFF21CAx        Rx   d 8 6B 00 72 17 46 41 00 24
   8.372000 1  18F100D0x       Rx   d 8 0C FF FF FF FF FF FF FF
   8.374000 1  CFF21CAx        Rx   d 8 6B 00 6D 17 46 41 00 24
   8.376000 1  CFF21CAx        Rx   d 8 6B 00 6A 17 46 41 00 24
   8.379000 1  18F100D0x       Rx   d 8 0C FF FF FF FF FF FF FF
   8.380000 1  CFF21CAx        Rx   d 8 6B 00 6A 17 46 41 00 24
   8.381000 1  18F100F3x       Rx   d 8 02 FE 81 E5 BE FA 14 00
   8.382000 1  CFF21CAx        Rx   d 8 6B 00 70 17 46 41 00 24
   8.383000 1  18F100D0x       Rx   d 8 0C FF FF FF FF FF FF FF
   8.385000 1  18F102F3x       Rx   d 8 0E FA 0E EF 11 0A 00 0B
   8.386000 1  18F106F3x       Rx   d 8 45 E0 FC FF FF FF FF FF
   8.506000 1  18F107F3x       Rx   d 8 38 A4 30 70 01 59 00 B8
   8.508000 1  18F108F3x       Rx   d 8 00 00 00 00 00 00 00 00
   8.509000 1  18F155F3x       Rx   d 8 38 37 37 37 37 3A 39 00
   8.511000 1  18F156F3x       Rx   d 8 00 00 00 00 00 00 00 00
   8.513000 1  18F157F3x       Rx   d 8 00 00 00 00 00 00 00 00
   8.515000 1  18F158F3x       Rx   d 8 00 00 00 00 00 00 00 00
   8.517000 1  18F159F3x       Rx   d 8 00 00 00 00 00 00 00 00
   8.519000 1  18F15AF3x       Rx   d 8 00 00 00 00 00 00 00 00
   8.521000 1  CFF21CAx        Rx   d 8 6B 00 72 17 46 41 00 24
   8.523000 1  18F15BF3x       Rx   d 7 00 00 00 00 00 00 00
   8.524000 1  18F15CF3x       Rx   d 8 00 00 00 00 00 00 00 00
   8.526000 1  18F15DF3x       Rx   d 8 00 00 00 00 00 00 00 00
   8.528000 1  18F15EF3x       Rx   d 8 00 00 00 00 00 00 00 00
   8.530000 1  CFF21CAx        Rx   d 8 6A 00 79 17 46 41 00 24
   8.531000 1  18F100D0x       Rx   d 8 0C FF FF FF FF FF FF FF
   8.533000 1  CFF21CAx        Rx   d 8 6A 00 71 17 46 41 00 24
   8.534000 1  18FF2112x       Rx   d 8 01 00 00 00 00 00 00 00
   8.536000 1  CFF21CAx        Rx   d 8 6A 00 70 17 46 41 00 24
   8.537000 1  18F100D0x       Rx   d 8 0C FF FF FF FF FF FF FF
   8.655000 1  CFF21CAx        Rx   d 8 6B 00 69 17 46 41 00 24
   8.657000 1  CFF21CAx        Rx   d 8 6B 00 6D 17 46 41 00 24
   8.659000 1  18F100D0x       Rx   d 8 0C FF FF FF FF FF FF FF
   8.661000 1  CFF21CAx        Rx   d 8 6B 00 77 17 46 41 00 24
   8.662000 1  CFF21CAx        Rx   d 8 6B 00 7A 17 46 41 00 24
   8.664000 1  18F100F3x       Rx   d 8 02 FE 81 E5 BE FA 14 00
   8.665000 1  18F100D0x       Rx   d 8 0C FF FF FF FF FF FF FF
   8.667000 1  18F102F3x       Rx   d 8 0E FA 0E EF 11 0A 00 0B
   8.669000 1  18F106F3x       Rx   d 8 45 E0 FC FF FF FF FF FF
   8.671000 1  18F107F3x       Rx   d 8 38 A4 30 70 01 59 00 B8
   8.673000 1  18F108F3x       Rx   d 8 00 00 00 00 00 00 00 00
   8.675000 1  18F155F3x       Rx   d 8 38 37 37 37 37 3A 39 00
   8.676000 1  18F156F3x       Rx   d 8 00 00 00 00 00 00 00 00
   8.678000 1  18F157F3x       Rx   d 8 00 00 00 00 00 00 00 00
   8.681000 1  CFF21CAx        Rx   d 8 6B 00 83 17 46 41 00 24
   8.682000 1  18F158F3x       Rx   d 8 00 00 00 00 00 00 00 00
   8.684000 1  18F159F3x       Rx   d 8 00 00 00 00 00 00 00 00
   8.685000 1  18F15AF3x       Rx   d 8 00 00 00 00 00 00 00 00
   8.686000 1  18F15BF3x       Rx   d 7 00 00 00 00 00 00 00
   8.688000 1  18F15CF3x       Rx   d 8 00 00 00 00 00 00 00 00
   8.689000 1  18F15DF3x       Rx   d 8 00 00 00 00 00 00 00 00
   8.810000 1  18F15EF3x       Rx   d 8 00 00 00 00 00 00 00 00
   8.812000 1  CFF21CAx        Rx   d 8 6B 00 83 17 46 41 00 24
   8.813000 1  18F100D0x       Rx   d 8 0C FF FF FF FF FF FF FF
   8.815000 1  CFF21CAx        Rx   d 8 69 00 78 17 46 41 00 24
   8.817000 1  18FF2112x       Rx   d 8 01 00 00 00 00 00 00 00
   8.819000 1  CFF21CAx        Rx   d 8 69 00 73 17 46 41 00 24
   8.821000 1  18F100D0x       Rx   d 8 0C FF FF FF FF FF FF FF
   8.823000 1  CFF21CAx        Rx   d 8 6B 00 6F 17 46 41 00 24
   8.825000 1  CFF21CAx        Rx   d 8 6B 00 75 17 46 41 00 24
   8.826000 1  18F100D0x       Rx   d 8 0C FF FF FF FF FF FF FF
   8.828000 1  CFF21CAx        Rx   d 8 6B 00 7B 17 46 41 00 24
   8.830000 1  CFF21CAx        Rx   d 8 6B 00 81 17 46 41 00 24
   8.833000 1  18F100F3x       Rx   d 8 02 FE 81 E5 BE FA 14 00
   8.834000 1  18F102F3x       Rx   d 8 0E FA 0E F0 11 08 00 0A
   8.836000 1  18F100D0x       Rx   d 8 0C FF FF FF FF FF FF FF
   8.837000 1  18F106F3x       Rx   d 8 45 E0 FC FF FF FF FF FF
   8.838000 1  18F107F3x       Rx   d 8 38 A4 30 70 01 59 00 B8
   8.840000 1  CFF21CAx        Rx   d 8 6B 00 84 17 46 41 00 24
   8.841000 1  18F108F3x       Rx   d 8 00 00 00 00 00 00 00 00
   8.977000 1  18F155F3x       Rx   d 8 38 37 37 37 37 3A 39 00
   8.979000 1  18F156F3x       Rx   d 8 00 00 00 00 00 00 00 00
   8.980000 1  18F157F3x       Rx   d 8 00 00 00 00 00 00 00 00
   8.983000 1  18F158F3x       Rx   d 8 00 00 00 00 00 00 00 00
   8.984000 1  18F159F3x       Rx   d 8 00 00 00 00 00 00 00 00
   8.986000 1  18F15AF3x       Rx   d 8 00 00 00 00 00 00 00 00
   8.987000 1  18F15BF3x       Rx   d 7 00 00 00 00 00 00 00
   8.988000 1  18F15CF3x       Rx   d 8 00 00 00 00 00 00 00 00
   8.989000 1  18F15DF3x       Rx   d 8 00 00 00 00 00 00 00 00
   8.990000 1  18F15EF3x       Rx   d 8 00 00 00 00 00 00 00 00
   9.110000 1  CFF21CAx        Rx   d 8 6B 00 6B 17 46 41 00 24
   9.111000 1  CFF21CAx        Rx   d 8 6C 00 6C 17 46 41 00 24
   9.113000 1  18F100D0x       Rx   d 8 0C FF FF FF FF FF FF FF
   9.115000 1  CFF21CAx        Rx   d 8 6C 00 6E 17 46 41 00 24
   9.116000 1  18F100F3x       Rx   d 8 02 FE 81 E5 BE FA 14 00
   9.118000 1  18F102F3x       Rx   d 8 0E FA 0E F0 11 08 00 0A
   9.120000 1  CFF21CAx        Rx   d 8 6C 00 6A 17 46 41 00 24
   9.122000 1  18F100D0x       Rx   d 8 0C FF FF FF FF FF FF FF
   9.124000 1  18F106F3x       Rx   d 8 45 E0 FC FF FF FF FF FF
   9.126000 1  18F107F3x       Rx   d 8 38 A4 30 70 01 59 00 B8
   9.128000 1  18F108F3x       Rx   d 8 00 00 00 00 00 00 00 00
   9.130000 1  18F155F3x       Rx   d 8 38 37 37 37 37 3A 39 00
   9.131000 1  18F156F3x       Rx   d 8 00 00 00 00 00 00 00 00
   9.134000 1  18F157F3x       Rx   d 8 00 00 00 00 00 00 00 00
   9.135000 1  18F158F3x       Rx   d 8 00 00 00 00 00 00 00 00
   9.136000 1  18F159F3x       Rx   d 8 00 00 00 00 00 00 00 00
   9.138000 1  18F15AF3x       Rx   d 8 00 00 00 00 00 00 00 00
   9.139000 1  18F159F3x       Rx   d 8 00 00 00 00 00 00 00 00
   9.140000 1  18F15CF3x       Rx   d 8 00 00 00 00 00 00 00 00
   9.141000 1  18F15EF3x       Rx   d 8 00 00 00 00 00 00 00 00
   9.502000 1  CFF21CAx        Rx   d 8 73 00 50 17 46 41 00 24
   9.503000 1  18F100D0x       Rx   d 8 0C FF FF FF FF FF FF FF
   9.505000 1  18FF2112x       Rx   d 8 01 00 00 00 00 00 00 00
   9.506000 1  CFF21CAx        Rx   d 8 74 00 58 17 46 41 00 24
   9.508000 1  18FECACAx       Rx   d 8 00 00 00 00 00 00 FF FF
   9.510000 1  CFF21CAx        Rx   d 8 74 00 5D 17 46 41 00 24
   9.512000 1  18F100D0x       Rx   d 8 0C FF FF FF FF FF FF FF
   9.514000 1  CFF21CAx        Rx   d 8 74 00 5D 17 46 41 00 24
   9.516000 1  CFF21CAx        Rx   d 8 74 00 64 17 46 41 00 24
   9.518000 1  18F100D0x       Rx   d 8 0C FF FF FF FF FF FF FF
   9.519000 1  CFF21CAx        Rx   d 8 73 00 62 17 46 41 00 24
   9.522000 1  CFF21CAx        Rx   d 8 73 00 5F 17 46 41 00 24
   9.523000 1  18F100F3x       Rx   d 8 02 FE 81 EA BE FA 14 00
   9.525000 1  18F102F3x       Rx   d 8 0E FA 0E F0 11 08 00 0A
   9.526000 1  18F106F3x       Rx   d 8 45 E0 FC FF FF FF FF FF
   9.528000 1  18F100D0x       Rx   d 8 0C FF FF FF FF FF FF FF
   9.529000 1  18F107F3x       Rx   d 8 38 A4 30 70 01 59 00 B8
   9.530000 1  18F108F3x       Rx   d 8 00 00 00 00 00 00 00 00
   9.531000 1  CFF21CAx        Rx   d 8 6F 00 78 17 46 41 00 24
   9.532000 1  18F15DF3x       Rx   d 8 00 00 00 00 00 00 00 00
   9.901000 1  18F15EF3x       Rx   d 8 00 00 00 00 00 00 00 00
   9.903000 1  CFF21CAx        Rx   d 8 6C 00 7B 17 46 41 00 24
   9.905000 1  18FF2112x       Rx   d 8 01 00 00 00 00 00 00 00
   9.907000 1  18F100D0x       Rx   d 8 0C FF FF FF FF FF FF FF
   9.909000 1  CFF21CAx        Rx   d 8 6C 00 7D 17 46 41 00 24
   9.911000 1  CFF21CAx        Rx   d 8 6C 00 73 17 46 41 00 24
   9.912000 1  18F100D0x       Rx   d 8 0C FF FF FF FF FF FF FF
   9.914000 1  CFF21CAx        Rx   d 8 6A 00 6C 17 46 41 00 24
   9.916000 1  CFF21CAx        Rx   d 8 6A 00 64 17 46 41 00 24
   9.917000 1  18F100D0x       Rx   d 8 0C FF FF FF FF FF FF FF
   9.918000 1  CFF21CAx        Rx   d 8 6A 00 60 17 46 41 00 24
   9.920000 1  CFF21CAx        Rx   d 8 6B 00 60 17 46 41 00 24
   9.921000 1  18F100D0x       Rx   d 8 0C FF FF FF FF FF FF FF
   9.922000 1  18F100F3x       Rx   d 8 02 FE 82 4A BE FA 14 00
  10.285000 1  18F102F3x       Rx   d 8 0E FA 0E F0 10 0A 00 0A
  10.287000 1  18F106F3x       Rx   d 8 45 E0 FC FF FF FF FF FF
  10.288000 1  18F107F3x       Rx   d 8 38 A4 30 70 01 59 00 B8
  10.290000 1  18F108F3x       Rx   d 8 00 00 00 00 00 00 00 00
  10.292000 1  18F155F3x       Rx   d 8 38 37 37 38 37 3A 39 00
  10.294000 1  CFF21CAx        Rx   d 8 6E 00 45 17 46 41 00 24
  10.296000 1  18F100D0x       Rx   d 8 0C FF FF FF FF FF FF FF
  10.298000 1  CFF21CAx        Rx   d 8 6E 00 44 17 46 41 00 24
  10.299000 1  CFF21CAx        Rx   d 8 71 00 49 17 46 41 00 24
  10.301000 1  18F100D0x       Rx   d 8 0C FF FF FF FF FF FF FF
  10.303000 1  18F100F3x       Rx   d 8 02 FE 82 0F BE FA 14 00
  10.305000 1  18F102F3x       Rx   d 8 0E FA 0E F0 10 0A 00 0A
  10.309000 1  18F106F3x       Rx   d 8 45 E0 FC FF FF FF FF FF
  10.314000 1  18F107F3x       Rx   d 8 38 A4 30 70 01 59 00 B8
  10.317000 1  CFF21CAx        Rx   d 8 71 00 4C 17 46 41 00 24
  10.318000 1  18F108F3x       Rx   d 8 00 00 00 00 00 00 00 00
  10.320000 1  18F155F3x       Rx   d 8 38 37 37 38 37 3A 39 00
  10.322000 1  18F156F3x       Rx   d 8 00 00 00 00 00 00 00 00
  10.324000 1  18F157F3x       Rx   d 8 00 00 00 00 00 00 00 00
  10.326000 1  18F158F3x       Rx   d 8 00 00 00 00 00 00 00 00
  10.327000 1  18F159F3x       Rx   d 8 00 00 00 00 00 00 00 00
  10.329000 1  18F15AF3x       Rx   d 8 00 00 00 00 00 00 00 00
  10.331000 1  18F15BF3x       Rx   d 7 00 00 00 00 00 00 00
  10.332000 1  18F15CF3x       Rx   d 8 00 00 00 00 00 00 00 00
  10.333000 1  18F15DF3x       Rx   d 8 00 00 00 00 00 00 00 00
  10.334000 1  18F15EF3x       Rx   d 8 00 00 00 00 00 00 00 00
  10.335000 1  CFF21CAx        Rx   d 8 74 00 62 17 46 41 00 24
  10.337000 1  18F100D0x       Rx   d 8 0C FF FF FF FF FF FF FF
  10.366000 1  CFF21CAx        Rx   d 8 74 00 61 17 46 41 00 24
  10.369000 1  CFF21CAx        Rx   d 8 74 00 62 17 46 41 00 24
  10.371000 1  18F100D0x       Rx   d 8 0C FF FF FF FF FF FF FF
  10.373000 1  CFF21CAx        Rx   d 8 74 00 64 17 46 41 00 24
  10.374000 1  CFF21CAx        Rx   d 8 74 00 64 17 46 41 00 24
  10.376000 1  18F100D0x       Rx   d 8 0C FF FF FF FF FF FF FF
  10.378000 1  CFF21CAx        Rx   d 8 73 00 64 17 46 41 00 24
  10.380000 1  CFF21CAx        Rx   d 8 73 00 61 17 46 41 00 24
  10.382000 1  18F100D0x       Rx   d 8 0C FF FF FF FF FF FF FF
  10.384000 1  18F100F3x       Rx   d 8 02 FE 82 0F BE FA 14 00
  10.386000 1  18F102F3x       Rx   d 8 0E FA 0E F0 10 0A 00 0A
  10.387000 1  18F106F3x       Rx   d 8 45 E0 FC FF FF FF FF FF
  10.389000 1  18F107F3x       Rx   d 8 38 A4 30 70 01 59 00 B8
  10.391000 1  18F108F3x       Rx   d 8 00 00 00 00 00 00 00 00
  10.392000 1  18F155F3x       Rx   d 8 38 37 37 38 37 3A 39 00
  10.393000 1  18F156F3x       Rx   d 8 00 00 00 00 00 00 00 00
  10.394000 1  18F157F3x       Rx   d 8 00 00 00 00 00 00 00 00
  10.395000 1  18F100D0x       Rx   d 8 0C FF FF FF FF FF FF FF
  10.397000 1  CFF21CAx        Rx   d 8 70 00 75 17 46 41 00 24
  10.427000 1  CFF21CAx        Rx   d 8 70 00 73 17 46 41 00 24
  10.428000 1  18F100D0x       Rx   d 8 0C FF FF FF FF FF FF FF
  10.432000 1  18F100F3x       Rx   d 8 02 FE 82 5F BE FA 14 00
  10.434000 1  18F102F3x       Rx   d 8 0E FA 0E F0 10 0A 00 0A
  10.436000 1  18F106F3x       Rx   d 8 45 E0 FC FF FF FF FF FF
  10.438000 1  18F107F3x       Rx   d 8 38 A4 30 70 01 59 00 B8
  10.440000 1  18F108F3x       Rx   d 8 00 00 00 00 00 00 00 00
  10.442000 1  CFF21CAx        Rx   d 8 70 00 73 17 46 41 00 24
  10.444000 1  18F155F3x       Rx   d 8 38 37 37 38 37 3A 39 00
  10.445000 1  18F156F3x       Rx   d 8 00 00 00 00 00 00 00 00
  10.447000 1  18F157F3x       Rx   d 8 00 00 00 00 00 00 00 00
  10.449000 1  18F158F3x       Rx   d 8 00 00 00 00 00 00 00 00
  10.451000 1  18FF2112x       Rx   d 8 01 00 00 00 00 00 00 00
  10.452000 1  18F159F3x       Rx   d 8 00 00 00 00 00 00 00 00
  10.454000 1  18F15AF3x       Rx   d 8 00 00 00 00 00 00 00 00
  10.455000 1  18F15BF3x       Rx   d 7 00 00 00 00 00 00 00
  10.456000 1  18F15CF3x       Rx   d 8 00 00 00 00 00 00 00 00
  10.457000 1  CFF21CAx        Rx   d 8 6C 00 69 17 46 41 00 24
  10.459000 1  CFF21CAx        Rx   d 8 6C 00 65 17 46 41 00 24
  10.593000 1  18F100D0x       Rx   d 8 0C FF FF FF FF FF FF FF
  10.595000 1  CFF21CAx        Rx   d 8 6C 00 5C 17 46 41 00 24
  10.597000 1  CFF21CAx        Rx   d 8 6E 00 5A 17 46 41 00 24
  10.599000 1  18F100D0x       Rx   d 8 0C FF FF FF FF FF FF FF
  10.601000 1  CFF21CAx        Rx   d 8 6E 00 57 17 46 41 00 24
  10.603000 1  CFF21CAx        Rx   d 8 6E 00 54 17 46 41 00 24
  10.605000 1  18F100D0x       Rx   d 8 0C FF FF FF FF FF FF FF
  10.606000 1  18F100F3x       Rx   d 8 02 FE 82 0D BE FA 14 00
  10.608000 1  CFF21CAx        Rx   d 8 73 00 59 17 46 41 00 24
  10.610000 1  18F100D0x       Rx   d 8 0C FF FF FF FF FF FF FF
  10.612000 1  CFF21CAx        Rx   d 8 73 00 5A 17 46 41 00 24
  10.613000 1  CFF21CAx        Rx   d 8 74 00 60 17 46 41 00 24
  10.615000 1  18F100D0x       Rx   d 8 0C FF FF FF FF FF FF FF
  10.618000 1  18F100F3x       Rx   d 8 02 FE 82 0D BE FA 14 00
  10.620000 1  18F102F3x       Rx   d 8 0E FA 0E F0 10 0A 00 0A
  10.621000 1  18FF2112x       Rx   d 8 01 00 00 00 00 00 00 00
  10.622000 1  18F106F3x       Rx   d 8 45 E0 FC FF FF FF FF FF
  10.623000 1  18F107F3x       Rx   d 8 38 A4 30 70 01 59 00 B8
  10.625000 1  18F108F3x       Rx   d 8 00 00 00 00 00 00 00 00
  10.626000 1  18F155F3x       Rx   d 8 38 37 37 38 37 3A 39 00
  10.627000 1  CFF21CAx        Rx   d 8 74 00 66 17 46 41 00 24
  10.747000 1  18F156F3x       Rx   d 8 00 00 00 00 00 00 00 00
  10.749000 1  18F157F3x       Rx   d 8 00 00 00 00 00 00 00 00
  10.751000 1  18F158F3x       Rx   d 8 00 00 00 00 00 00 00 00
  10.753000 1  18F159F3x       Rx   d 8 00 00 00 00 00 00 00 00
  10.754000 1  18F15AF3x       Rx   d 8 00 00 00 00 00 00 00 00
  10.756000 1  18F15BF3x       Rx   d 7 00 00 00 00 00 00 00
  10.758000 1  18F15CF3x       Rx   d 8 00 00 00 00 00 00 00 00
  10.760000 1  CFF21CAx        Rx   d 8 6E 00 69 17 46 41 00 24
  10.762000 1  18F100D0x       Rx   d 8 0C FF FF FF FF FF FF FF
  10.764000 1  CFF21CAx        Rx   d 8 6E 00 6C 17 46 41 00 24
  10.765000 1  18FF2112x       Rx   d 8 01 00 00 00 00 00 00 00
  10.767000 1  CFF21CAx        Rx   d 8 6E 00 69 17 46 41 00 24
  10.770000 1  18F100D0x       Rx   d 8 0C FF FF FF FF FF FF FF
  10.771000 1  18F100F3x       Rx   d 8 02 FE 81 FE BE FA 14 00
  10.772000 1  18F102F3x       Rx   d 8 0E FA 0E F0 10 0C 00 0A
  10.773000 1  18F106F3x       Rx   d 8 45 E0 FC FF FF FF FF FF
  10.775000 1  18F107F3x       Rx   d 8 38 A4 30 70 01 59 00 B8
  10.776000 1  CFF21CAx        Rx   d 8 6E 00 64 17 46 41 00 24
  10.777000 1  18F108F3x       Rx   d 8 00 00 00 00 00 00 00 00
  10.901000 1  18F155F3x       Rx   d 8 38 37 37 37 37 3A 39 00
  10.902000 1  18F156F3x       Rx   d 8 00 00 00 00 00 00 00 00
  10.904000 1  18F157F3x       Rx   d 8 00 00 00 00 00 00 00 00
  10.906000 1  18F158F3x       Rx   d 8 00 00 00 00 00 00 00 00
  10.908000 1  18F159F3x       Rx   d 8 00 00 00 00 00 00 00 00
  10.910000 1  18F15AF3x       Rx   d 8 00 00 00 00 00 00 00 00
  10.912000 1  18F15BF3x       Rx   d 7 00 00 00 00 00 00 00
  10.914000 1  18F15CF3x       Rx   d 8 00 00 00 00 00 00 00 00
  10.916000 1  CFF21CAx        Rx   d 8 6E 00 74 17 46 41 00 24
  10.918000 1  18F100D0x       Rx   d 8 0C FF FF FF FF FF FF FF
  10.920000 1  CFF21CAx        Rx   d 8 6E 00 6C 17 46 41 00 24
  10.922000 1  18FF2112x       Rx   d 8 01 00 00 00 00 00 00 00
  10.923000 1  CFF21CAx        Rx   d 8 6E 00 6B 17 46 41 00 24
  10.924000 1  18F100D0x       Rx   d 8 0C FF FF FF FF FF FF FF
  10.925000 1  18F100F3x       Rx   d 8 02 FE 82 34 BE FA 14 00
  10.926000 1  18F102F3x       Rx   d 8 0E FA 0E F0 10 0C 00 0A
  10.928000 1  CFF21CAx        Rx   d 8 6E 00 6B 17 46 41 00 24
  11.049000 1  18F106F3x       Rx   d 8 45 E0 FC FF FF FF FF FF
  11.051000 1  18F107F3x       Rx   d 8 38 A4 30 70 01 59 00 B8
  11.052000 1  18F108F3x       Rx   d 8 00 00 00 00 00 00 00 00
  11.054000 1  18F155F3x       Rx   d 8 38 37 37 38 37 3A 39 00
  11.056000 1  18F156F3x       Rx   d 8 00 00 00 00 00 00 00 00
  11.058000 1  18F100D0x       Rx   d 8 0C FF FF FF FF FF FF FF
  11.059000 1  CFF21CAx        Rx   d 8 73 00 5A 17 46 41 00 24
  11.061000 1  CFF21CAx        Rx   d 8 73 00 63 17 46 41 00 24
  11.062000 1  18FF2112x       Rx   d 8 01 00 00 00 00 00 00 00
  11.063000 1  18F100D0x       Rx   d 8 0C FF FF FF FF FF FF FF
  11.064000 1  CFF21CAx        Rx   d 8 73 00 66 17 46 41 00 24
  11.065000 1  CFF21CAx        Rx   d 8 73 00 6F 17 46 41 00 24
  11.067000 1  18F100D0x       Rx   d 8 0C FF FF FF FF FF FF FF
  11.194000 1  CFF21CAx        Rx   d 8 74 00 6A 17 46 41 00 24
  11.199000 1  18F100F3x       Rx   d 8 02 FE 82 3B BE FA 14 00
  11.201000 1  18F102F3x       Rx   d 8 0E FA 0E F0 10 0C 00 0A
  11.203000 1  18F106F3x       Rx   d 8 45 E0 FC FF FF FF FF FF
  11.205000 1  18F107F3x       Rx   d 8 38 A4 30 70 01 59 00 B8
  11.206000 1  18F108F3x       Rx   d 8 00 00 00 00 00 00 00 00
  11.207000 1  18F155F3x       Rx   d 8 38 37 37 38 37 3A 39 00
  11.208000 1  18F156F3x       Rx   d 8 00 00 00 00 00 00 00 00
  11.210000 1  18F157F3x       Rx   d 8 00 00 00 00 00 00 00 00
  11.211000 1  18F158F3x       Rx   d 8 00 00 00 00 00 00 00 00
  11.515000 1  18F159F3x       Rx   d 8 00 00 00 00 00 00 00 00
  11.517000 1  18F15AF3x       Rx   d 8 00 00 00 00 00 00 00 00
  11.518000 1  CFF21CAx        Rx   d 8 74 00 67 17 46 41 00 24
  11.520000 1  18F15BF3x       Rx   d 7 00 00 00 00 00 00 00
  11.522000 1  18F15CF3x       Rx   d 8 00 00 00 00 00 00 00 00
  11.524000 1  18F15DF3x       Rx   d 8 00 00 00 00 00 00 00 00
  11.526000 1  18F15EF3x       Rx   d 8 00 00 00 00 00 00 00 00
  11.527000 1  18F100D0x       Rx   d 8 0C FF FF FF FF FF FF FF
  11.528000 1  CFF21CAx        Rx   d 8 74 00 66 17 46 41 00 24
  11.529000 1  CFF21CAx        Rx   d 8 74 00 6C 17 46 41 00 24
  11.530000 1  18F100D0x       Rx   d 8 0C FF FF FF FF FF FF FF
  11.653000 1  CFF21CAx        Rx   d 8 74 00 75 17 46 41 00 24
  11.654000 1  CFF21CAx        Rx   d 8 73 00 77 17 46 41 00 24
  11.656000 1  18FF2112x       Rx   d 8 01 00 00 00 00 00 00 00
  11.658000 1  CFF21CAx        Rx   d 8 73 00 7C 17 46 41 00 24
  11.660000 1  18F100D0x       Rx   d 8 0C FF FF FF FF FF FF FF
  11.662000 1  CFF21CAx        Rx   d 8 71 00 7C 17 46 41 00 24
  11.664000 1  CFF21CAx        Rx   d 8 71 00 72 17 46 41 00 24
  11.666000 1  18F100D0x       Rx   d 8 0C FF FF FF FF FF FF FF
  11.668000 1  18F100F3x       Rx   d 8 02 FE 82 3B BE FA 14 00
  11.669000 1  18F102F3x       Rx   d 8 0E FA 0E F0 10 08 00 0A
  11.671000 1  18F106F3x       Rx   d 8 45 E0 FC FF FF FF FF FF
  11.673000 1  18F107F3x       Rx   d 8 38 A4 30 70 01 59 00 B8
  11.676000 1  18F108F3x       Rx   d 8 00 00 00 00 00 00 00 00
  11.677000 1  18F155F3x       Rx   d 8 38 37 37 38 37 3A 39 00
  11.678000 1  18F156F3x       Rx   d 8 00 00 00 00 00 00 00 00
  11.679000 1  CFF21CAx        Rx   d 8 71 00 71 17 46 41 00 24
  11.680000 1  18F157F3x       Rx   d 8 00 00 00 00 00 00 00 00
  11.682000 1  18F158F3x       Rx   d 8 00 00 00 00 00 00 00 00
  11.683000 1  18F159F3x       Rx   d 8 00 00 00 00 00 00 00 00
  11.971000 1  18F15AF3x       Rx   d 8 00 00 00 00 00 00 00 00
  11.973000 1  18F15BF3x       Rx   d 7 00 00 00 00 00 00 00
  11.974000 1  18F15CF3x       Rx   d 8 00 00 00 00 00 00 00 00
  11.976000 1  18F15DF3x       Rx   d 8 00 00 00 00 00 00 00 00
  11.978000 1  18F15EF3x       Rx   d 8 00 00 00 00 00 00 00 00
  11.979000 1  CFF21CAx        Rx   d 8 71 00 69 17 46 41 00 24
  11.980000 1  18F100D0x       Rx   d 8 0C FF FF FF FF FF FF FF
  11.981000 1  CFF21CAx        Rx   d 8 71 00 6E 17 46 41 00 24
  11.983000 1  CFF21CAx        Rx   d 8 71 00 6D 17 46 41 00 24
  12.347000 1  18F100D0x       Rx   d 8 0C FF FF FF FF FF FF FF
  12.348000 1  CFF21CAx        Rx   d 8 6F 00 74 17 46 41 00 24
  12.350000 1  18FF2112x       Rx   d 8 01 00 00 00 00 00 00 00
  12.352000 1  CFF21CAx        Rx   d 8 6F 00 71 17 46 41 00 24
  12.354000 1  18F100D0x       Rx   d 8 0C FF FF FF FF FF FF FF
  12.356000 1  CFF21CAx        Rx   d 8 6F 00 70 17 46 41 00 24
  12.357000 1  CFF21CAx        Rx   d 8 6F 00 6B 17 46 41 00 24
  12.359000 1  18F100D0x       Rx   d 8 0C FF FF FF FF FF FF FF
  12.361000 1  18F100F3x       Rx   d 8 02 FE 82 1D BE FA 14 00
  12.363000 1  CFF21CAx        Rx   d 8 70 00 65 17 46 41 00 24
  12.365000 1  18FF2112x       Rx   d 8 01 00 00 00 00 00 00 00
  12.367000 1  CFF21CAx        Rx   d 8 70 00 65 17 46 41 00 24
  12.369000 1  18F100D0x       Rx   d 8 0C FF FF FF FF FF FF FF
  12.370000 1  CFF21CAx        Rx   d 8 70 00 5F 17 46 41 00 24
  12.371000 1  CFF21CAx        Rx   d 8 72 00 5F 17 46 41 00 24
  12.372000 1  18F100D0x       Rx   d 8 0C FF FF FF FF FF FF FF
  12.374000 1  18F100F3x       Rx   d 8 02 FE 82 1D BE FA 14 00
  12.375000 1  CFF21CAx        Rx   d 8 72 00 5A 17 46 41 00 24
  12.376000 1  18F102F3x       Rx   d 8 0E FA 0E F0 10 08 00 0A
  12.736000 1  18F106F3x       Rx   d 8 45 E0 FC FF FF FF FF FF
  12.737000 1  18F107F3x       Rx   d 8 38 A4 30 70 01 59 00 B8
  12.739000 1  18F108F3x       Rx   d 8 00 00 00 00 00 00 00 00
  12.741000 1  18F155F3x       Rx   d 8 38 37 37 38 37 3A 39 00
  12.743000 1  18F156F3x       Rx   d 8 00 00 00 00 00 00 00 00
  12.745000 1  18F157F3x       Rx   d 8 00 00 00 00 00 00 00 00
  12.747000 1  18F158F3x       Rx   d 8 00 00 00 00 00 00 00 00
  12.749000 1  18F159F3x       Rx   d 8 00 00 00 00 00 00 00 00
  12.751000 1  18F15AF3x       Rx   d 8 00 00 00 00 00 00 00 00
  12.753000 1  18F15BF3x       Rx   d 7 00 00 00 00 00 00 00
  12.755000 1  CFF21CAx        Rx   d 8 73 00 5C 17 46 41 00 24
  12.756000 1  18F155F3x       Rx   d 8 38 37 37 38 37 3A 39 00
  12.758000 1  18F157F3x       Rx   d 8 00 00 00 00 00 00 00 00
  12.760000 1  18F159F3x       Rx   d 8 00 00 00 00 00 00 00 00
  12.761000 1  18F15BF3x       Rx   d 7 00 00 00 00 00 00 00
  12.762000 1  18F15DF3x       Rx   d 8 00 00 00 00 00 00 00 00
  12.763000 1  18F100D0x       Rx   d 8 0C FF FF FF FF FF FF FF
  13.126000 1  CFF21CAx        Rx   d 8 72 00 70 17 46 41 00 24
  13.127000 1  CFF21CAx        Rx   d 8 72 00 74 17 46 41 00 24
  13.129000 1  CFF21CAx        Rx   d 8 70 00 6E 17 46 41 00 24
  13.131000 1  18F100D0x       Rx   d 8 0C FF FF FF FF FF FF FF
  13.133000 1  18FF2112x       Rx   d 8 01 00 00 00 00 00 00 00
  13.134000 1  CFF21CAx        Rx   d 8 70 00 6B 17 46 41 00 24
  13.136000 1  CFF21CAx        Rx   d 8 71 00 62 17 46 41 00 24
  13.138000 1  18F100D0x       Rx   d 8 0C FF FF FF FF FF FF FF
  13.140000 1  CFF21CAx        Rx   d 8 71 00 61 17 46 41 00 24
  13.141000 1  CFF21CAx        Rx   d 8 71 00 5F 17 46 41 00 24
  13.143000 1  18F100D0x       Rx   d 8 0C FF FF FF FF FF FF FF
  13.145000 1  18F100F3x       Rx   d 8 02 FE 82 3F BE FA 14 00
  13.147000 1  18F102F3x       Rx   d 8 0E FA 0E EF 10 0C 00 0B
  13.149000 1  CFF21CAx        Rx   d 8 6F 00 69 17 46 41 00 24
  13.153000 1  18F100D0x       Rx   d 8 0C FF FF FF FF FF FF FF
  13.158000 1  CFF21CAx        Rx   d 8 6F 00 6A 17 46 41 00 24
  13.160000 1  CFF21CAx        Rx   d 8 6F 00 6C 17 46 41 00 24
  13.162000 1  18F100D0x       Rx   d 8 0C FF FF FF FF FF FF FF
  13.164000 1  18F100F3x       Rx   d 8 02 FE 82 3F BE FA 14 00
  13.165000 1  18F102F3x       Rx   d 8 0E FA 0E EF 10 0C 00 0B
  13.167000 1  CFF21CAx        Rx   d 8 70 00 72 17 46 41 00 24
  13.169000 1  18F106F3x       Rx   d 8 45 E0 FC FF FF FF FF FF
  13.171000 1  18F107F3x       Rx   d 8 38 A4 30 70 01 59 00 B8
  13.173000 1  18F108F3x       Rx   d 8 00 00 00 00 00 00 00 00
  13.175000 1  18F155F3x       Rx   d 8 38 37 37 37 37 3A 39 00
  13.176000 1  18F156F3x       Rx   d 8 00 00 00 00 00 00 00 00
  13.178000 1  18F157F3x       Rx   d 8 00 00 00 00 00 00 00 00
  13.180000 1  18F158F3x       Rx   d 8 00 00 00 00 00 00 00 00
  13.182000 1  18F159F3x       Rx   d 8 00 00 00 00 00 00 00 00
  13.184000 1  18F15AF3x       Rx   d 8 00 00 00 00 00 00 00 00
  13.186000 1  18F157F3x       Rx   d 8 00 00 00 00 00 00 00 00
  13.187000 1  18F159F3x       Rx   d 8 00 00 00 00 00 00 00 00
  13.190000 1  18F15AF3x       Rx   d 8 00 00 00 00 00 00 00 00
  13.191000 1  18F15CF3x       Rx   d 8 00 00 00 00 00 00 00 00
  13.193000 1  18F15EF3x       Rx   d 8 00 00 00 00 00 00 00 00
  13.195000 1  18F100D0x       Rx   d 8 0C FF FF FF FF FF FF FF
  13.197000 1  CFF21CAx        Rx   d 8 70 00 68 17 46 41 00 24
  13.199000 1  CFF21CAx        Rx   d 8 70 00 63 17 46 41 00 24
  13.201000 1  18F100D0x       Rx   d 8 0C FF FF FF FF FF FF FF
  13.202000 1  CFF21CAx        Rx   d 8 70 00 5E 17 46 41 00 24
  13.204000 1  18FF2112x       Rx   d 8 01 00 00 00 00 00 00 00
  13.206000 1  CFF21CAx        Rx   d 8 70 00 63 17 46 41 00 24
  13.208000 1  18F100D0x       Rx   d 8 0C FF FF FF FF FF FF FF
  13.210000 1  18F11FF3x       Rx   d 8 00 00 00 00 00 00 00 00
  13.212000 1  18F124F3x       Rx   d 8 00 00 00 00 00 00 00 00
  13.214000 1  18F127F3x       Rx   d 8 00 00 00 00 00 00 00 00
  13.215000 1  18F129F3x       Rx   d 8 00 00 00 00 00 00 00 00
  13.218000 1  18F12AF3x       Rx   d 8 00 00 00 00 00 00 00 00
  13.220000 1  18F12CF3x       Rx   d 8 00 00 00 00 00 00 00 00
  13.221000 1  18F12DF3x       Rx   d 8 00 00 00 00 00 00 00 00
  13.223000 1  18F100D0x       Rx   d 8 0C FF FF FF FF FF FF FF
  13.225000 1  18F12FF3x       Rx   d 8 00 00 00 00 00 00 00 00
  13.227000 1  18F130F3x       Rx   d 8 00 00 00 00 00 00 00 00
  13.229000 1  CFF21CAx        Rx   d 8 6C 00 71 17 46 41 00 24
  13.231000 1  CFF21CAx        Rx   d 8 6C 00 6D 17 46 41 00 24
  13.233000 1  18F100D0x       Rx   d 8 0C FF FF FF FF FF FF FF
  13.235000 1  18F100F3x       Rx   d 8 02 FE 82 03 BE FA 14 00
  13.237000 1  18F102F3x       Rx   d 8 0E FA 0E EF 10 0C 00 0B
  13.238000 1  18F106F3x       Rx   d 8 45 E0 FC FF FF FF FF FF
  13.240000 1  18F107F3x       Rx   d 8 38 A4 30 70 01 59 00 B8
  13.242000 1  CFF21CAx        Rx   d 8 6C 00 6C 17 46 41 00 24
  13.244000 1  18F108F3x       Rx   d 8 00 00 00 00 00 00 00 00
  13.245000 1  18F155F3x       Rx   d 8 38 37 37 38 37 3A 39 00
  13.247000 1  18F156F3x       Rx   d 8 00 00 00 00 00 00 00 00
  13.249000 1  18F15BF3x       Rx   d 7 00 00 00 00 00 00 00
  13.251000 1  18F15DF3x       Rx   d 8 00 00 00 00 00 00 00 00
  13.252000 1  18F15EF3x       Rx   d 8 00 00 00 00 00 00 00 00
  13.253000 1  CFF21CAx        Rx   d 8 6E 00 66 17 46 41 00 24
  13.254000 1  18FF2112x       Rx   d 8 01 00 00 00 00 00 00 00
  13.286000 1  CFF21CAx        Rx   d 8 6F 00 64 17 46 41 00 24
  13.287000 1  18F100D0x       Rx   d 8 0C FF FF FF FF FF FF FF
  13.289000 1  CFF21CAx        Rx   d 8 6F 00 64 17 46 41 00 24
  13.291000 1  CFF21CAx        Rx   d 8 6F 00 5D 17 46 41 00 24
  13.293000 1  18F100D0x       Rx   d 8 0C FF FF FF FF FF FF FF
  13.294000 1  CFF21CAx        Rx   d 8 6F 00 5D 17 46 41 00 24
  13.296000 1  CFF21CAx        Rx   d 8 71 00 5D 17 46 41 00 24
  13.298000 1  18F100D0x       Rx   d 8 0C FF FF FF FF FF FF FF
  13.300000 1  CFF21CAx        Rx   d 8 71 00 66 17 46 41 00 24
  13.302000 1  18F100F3x       Rx   d 8 02 FE 82 03 BE FA 14 00
  13.304000 1  18F102F3x       Rx   d 8 0E FA 0E EF 10 0C 00 0B
  13.306000 1  18F106F3x       Rx   d 8 45 E0 FC FF FF FF FF FF
  13.307000 1  18F107F3x       Rx   d 8 38 A4 30 70 01 59 00 B8
  13.310000 1  18F108F3x       Rx   d 8 00 00 00 00 00 00 00 00
  13.312000 1  CFF21CAx        Rx   d 8 70 00 6E 17 46 41 00 24
  13.313000 1  18F100D0x       Rx   d 8 0C FF FF FF FF FF FF FF
  13.314000 1  CFF21CAx        Rx   d 8 70 00 70 17 46 41 00 24
  13.315000 1  CFF21CAx        Rx   d 8 6F 00 74 17 46 41 00 24
  13.316000 1  18F100D0x       Rx   d 8 0C FF FF FF FF FF FF FF
  13.318000 1  CFF21CAx        Rx   d 8 6F 00 73 17 46 41 00 24
  13.432000 1  CFF21CAx        Rx   d 8 6F 00 6E 17 46 41 00 24
  13.434000 1  18F100D0x       Rx   d 8 0C FF FF FF FF FF FF FF
  13.436000 1  CFF21CAx        Rx   d 8 6F 00 66 17 46 41 00 24
  13.439000 1  18F155F3x       Rx   d 8 38 37 37 37 37 3A 39 00
  13.440000 1  18F156F3x       Rx   d 8 00 00 00 00 00 00 00 00
  13.442000 1  18F158F3x       Rx   d 8 00 00 00 00 00 00 00 00
  13.444000 1  CFF21CAx        Rx   d 8 75 00 6D 17 46 41 00 24
  13.446000 1  18F15BF3x       Rx   d 7 00 00 00 00 00 00 00
  13.448000 1  18F15DF3x       Rx   d 8 00 00 00 00 00 00 00 00
  13.450000 1  CFF21CAx        Rx   d 8 75 00 6E 17 46 41 00 24
  13.451000 1  CFF21CAx        Rx   d 8 75 00 67 17 46 41 00 24
  13.453000 1  18F100D0x       Rx   d 8 0C FF FF FF FF FF FF FF
  13.455000 1  CFF21CAx        Rx   d 8 75 00 67 17 46 41 00 24
  13.456000 1  CFF21CAx        Rx   d 8 75 00 62 17 46 41 00 24
  13.458000 1  18F100D0x       Rx   d 8 0C FF FF FF FF FF FF FF
  13.461000 1  CFF21CAx        Rx   d 8 75 00 62 17 46 41 00 24
  13.463000 1  CFF21CAx        Rx   d 8 75 00 66 17 46 41 00 24
  13.464000 1  18F100D0x       Rx   d 8 0C FF FF FF FF FF FF FF
  13.465000 1  CFF21CAx        Rx   d 8 75 00 6C 17 46 41 00 24
  13.467000 1  18F100F3x       Rx   d 8 02 FD 82 31 BE FA 14 00
  13.468000 1  18F102F3x       Rx   d 8 0E F9 0E EE 10 0C 00 0B
  13.469000 1  18F106F3x       Rx   d 8 45 E0 FC FF FF FF FF FF
  13.591000 1  CFF21CAx        Rx   d 8 73 00 5B 17 46 41 00 24
  13.592000 1  18F100F3x       Rx   d 8 02 FD 82 21 BE FA 14 00
  13.594000 1  18FF2112x       Rx   d 8 01 00 00 00 00 00 00 00
  13.596000 1  18F102F3x       Rx   d 8 0E F9 0E EE 10 0C 00 0B
  13.598000 1  18F106F3x       Rx   d 8 45 E0 FC FF FF FF FF FF
  13.600000 1  18F107F3x       Rx   d 8 38 A4 30 70 01 58 00 B8
  13.602000 1  18F108F3x       Rx   d 8 00 00 00 00 00 00 00 00
  13.603000 1  18F157F3x       Rx   d 8 00 00 00 00 00 00 00 00
  13.605000 1  18F159F3x       Rx   d 8 00 00 00 00 00 00 00 00
  13.607000 1  18F15BF3x       Rx   d 7 00 00 00 00 00 00 00
  13.609000 1  18F100D0x       Rx   d 8 0C FF FF FF FF FF FF FF
  13.611000 1  18F15EF3x       Rx   d 8 00 00 00 00 00 00 00 00
  13.613000 1  CFF21CAx        Rx   d 8 73 00 56 17 46 41 00 24
  13.614000 1  CFF21CAx        Rx   d 8 73 00 57 17 46 41 00 24
  13.615000 1  18F100D0x       Rx   d 8 0C FF FF FF FF FF FF FF
  13.616000 1  CFF21CAx        Rx   d 8 73 00 60 17 46 41 00 24
  13.618000 1  CFF21CAx        Rx   d 8 74 00 63 17 46 41 00 24
  13.619000 1  18F100D0x       Rx   d 8 0C FF FF FF FF FF FF FF
  13.741000 1  18FECACAx       Rx   d 8 00 00 00 00 00 00 FF FF
  13.742000 1  18FF2112x       Rx   d 8 01 00 00 00 00 00 00 00
  13.744000 1  CFF21CAx        Rx   d 8 6C 00 66 17 46 41 00 24
  13.746000 1  18F100F3x       Rx   d 8 02 FD 82 45 BE FA 14 00
  13.748000 1  18F102F3x       Rx   d 8 0E F8 0E EE 10 0C 00 0A
  13.750000 1  18F106F3x       Rx   d 8 45 E0 FC FF FF FF FF FF
  13.752000 1  18F107F3x       Rx   d 8 38 A4 30 70 01 58 00 B8
  13.754000 1  18F108F3x       Rx   d 8 00 00 00 00 00 00 00 00
  13.756000 1  18F155F3x       Rx   d 8 38 37 37 38 37 3A 39 00
  13.757000 1  CFF21CAx        Rx   d 8 6C 00 68 17 46 41 00 24
  13.759000 1  18F156F3x       Rx   d 8 00 00 00 00 00 00 00 00
  13.761000 1  18F157F3x       Rx   d 8 00 00 00 00 00 00 00 00
  13.764000 1  18F158F3x       Rx   d 8 00 00 00 00 00 00 00 00
  13.765000 1  18F15BF3x       Rx   d 7 00 00 00 00 00 00 00
  13.766000 1  CFF21CAx        Rx   d 8 6C 00 68 17 46 41 00 24
  13.767000 1  CFF21CAx        Rx   d 8 6C 00 68 17 46 41 00 24
  13.768000 1  18F100D0x       Rx   d 8 0C FF FF FF FF FF FF FF
  13.770000 1  18F104F3x       Rx   d 8 3A 37 06 02 03 FF FF FF
  13.771000 1  18F113F3x       Rx   d 8 0E F5 0E F0 0E F0 0E F5
  13.891000 1  18F114F3x       Rx   d 8 0E F1 0E F2 0E F2 0E F0
  13.893000 1  CFF21CAx        Rx   d 8 6C 00 65 17 46 41 00 24
  13.894000 1  18F115F3x       Rx   d 8 0E F0 0E F1 0E F0 0E EE
  13.896000 1  18F116F3x       Rx   d 8 0E F5 0E F0 0E F4 0E F8
  13.897000 1  18F117F3x       Rx   d 8 0E F8 0E F7 0E F7 0E F6
  13.899000 1  18F118F3x       Rx   d 8 00 00 00 00 00 00 00 00
  13.901000 1  18F119F3x       Rx   d 8 00 00 00 00 00 00 00 00
  13.903000 1  18F11AF3x       Rx   d 8 00 00 00 00 00 00 00 00
  13.906000 1  18F11BF3x       Rx   d 8 00 00 00 00 00 00 00 00
  13.907000 1  18F11CF3x       Rx   d 8 00 00 00 00 00 00 00 00
  13.909000 1  18F11DF3x       Rx   d 8 00 00 00 00 00 00 00 00
  13.911000 1  18F11EF3x       Rx   d 8 00 00 00 00 00 00 00 00
  13.913000 1  18F11FF3x       Rx   d 8 00 00 00 00 00 00 00 00
  13.915000 1  18F120F3x       Rx   d 8 00 00 00 00 00 00 00 00
  13.916000 1  18F121F3x       Rx   d 8 00 00 00 00 00 00 00 00
  13.917000 1  CFF21CAx        Rx   d 8 6E 00 63 17 46 41 00 24
  13.919000 1  18F123F3x       Rx   d 8 00 00 00 00 00 00 00 00
  13.920000 1  18F125F3x       Rx   d 8 00 00 00 00 00 00 00 00
  13.921000 1  18F127F3x       Rx   d 8 00 00 00 00 00 00 00 00
  13.922000 1  18F129F3x       Rx   d 8 00 00 00 00 00 00 00 00
  14.040000 1  18F12AF3x       Rx   d 8 00 00 00 00 00 00 00 00
  14.041000 1  18F12CF3x       Rx   d 8 00 00 00 00 00 00 00 00
  14.188000 1  18F12EF3x       Rx   d 8 00 00 00 00 00 00 00 00
  14.190000 1  18F130F3x       Rx   d 8 00 00 00 00 00 00 00 00
  14.192000 1  18F132F3x       Rx   d 8 00 00 00 00 00 00 00 00
  14.194000 1  18F134F3x       Rx   d 8 00 00 00 00 00 00 00 00
  14.196000 1  18F136F3x       Rx   d 8 00 00 00 00 00 00 00 00
  14.198000 1  18F139F3x       Rx   d 8 00 00 00 00 00 00 00 00
  14.200000 1  CFF21CAx        Rx   d 8 6E 00 5B 17 46 41 00 24
  14.201000 1  18F13CF3x       Rx   d 8 00 00 00 00 00 00 00 00
  14.203000 1  18F100D0x       Rx   d 8 0C FF FF FF FF FF FF FF
  14.205000 1  18FF2112x       Rx   d 8 01 00 00 00 00 00 00 00
  14.207000 1  CFF21CAx        Rx   d 8 6E 00 5D 17 46 41 00 24
  14.209000 1  18F100F3x       Rx   d 8 02 FD 82 45 BE FA 14 00
  14.211000 1  18F102F3x       Rx   d 8 0E F8 0E EE 10 0C 00 0A
  14.213000 1  CFF21CAx        Rx   d 8 6E 00 62 17 46 41 00 24
  14.215000 1  18F106F3x       Rx   d 8 45 E0 FC FF FF FF FF FF
  14.217000 1  18F107F3x       Rx   d 8 38 A4 30 70 01 58 00 B8
  14.218000 1  18F108F3x       Rx   d 8 00 00 00 00 00 00 00 00
  14.220000 1  18F155F3x       Rx   d 8 38 37 37 38 37 3A 39 00
  14.221000 1  18F156F3x       Rx   d 8 00 00 00 00 00 00 00 00
  14.222000 1  18F157F3x       Rx   d 8 00 00 00 00 00 00 00 00
  14.223000 1  18F158F3x       Rx   d 8 00 00 00 00 00 00 00 00
  14.344000 1  18F100D0x       Rx   d 8 0C FF FF FF FF FF FF FF
  14.345000 1  18F159F3x       Rx   d 8 00 00 00 00 00 00 00 00
  14.347000 1  18F15AF3x       Rx   d 8 00 00 00 00 00 00 00 00
  14.350000 1  18F15BF3x       Rx   d 7 00 00 00 00 00 00 00
  14.351000 1  18F15CF3x       Rx   d 8 00 00 00 00 00 00 00 00
  14.353000 1  CFF21CAx        Rx   d 8 6F 00 6A 17 46 41 00 24
  14.355000 1  CFF21CAx        Rx   d 8 6F 00 62 17 46 41 00 24
  14.357000 1  18F100D0x       Rx   d 8 0C FF FF FF FF FF FF FF
  14.358000 1  CFF21CAx        Rx   d 8 6F 00 60 17 46 41 00 24
  14.359000 1  CFF21CAx        Rx   d 8 6F 00 67 17 46 41 00 24
  14.360000 1  18F100D0x       Rx   d 8 0C FF FF FF FF FF FF FF
  14.362000 1  18FF2112x       Rx   d 8 01 00 00 00 00 00 00 00
  14.363000 1  CFF21CAx        Rx   d 8 6F 00 68 17 46 41 00 24
  14.364000 1  CFF21CAx        Rx   d 8 6F 00 73 17 46 41 00 24
  14.497000 1  18F100F3x       Rx   d 8 02 FD 82 18 BE FA 14 00
  14.499000 1  18F102F3x       Rx   d 8 0E F8 0E EE 10 0C 00 0A
  14.500000 1  18F106F3x       Rx   d 8 45 E0 FC FF FF FF FF FF
  14.502000 1  18F107F3x       Rx   d 8 38 A4 30 70 01 58 00 B8
  14.504000 1  18F108F3x       Rx   d 8 00 00 00 00 00 00 00 00
  14.506000 1  18F155F3x       Rx   d 8 38 37 37 38 37 3A 39 00
  14.508000 1  18F156F3x       Rx   d 8 00 00 00 00 00 00 00 00
  14.510000 1  18F157F3x       Rx   d 8 00 00 00 00 00 00 00 00
  14.511000 1  18F158F3x       Rx   d 8 00 00 00 00 00 00 00 00
  14.514000 1  CFF21CAx        Rx   d 8 6E 00 74 17 46 41 00 24
  14.515000 1  18F100D0x       Rx   d 8 0C FF FF FF FF FF FF FF
  14.517000 1  18F159F3x       Rx   d 8 00 00 00 00 00 00 00 00
  14.519000 1  CFF21CAx        Rx   d 8 6E 00 72 17 46 41 00 24
  14.521000 1  18F100F3x       Rx   d 8 02 FD 82 18 BE FA 14 00
  14.522000 1  18F102F3x       Rx   d 8 0E F8 0E EE 10 0C 00 0A
  14.523000 1  18F106F3x       Rx   d 8 45 E0 FC FF FF FF FF FF
  14.524000 1  18F107F3x       Rx   d 8 38 A4 30 70 01 58 00 B8
  14.526000 1  18F108F3x       Rx   d 8 00 00 00 00 00 00 00 00
  14.527000 1  18F155F3x       Rx   d 8 38 37 37 38 37 3A 39 00
  14.645000 1  CFF21CAx        Rx   d 8 6E 00 70 17 46 41 00 24
  14.647000 1  18F156F3x       Rx   d 8 00 00 00 00 00 00 00 00
  14.649000 1  18F157F3x       Rx   d 8 00 00 00 00 00 00 00 00
  14.651000 1  18F158F3x       Rx   d 8 00 00 00 00 00 00 00 00
  14.653000 1  18F15AF3x       Rx   d 8 00 00 00 00 00 00 00 00
  14.656000 1  18F15CF3x       Rx   d 8 00 00 00 00 00 00 00 00
  14.657000 1  18F15EF3x       Rx   d 8 00 00 00 00 00 00 00 00
  14.659000 1  CFF21CAx        Rx   d 8 6E 00 6F 17 46 41 00 24
  14.661000 1  CFF21CAx        Rx   d 8 6D 00 71 17 46 41 00 24
  14.662000 1  18F100D0x       Rx   d 8 0C FF FF FF FF FF FF FF
  14.664000 1  CFF21CAx        Rx   d 8 6D 00 74 17 46 41 00 24
  14.667000 1  CFF21CAx        Rx   d 8 6D 00 74 17 46 41 00 24
  14.668000 1  18F100D0x       Rx   d 8 0C FF FF FF FF FF FF FF
  14.670000 1  CFF21CAx        Rx   d 8 6D 00 7F 17 46 41 00 24
  14.672000 1  18FF2112x       Rx   d 8 01 00 00 00 00 00 00 00
  14.673000 1  CFF21CAx        Rx   d 8 6C 00 71 17 46 41 00 24
  14.674000 1  18F100D0x       Rx   d 8 0C FF FF FF FF FF FF FF
  14.676000 1  CFF21CAx        Rx   d 8 6C 00 79 17 46 41 00 24
  14.677000 1  18FF2112x       Rx   d 8 01 00 00 00 00 00 00 00
  14.678000 1  CFF21CAx        Rx   d 8 6C 00 72 17 46 41 00 24
  14.809000 1  CFF21CAx        Rx   d 8 6C 00 6F 17 46 41 00 24
  14.811000 1  18F100D0x       Rx   d 8 0C FF FF FF FF FF FF FF
  14.812000 1  CFF21CAx        Rx   d 8 6D 00 68 17 46 41 00 24
  14.814000 1  18F100F3x       Rx   d 8 02 FD 82 1C BE FA 14 00
  14.816000 1  18F102F3x       Rx   d 8 0E F8 0E EE 10 0C 00 0A
  14.818000 1  18F106F3x       Rx   d 8 45 E0 FC FF FF FF FF FF
  14.819000 1  18F107F3x       Rx   d 8 38 A4 30 70 01 58 00 B8
  14.821000 1  18F108F3x       Rx   d 8 00 00 00 00 00 00 00 00
  14.822000 1  18F155F3x       Rx   d 8 38 37 37 38 37 3A 39 00
  14.823000 1  18F156F3x       Rx   d 8 00 00 00 00 00 00 00 00
  14.825000 1  18F157F3x       Rx   d 8 00 00 00 00 00 00 00 00
  15.188000 1  18F158F3x       Rx   d 8 00 00 00 00 00 00 00 00
  15.190000 1  18F159F3x       Rx   d 8 00 00 00 00 00 00 00 00
  15.192000 1  18F100F3x       Rx   d 8 02 FD 82 1C BE FA 14 00
  15.194000 1  18F102F3x       Rx   d 8 0E F8 0E EE 10 0C 00 0A
  15.195000 1  18F106F3x       Rx   d 8 45 E0 FC FF FF FF FF FF
  15.197000 1  18F108F3x       Rx   d 8 00 00 00 00 00 00 00 00
  15.199000 1  18F155F3x       Rx   d 8 38 37 37 38 37 3A 39 00
  15.201000 1  CFF21CAx        Rx   d 8 6F 00 5F 17 46 41 00 24
  15.203000 1  18F158F3x       Rx   d 8 00 00 00 00 00 00 00 00
  15.205000 1  18F15AF3x       Rx   d 8 00 00 00 00 00 00 00 00
  15.207000 1  18F15CF3x       Rx   d 8 00 00 00 00 00 00 00 00
  15.209000 1  18F15EF3x       Rx   d 8 00 00 00 00 00 00 00 00
  15.212000 1  CFF21CAx        Rx   d 8 70 00 60 17 46 41 00 24
  15.213000 1  CFF21CAx        Rx   d 8 70 00 63 17 46 41 00 24
  15.214000 1  18F100D0x       Rx   d 8 0C FF FF FF FF FF FF FF
  15.215000 1  CFF21CAx        Rx   d 8 70 00 63 17 46 41 00 24
  15.217000 1  CFF21CAx        Rx   d 8 6F 00 63 17 46 41 00 24
  15.218000 1  18F100D0x       Rx   d 8 0C FF FF FF FF FF FF FF
  15.219000 1  CFF21CAx        Rx   d 8 6F 00 64 17 46 41 00 24
  15.603000 1  18FF2112x       Rx   d 8 01 00 00 00 00 00 00 00
  15.604000 1  CFF21CAx        Rx   d 8 6F 00 63 17 46 41 00 24
  15.606000 1  CFF21CAx        Rx   d 8 6E 00 63 17 46 41 00 24
  15.607000 1  18F100D0x       Rx   d 8 0C FF FF FF FF FF FF FF
  15.608000 1  CFF21CAx        Rx   d 8 6E 00 62 17 46 41 00 24
  15.609000 1  18FF2112x       Rx   d 8 01 00 00 00 00 00 00 00
  15.610000 1  CFF21CAx        Rx   d 8 6E 00 5A 17 46 41 00 24
  15.612000 1  18F100D0x       Rx   d 8 0C FF FF FF FF FF FF FF
  15.970000 1  CFF21CAx        Rx   d 8 6F 00 5A 17 46 41 00 24
  15.972000 1  18F100F3x       Rx   d 8 02 FD 82 0D BE FA 14 00
  15.973000 1  CFF21CAx        Rx   d 8 6F 00 59 17 46 41 00 24
  15.975000 1  18F102F3x       Rx   d 8 0E F9 0E EE 10 0C 00 0B
  15.977000 1  18F106F3x       Rx   d 8 45 E0 FC FF FF FF FF FF
  15.979000 1  18F107F3x       Rx   d 8 38 A4 30 70 01 58 00 B8
  15.981000 1  18F108F3x       Rx   d 8 00 00 00 00 00 00 00 00
  15.982000 1  18F155F3x       Rx   d 8 38 37 37 38 37 3A 39 00
  15.985000 1  18F156F3x       Rx   d 8 00 00 00 00 00 00 00 00
  15.986000 1  18F157F3x       Rx   d 8 00 00 00 00 00 00 00 00
  15.988000 1  18F100D0x       Rx   d 8 0C FF FF FF FF FF FF FF
  15.990000 1  18F158F3x       Rx   d 8 00 00 00 00 00 00 00 00
  15.992000 1  18F159F3x       Rx   d 8 00 00 00 00 00 00 00 00
  15.995000 1  18F15AF3x       Rx   d 8 00 00 00 00 00 00 00 00
  16.001000 1  18F100F3x       Rx   d 8 02 FD 82 4D BE FA 14 00
  16.004000 1  18F102F3x       Rx   d 8 0E F9 0E EE 10 0C 00 0B
  16.006000 1  18F11AF3x       Rx   d 8 00 00 00 00 00 00 00 00
  16.007000 1  18F11CF3x       Rx   d 8 00 00 00 00 00 00 00 00
  16.009000 1  18F11EF3x       Rx   d 8 00 00 00 00 00 00 00 00
  16.010000 1  18F120F3x       Rx   d 8 00 00 00 00 00 00 00 00
  16.012000 1  CFF21CAx        Rx   d 8 71 00 66 17 46 41 00 24
  16.014000 1  18F124F3x       Rx   d 8 00 00 00 00 00 00 00 00
  16.016000 1  18F100D0x       Rx   d 8 0C FF FF FF FF FF FF FF
  16.017000 1  18F127F3x       Rx   d 8 00 00 00 00 00 00 00 00
  16.018000 1  18F129F3x       Rx   d 8 00 00 00 00 00 00 00 00
  16.020000 1  18F12BF3x       Rx   d 8 00 00 00 00 00 00 00 00
  16.022000 1  18F12DF3x       Rx   d 8 00 00 00 00 00 00 00 00
  16.024000 1  18F12FF3x       Rx   d 8 00 00 00 00 00 00 00 00
  16.026000 1  18F131F3x       Rx   d 8 00 00 00 00 00 00 00 00
  16.028000 1  18F133F3x       Rx   d 8 00 00 00 00 00 00 00 00
  16.030000 1  18F135F3x       Rx   d 8 00 00 00 00 00 00 00 00
  16.031000 1  18F138F3x       Rx   d 8 00 00 00 00 00 00 00 00
  16.033000 1  18F13AF3x       Rx   d 8 00 00 00 00 00 00 00 00
  16.035000 1  CFF21CAx        Rx   d 8 71 00 68 17 46 41 00 24
  16.037000 1  18F13CF3x       Rx   d 8 00 00 00 00 00 00 00 00
  16.039000 1  18F100D0x       Rx   d 8 0C FF FF FF FF FF FF FF
  16.040000 1  CFF21CAx        Rx   d 8 72 00 62 17 46 41 00 24
  16.042000 1  18F106F3x       Rx   d 8 45 E0 FC FF FF FF FF FF
  16.044000 1  18F107F3x       Rx   d 8 38 A4 30 70 01 58 00 B8
  16.046000 1  18F108F3x       Rx   d 8 00 00 00 00 00 00 00 00
  16.048000 1  18F156F3x       Rx   d 8 00 00 00 00 00 00 00 00
  16.050000 1  18F158F3x       Rx   d 8 00 00 00 00 00 00 00 00
  16.052000 1  18F15AF3x       Rx   d 8 00 00 00 00 00 00 00 00
  16.054000 1  18F15CF3x       Rx   d 8 00 00 00 00 00 00 00 00
  16.056000 1  18F15EF3x       Rx   d 8 00 00 00 00 00 00 00 00
  16.058000 1  CFF21CAx        Rx   d 8 77 00 5C 17 46 41 00 24
  16.060000 1  CFF21CAx        Rx   d 8 77 00 5C 17 46 41 00 24
  16.062000 1  18F100D0x       Rx   d 8 0C FF FF FF FF FF FF FF
  16.064000 1  CFF21CAx        Rx   d 8 76 00 60 17 46 41 00 24
  16.065000 1  18FF2112x       Rx   d 8 01 00 00 00 00 00 00 00
  16.067000 1  CFF21CAx        Rx   d 8 76 00 6A 17 46 41 00 24
  16.069000 1  18F100D0x       Rx   d 8 0C FF FF FF FF FF FF FF
  16.071000 1  CFF21CAx        Rx   d 8 76 00 64 17 46 41 00 24
  16.072000 1  CFF21CAx        Rx   d 8 76 00 68 17 46 41 00 24
  16.074000 1  18F100D0x       Rx   d 8 0C FF FF FF FF FF FF FF
  16.076000 1  CFF21CAx        Rx   d 8 76 00 69 17 46 41 00 24
  16.078000 1  18F100F3x       Rx   d 8 02 FD 82 72 BE FA 14 00
  16.080000 1  18F102F3x       Rx   d 8 0E F8 0E EE 10 0C 00 0A
  16.081000 1  18F106F3x       Rx   d 8 45 E0 FC FF FF FF FF FF
  16.083000 1  CFF21CAx        Rx   d 8 75 00 70 17 46 41 00 24
  16.085000 1  18F100D0x       Rx   d 8 0C FF FF FF FF FF FF FF
  16.087000 1  18F107F3x       Rx   d 8 38 A4 30 70 01 58 00 B8
  16.089000 1  18F108F3x       Rx   d 8 00 00 00 00 00 00 00 00
  16.091000 1  18F155F3x       Rx   d 8 38 37 37 38 37 3A 39 00
  16.093000 1  18F156F3x       Rx   d 8 00 00 00 00 00 00 00 00
  16.094000 1  18F157F3x       Rx   d 8 00 00 00 00 00 00 00 00
  16.096000 1  18F158F3x       Rx   d 8 00 00 00 00 00 00 00 00
  16.098000 1  18F159F3x       Rx   d 8 00 00 00 00 00 00 00 00
  16.100000 1  18F15AF3x       Rx   d 8 00 00 00 00 00 00 00 00
  16.102000 1  18F15BF3x       Rx   d 7 00 00 00 00 00 00 00
  16.104000 1  18F107F3x       Rx   d 8 38 A4 30 70 01 58 00 B8
  16.106000 1  18F108F3x       Rx   d 8 00 00 00 00 00 00 00 00
  16.107000 1  18F156F3x       Rx   d 8 00 00 00 00 00 00 00 00
  16.109000 1  18F158F3x       Rx   d 8 00 00 00 00 00 00 00 00
  16.111000 1  18F15AF3x       Rx   d 8 00 00 00 00 00 00 00 00
  16.113000 1  18F15DF3x       Rx   d 8 00 00 00 00 00 00 00 00
  16.115000 1  CFF21CAx        Rx   d 8 71 00 69 17 46 41 00 24
  16.116000 1  18F100D0x       Rx   d 8 0C FF FF FF FF FF FF FF
  16.118000 1  CFF21CAx        Rx   d 8 72 00 6C 17 46 41 00 24
  16.120000 1  18FF2112x       Rx   d 8 01 00 00 00 00 00 00 00
  16.122000 1  CFF21CAx        Rx   d 8 72 00 68 17 46 41 00 24
  16.124000 1  18F100D0x       Rx   d 8 0C FF FF FF FF FF FF FF
  16.126000 1  CFF21CAx        Rx   d 8 72 00 67 17 46 41 00 24
  16.128000 1  CFF21CAx        Rx   d 8 72 00 62 17 46 41 00 24
  16.130000 1  18F100D0x       Rx   d 8 0C FF FF FF FF FF FF FF
  16.132000 1  CFF21CAx        Rx   d 8 72 00 62 17 46 41 00 24
  16.133000 1  CFF21CAx        Rx   d 8 72 00 5A 17 46 41 00 24
  16.135000 1  18F100F3x       Rx   d 8 02 FD 82 72 BE FA 14 00
  16.137000 1  18F102F3x       Rx   d 8 0E F8 0E EE 10 0C 00 0A
  16.139000 1  18F106F3x       Rx   d 8 45 E0 FC FF FF FF FF FF
  16.141000 1  CFF21CAx        Rx   d 8 74 00 57 17 46 41 00 24
  16.143000 1  18F100D0x       Rx   d 8 0C FF FF FF FF FF FF FF
  16.145000 1  CFF21CAx        Rx   d 8 74 00 52 17 46 41 00 24
  16.147000 1  CFF21CAx        Rx   d 8 76 00 58 17 46 41 00 24
  16.149000 1  18F100F3x       Rx   d 8 02 FD 82 33 BE FA 14 00
  16.151000 1  18F102F3x       Rx   d 8 0E F8 0E EF 10 0B 00 09
  16.154000 1  18F106F3x       Rx   d 8 45 E0 FC FF FF FF FF FF
  16.155000 1  18F107F3x       Rx   d 8 38 A4 30 70 01 58 00 B8
  16.157000 1  CFF21CAx        Rx   d 8 76 00 5B 17 46 41 00 24
  16.158000 1  18F100D0x       Rx   d 8 0C FF FF FF FF FF FF FF
  16.160000 1  18F108F3x       Rx   d 8 00 00 00 00 00 00 00 00
  16.161000 1  18F11AF3x       Rx   d 8 00 00 00 00 00 00 00 00
  16.162000 1  18F11CF3x       Rx   d 8 00 00 00 00 00 00 00 00
  16.301000 1  18F11EF3x       Rx   d 8 00 00 00 00 00 00 00 00
  16.302000 1  18F120F3x       Rx   d 8 00 00 00 00 00 00 00 00
  16.305000 1  18F121F3x       Rx   d 8 00 00 00 00 00 00 00 00
  16.306000 1  18F123F3x       Rx   d 8 00 00 00 00 00 00 00 00
  16.308000 1  18F125F3x       Rx   d 8 00 00 00 00 00 00 00 00
  16.309000 1  18F127F3x       Rx   d 8 00 00 00 00 00 00 00 00
  16.310000 1  18F129F3x       Rx   d 8 00 00 00 00 00 00 00 00
  16.312000 1  18F12BF3x       Rx   d 8 00 00 00 00 00 00 00 00
  16.438000 1  18F12DF3x       Rx   d 8 00 00 00 00 00 00 00 00
  16.440000 1  18F12FF3x       Rx   d 8 00 00 00 00 00 00 00 00
  16.441000 1  18F132F3x       Rx   d 8 00 00 00 00 00 00 00 00
  16.443000 1  18F133F3x       Rx   d 8 00 00 00 00 00 00 00 00
  16.445000 1  18F135F3x       Rx   d 8 00 00 00 00 00 00 00 00
  16.447000 1  18F136F3x       Rx   d 8 00 00 00 00 00 00 00 00
  16.449000 1  18F138F3x       Rx   d 8 00 00 00 00 00 00 00 00
  16.451000 1  18F139F3x       Rx   d 8 00 00 00 00 00 00 00 00
  16.452000 1  18F13AF3x       Rx   d 8 00 00 00 00 00 00 00 00
  16.455000 1  CFF21CAx        Rx   d 8 73 00 6D 17 46 41 00 24
  16.457000 1  CFF21CAx        Rx   d 8 73 00 70 17 46 41 00 24
  16.458000 1  18F100D0x       Rx   d 8 0C FF FF FF FF FF FF FF
  16.459000 1  CFF21CAx        Rx   d 8 71 00 78 17 46 41 00 24
End TriggerBlock
