date Sun May 24 06:11:39.906 PM 2026
base hex  timestamps absolute
internal events logged
// version 8.0.0
Begin Triggerblock Sun May 24 06:11:39.906 PM 2026
   0.000000 Start of measurement
   0.000000 1  CFF21CAx        Rx   d 8 81 00 C5 0C 47 41 00 24
   0.005000 1  18FF2112x       Rx   d 8 01 00 00 00 00 00 00 00
   0.010000 1  CFF21CAx        Rx   d 8 81 00 C4 0C 47 41 00 24
   0.019000 1  18F100D0x       Rx   d 8 0C FF FF FF FF FF FF FF
   0.022000 1  CFF21CAx        Rx   d 8 86 00 C7 0C 47 41 00 24
   0.028000 1  18F100F3x       Rx   d 8 03 06 7D BE BE FA 14 00
   0.029000 1  18F102F3x       Rx   d 8 0F 20 0F 18 10 0C 00 08
   0.030000 1  18F106F3x       Rx   d 8 45 E0 FC FF FF FF FF FF
   0.044000 1  18F107F3x       Rx   d 8 38 A4 30 70 01 5C 00 BA
   0.046000 1  18F108F3x       Rx   d 8 00 00 00 00 00 00 00 00
   0.047000 1  18F155F3x       Rx   d 8 38 37 37 37 37 3A 39 00
   0.049000 1  CFF21CAx        Rx   d 8 86 00 D4 0C 47 41 00 24
   0.051000 1  18F156F3x       Rx   d 8 00 00 00 00 00 00 00 00
   0.052000 1  18F157F3x       Rx   d 8 00 00 00 00 00 00 00 00
   0.055000 1  18F158F3x       Rx   d 8 00 00 00 00 00 00 00 00
   0.056000 1  18F159F3x       Rx   d 8 00 00 00 00 00 00 00 00
   0.058000 1  18F15AF3x       Rx   d 8 00 00 00 00 00 00 00 00
   0.060000 1  18F15BF3x       Rx   d 7 00 00 00 00 00 00 00
   0.062000 1  18F15CF3x       Rx   d 8 00 00 00 00 00 00 00 00
   0.064000 1  18F15DF3x       Rx   d 8 00 00 00 00 00 00 00 00
   0.065000 1  18F15EF3x       Rx   d 8 00 00 00 00 00 00 00 00
   0.066000 1  CFF21CAx        Rx   d 8 8B 00 D5 0C 47 41 00 24
   0.067000 1  18F100D0x       Rx   d 8 0C FF FF FF FF FF FF FF
   0.068000 1  CFF21CAx        Rx   d 8 8B 00 E3 0C 47 41 00 24
   0.070000 1  CFF21CAx        Rx   d 8 8B 00 E7 0C 47 41 00 24
   0.071000 1  18F100D0x       Rx   d 8 0C FF FF FF FF FF FF FF
   0.101000 1  CFF21CAx        Rx   d 8 92 00 E9 0C 47 41 00 24
   0.105000 1  CFF21CAx        Rx   d 8 92 00 F1 0C 47 41 00 24
   0.107000 1  18F100D0x       Rx   d 8 0C FF FF FF FF FF FF FF
   0.108000 1  18FF2112x       Rx   d 8 01 00 00 00 00 00 00 00
   0.110000 1  CFF21CAx        Rx   d 8 92 00 F2 0C 47 41 00 24
   0.118000 1  CFF21CAx        Rx   d 8 99 00 03 0D 47 41 00 24
   0.119000 1  18F100D0x       Rx   d 8 0C FF FF FF FF FF FF FF
   0.128000 1  18F100F3x       Rx   d 8 03 06 7D FD BE FA 14 00
   0.129000 1  18F102F3x       Rx   d 8 0F 20 0F 18 10 0C 00 08
   0.131000 1  18F106F3x       Rx   d 8 45 E0 FC FF FF FF FF FF
   0.133000 1  CFF21CAx        Rx   d 8 99 00 0C 0D 47 41 00 24
   0.135000 1  18F107F3x       Rx   d 8 38 A4 30 70 01 5C 00 BA
   0.137000 1  18F108F3x       Rx   d 8 00 00 00 00 00 00 00 00
   0.139000 1  18F155F3x       Rx   d 8 38 37 37 37 37 3A 39 00
   0.141000 1  18F156F3x       Rx   d 8 00 00 00 00 00 00 00 00
   0.142000 1  18F157F3x       Rx   d 8 00 00 00 00 00 00 00 00
   0.144000 1  18F158F3x       Rx   d 8 00 00 00 00 00 00 00 00
   0.146000 1  18F159F3x       Rx   d 8 00 00 00 00 00 00 00 00
   0.148000 1  18F15AF3x       Rx   d 8 00 00 00 00 00 00 00 00
   0.150000 1  18F15BF3x       Rx   d 7 00 00 00 00 00 00 00
   0.152000 1  18F15CF3x       Rx   d 8 00 00 00 00 00 00 00 00
   0.154000 1  18F15DF3x       Rx   d 8 00 00 00 00 00 00 00 00
   0.155000 1  18F15EF3x       Rx   d 8 00 00 00 00 00 00 00 00
   0.157000 1  CFF21CAx        Rx   d 8 A0 00 10 0D 47 41 00 24
   0.159000 1  18F100D0x       Rx   d 8 0C FF FF FF FF FF FF FF
   0.160000 1  CFF21CAx        Rx   d 8 A0 00 21 0D 47 41 00 24
   0.167000 1  CFF21CAx        Rx   d 8 A0 00 25 0D 47 41 00 24
   0.171000 1  18F100D0x       Rx   d 8 0C FF FF FF FF FF FF FF
   0.179000 1  CFF21CAx        Rx   d 8 A7 00 2A 0D 47 41 00 24
   0.282000 1  CFF21CAx        Rx   d 8 A7 00 2D 0D 47 41 00 24
   0.284000 1  18FF2112x       Rx   d 8 01 00 00 00 00 00 00 00
   0.285000 1  18F100D0x       Rx   d 8 0C FF FF FF FF FF FF FF
   0.288000 1  CFF21CAx        Rx   d 8 AF 00 34 0D 47 41 00 24
   0.289000 1  CFF21CAx        Rx   d 8 AF 00 41 0D 47 41 00 24
   0.291000 1  18F100D0x       Rx   d 8 0C FF FF FF FF FF FF FF
   0.293000 1  CFF21CAx        Rx   d 8 AF 00 4F 0D 47 41 00 24
   0.295000 1  18F100F3x       Rx   d 8 03 06 7D FD BE FA 14 00
   0.296000 1  18F102F3x       Rx   d 8 0F 20 0F 18 10 0C 00 08
   0.298000 1  18F106F3x       Rx   d 8 45 E0 FC FF FF FF FF FF
   0.300000 1  18F107F3x       Rx   d 8 38 A4 30 70 01 5C 00 BA
   0.302000 1  18F108F3x       Rx   d 8 00 00 00 00 00 00 00 00
   0.304000 1  18F155F3x       Rx   d 8 38 37 37 37 37 3A 39 00
   0.306000 1  18F156F3x       Rx   d 8 00 00 00 00 00 00 00 00
   0.308000 1  18F157F3x       Rx   d 8 00 00 00 00 00 00 00 00
   0.309000 1  18F158F3x       Rx   d 8 00 00 00 00 00 00 00 00
   0.311000 1  18F159F3x       Rx   d 8 00 00 00 00 00 00 00 00
   0.312000 1  CFF21CAx        Rx   d 8 B7 00 57 0D 47 41 00 24
   0.313000 1  18F15AF3x       Rx   d 8 00 00 00 00 00 00 00 00
   0.314000 1  18F15BF3x       Rx   d 7 00 00 00 00 00 00 00
   0.315000 1  18F15CF3x       Rx   d 8 00 00 00 00 00 00 00 00
   0.438000 1  18F15DF3x       Rx   d 8 00 00 00 00 00 00 00 00
   0.439000 1  18F100D0x       Rx   d 8 0C FF FF FF FF FF FF FF
   0.441000 1  18F15EF3x       Rx   d 8 00 00 00 00 00 00 00 00
   0.443000 1  CFF21CAx        Rx   d 8 B7 00 57 0D 47 41 00 24
   0.445000 1  CFF21CAx        Rx   d 8 B7 00 60 0D 47 41 00 24
   0.447000 1  18F100D0x       Rx   d 8 0C FF FF FF FF FF FF FF
   0.449000 1  CFF21CAx        Rx   d 8 B7 00 60 0D 47 41 00 24
   0.450000 1  CFF21CAx        Rx   d 8 C0 00 74 0D 47 41 00 24
   0.452000 1  18FF2112x       Rx   d 8 01 00 00 00 00 00 00 00
   0.454000 1  18F100D0x       Rx   d 8 0C FF FF FF FF FF FF FF
   0.456000 1  CFF21CAx        Rx   d 8 C0 00 74 0D 47 41 00 24
   0.458000 1  CFF21CAx        Rx   d 8 C9 00 91 0D 47 41 00 24
   0.459000 1  18F100D0x       Rx   d 8 0C FF FF FF FF FF FF FF
   0.461000 1  CFF21CAx        Rx   d 8 C9 00 91 0D 47 41 00 24
   0.462000 1  18F100F3x       Rx   d 8 03 06 7E C1 BE FA 14 00
   0.463000 1  18F102F3x       Rx   d 8 0F 20 0F 18 10 0C 00 08
   0.464000 1  18F106F3x       Rx   d 8 45 E0 FC FF FF FF FF FF
   0.465000 1  18F107F3x       Rx   d 8 38 A4 30 70 01 5C 00 BA
   0.587000 1  18F108F3x       Rx   d 8 00 00 00 00 00 00 00 00
   0.588000 1  18F155F3x       Rx   d 8 38 37 37 37 37 3A 39 00
   0.590000 1  18F156F3x       Rx   d 8 00 00 00 00 00 00 00 00
   0.592000 1  CFF21CAx        Rx   d 8 C9 00 A1 0D 47 41 00 24
   0.594000 1  18F157F3x       Rx   d 8 00 00 00 00 00 00 00 00
   0.595000 1  18F158F3x       Rx   d 8 00 00 00 00 00 00 00 00
   0.597000 1  18F159F3x       Rx   d 8 00 00 00 00 00 00 00 00
   0.599000 1  18F15AF3x       Rx   d 8 00 00 00 00 00 00 00 00
   0.600000 1  18F15BF3x       Rx   d 7 00 00 00 00 00 00 00
   0.602000 1  18F15CF3x       Rx   d 8 00 00 00 00 00 00 00 00
   0.603000 1  18F15DF3x       Rx   d 8 00 00 00 00 00 00 00 00
   0.604000 1  18F15EF3x       Rx   d 8 00 00 00 00 00 00 00 00
   0.605000 1  18F100D0x       Rx   d 8 0C FF FF FF FF FF FF FF
   0.606000 1  CFF21CAx        Rx   d 8 D1 00 A8 0D 47 41 00 24
   0.749000 1  CFF21CAx        Rx   d 8 D1 00 B3 0D 47 41 00 24
   0.755000 1  18F100D0x       Rx   d 8 0C FF FF FF FF FF FF FF
   0.757000 1  CFF21CAx        Rx   d 8 DA 00 BB 0D 47 41 00 24
   0.758000 1  CFF21CAx        Rx   d 8 DA 00 C4 0D 47 41 00 24
   0.761000 1  18FF2112x       Rx   d 8 01 00 00 00 00 00 00 00
   0.763000 1  18F100D0x       Rx   d 8 0C FF FF FF FF FF FF FF
   0.764000 1  CFF21CAx        Rx   d 8 DA 00 D3 0D 47 41 00 24
   0.765000 1  CFF21CAx        Rx   d 8 E2 00 E6 0D 47 41 00 24
   0.767000 1  CFF21CAx        Rx   d 8 E2 00 F1 0D 47 41 00 24
   0.768000 1  18F100D0x       Rx   d 8 0C FF FF FF FF FF FF FF
   0.770000 1  18F100F3x       Rx   d 8 03 06 7E C1 BE FA 14 00
   0.887000 1  18F102F3x       Rx   d 8 0F 20 0F 18 10 0C 00 08
   0.889000 1  18F106F3x       Rx   d 8 45 E0 FC FF FF FF FF FF
   0.891000 1  18F107F3x       Rx   d 8 38 A4 30 70 01 5C 00 BA
   0.893000 1  CFF21CAx        Rx   d 8 E9 00 FD 0D 47 41 00 24
   0.895000 1  18F108F3x       Rx   d 8 00 00 00 00 00 00 00 00
   0.897000 1  18F155F3x       Rx   d 8 38 37 37 37 37 3A 39 00
   0.899000 1  18F156F3x       Rx   d 8 00 00 00 00 00 00 00 00
   0.901000 1  18F157F3x       Rx   d 8 00 00 00 00 00 00 00 00
   0.903000 1  18F158F3x       Rx   d 8 00 00 00 00 00 00 00 00
   0.905000 1  18F159F3x       Rx   d 8 00 00 00 00 00 00 00 00
   0.906000 1  18F15AF3x       Rx   d 8 00 00 00 00 00 00 00 00
   0.908000 1  18F15BF3x       Rx   d 7 00 00 00 00 00 00 00
   0.910000 1  18F15CF3x       Rx   d 8 00 00 00 00 00 00 00 00
   0.912000 1  18F15DF3x       Rx   d 8 00 00 00 00 00 00 00 00
   0.914000 1  18F15EF3x       Rx   d 8 00 00 00 00 00 00 00 00
   0.915000 1  CFF21CAx        Rx   d 8 E9 00 03 0E 47 41 00 24
   0.916000 1  18F100D0x       Rx   d 8 0C FF FF FF FF FF FF FF
   0.917000 1  CFF21CAx        Rx   d 8 E9 00 15 0E 47 41 00 24
   0.919000 1  18F104F3x       Rx   d 8 3A 37 06 02 03 FF FF FF
   0.920000 1  18F113F3x       Rx   d 8 0F 1B 0F 1B 0F 1B 0F 1C
   1.040000 1  18F114F3x       Rx   d 8 0F 1B 0F 1A 0F 1C 0F 1B
   1.042000 1  CFF21CAx        Rx   d 8 F0 00 1F 0E 47 41 00 24
   1.044000 1  18F115F3x       Rx   d 8 0F 1A 0F 19 0F 19 0F 18
   1.046000 1  18F116F3x       Rx   d 8 0F 1C 0F 1B 0F 1C 0F 20
   1.047000 1  18F117F3x       Rx   d 8 0F 1D 0F 1E 0F 1F 0F 1E
   1.049000 1  18F118F3x       Rx   d 8 00 00 00 00 00 00 00 00
   1.050000 1  18F100D0x       Rx   d 8 0C FF FF FF FF FF FF FF
   1.052000 1  18F119F3x       Rx   d 8 00 00 00 00 00 00 00 00
   1.053000 1  18F11AF3x       Rx   d 8 00 00 00 00 00 00 00 00
   1.055000 1  18F11BF3x       Rx   d 8 00 00 00 00 00 00 00 00
   1.057000 1  18F11CF3x       Rx   d 8 00 00 00 00 00 00 00 00
   1.059000 1  18F11DF3x       Rx   d 8 00 00 00 00 00 00 00 00
   1.061000 1  18F11EF3x       Rx   d 8 00 00 00 00 00 00 00 00
   1.063000 1  18F11FF3x       Rx   d 8 00 00 00 00 00 00 00 00
   1.065000 1  18F120F3x       Rx   d 8 00 00 00 00 00 00 00 00
   1.066000 1  18F121F3x       Rx   d 8 00 00 00 00 00 00 00 00
   1.067000 1  CFF21CAx        Rx   d 8 F0 00 28 0E 47 41 00 24
   1.068000 1  18F122F3x       Rx   d 8 00 00 00 00 00 00 00 00
   1.069000 1  18F123F3x       Rx   d 8 00 00 00 00 00 00 00 00
   1.191000 1  18F124F3x       Rx   d 8 00 00 00 00 00 00 00 00
   1.192000 1  18F125F3x       Rx   d 8 00 00 00 00 00 00 00 00
   1.194000 1  18F126F3x       Rx   d 8 00 00 00 00 00 00 00 00
   1.196000 1  18FF2112x       Rx   d 8 01 00 00 00 00 00 00 00
   1.198000 1  18F127F3x       Rx   d 8 00 00 00 00 00 00 00 00
   1.199000 1  18F128F3x       Rx   d 8 00 00 00 00 00 00 00 00
   1.201000 1  18F129F3x       Rx   d 8 00 00 00 00 00 00 00 00
   1.203000 1  18F12AF3x       Rx   d 8 00 00 00 00 00 00 00 00
   1.205000 1  18F12BF3x       Rx   d 8 00 00 00 00 00 00 00 00
   1.207000 1  18F12CF3x       Rx   d 8 00 00 00 00 00 00 00 00
   1.209000 1  18F12DF3x       Rx   d 8 00 00 00 00 00 00 00 00
   1.210000 1  CFF21CAx        Rx   d 8 F5 00 3C 0E 47 41 00 24
   1.212000 1  18F12EF3x       Rx   d 8 00 00 00 00 00 00 00 00
   1.215000 1  18F12FF3x       Rx   d 8 00 00 00 00 00 00 00 00
   1.216000 1  18F130F3x       Rx   d 8 00 00 00 00 00 00 00 00
   1.217000 1  18F131F3x       Rx   d 8 00 00 00 00 00 00 00 00
   1.218000 1  18F100D0x       Rx   d 8 0C FF FF FF FF FF FF FF
   1.220000 1  18F132F3x       Rx   d 8 00 00 00 00 00 00 00 00
   1.221000 1  18F133F3x       Rx   d 8 00 00 00 00 00 00 00 00
   1.222000 1  18F134F3x       Rx   d 8 00 00 00 00 00 00 00 00
   1.341000 1  18F135F3x       Rx   d 8 00 00 00 00 00 00 00 00
   1.343000 1  18F136F3x       Rx   d 8 00 00 00 00 00 00 00 00
   1.344000 1  18F137F3x       Rx   d 8 00 00 00 00 00 00 00 00
   1.346000 1  18F138F3x       Rx   d 8 00 00 00 00 00 00 00 00
   1.348000 1  18F139F3x       Rx   d 8 00 00 00 00 00 00 00 00
   1.350000 1  CFF21CAx        Rx   d 8 F5 00 46 0E 47 41 00 24
   1.352000 1  18F13AF3x       Rx   d 8 00 00 00 00 00 00 00 00
   1.354000 1  18F13BF3x       Rx   d 8 00 00 00 00 00 00 00 00
   1.355000 1  18F13CF3x       Rx   d 8 00 00 00 00 00 00 00 00
   1.357000 1  CFF21CAx        Rx   d 8 F5 00 46 0E 47 41 00 24
   1.358000 1  18F100D0x       Rx   d 8 0C FF FF FF FF FF FF FF
   1.360000 1  18F100F3x       Rx   d 8 03 06 7E C1 BE FA 14 00
   1.362000 1  CFF21CAx        Rx   d 8 F5 00 54 0E 47 41 00 24
   1.488000 1  18F102F3x       Rx   d 8 0F 20 0F 18 10 0C 00 08
   1.489000 1  18F106F3x       Rx   d 8 45 E0 FC FF FF FF FF FF
   1.491000 1  18F107F3x       Rx   d 8 38 A4 30 70 01 5C 00 BA
   1.493000 1  18F108F3x       Rx   d 8 00 00 00 00 00 00 00 00
   1.495000 1  18F155F3x       Rx   d 8 38 37 37 37 37 3A 39 00
   1.497000 1  18F156F3x       Rx   d 8 00 00 00 00 00 00 00 00
   1.499000 1  18F157F3x       Rx   d 8 00 00 00 00 00 00 00 00
   1.501000 1  18F158F3x       Rx   d 8 00 00 00 00 00 00 00 00
   1.503000 1  18F159F3x       Rx   d 8 00 00 00 00 00 00 00 00
   1.504000 1  18F15AF3x       Rx   d 8 00 00 00 00 00 00 00 00
   1.505000 1  18F15BF3x       Rx   d 7 00 00 00 00 00 00 00
   1.506000 1  CFF21CAx        Rx   d 8 F9 00 5D 0E 47 41 00 24
   1.508000 1  18F15CF3x       Rx   d 8 00 00 00 00 00 00 00 00
   1.509000 1  18F15DF3x       Rx   d 8 00 00 00 00 00 00 00 00
   2.817000 1  18F15EF3x       Rx   d 8 00 00 00 00 00 00 00 00
   2.818000 1  18F100D0x       Rx   d 8 0C FF FF FF FF FF FF FF
   2.820000 1  CFF21CAx        Rx   d 8 F9 00 6B 0E 47 41 00 24
   2.822000 1  CFF21CAx        Rx   d 8 FB 00 78 0E 47 41 00 24
   2.824000 1  CFF21CAx        Rx   d 8 FB 00 86 0E 47 41 00 24
   2.826000 1  18F100D0x       Rx   d 8 0C FF FF FF FF FF FF FF
   2.828000 1  18FF2112x       Rx   d 8 01 00 00 00 00 00 00 00
   2.830000 1  CFF21CAx        Rx   d 8 FB 00 8B 0E 47 41 00 24
   2.832000 1  CFF21CAx        Rx   d 8 FD 00 98 0E 47 41 00 24
   2.834000 1  18F100D0x       Rx   d 8 0C FF FF FF FF FF FF FF
   2.836000 1  CFF21CAx        Rx   d 8 FD 00 A5 0E 47 41 00 24
   2.837000 1  CFF21CAx        Rx   d 8 FF 00 AD 0E 47 41 00 24
   2.841000 1  18F100F3x       Rx   d 8 03 06 80 37 BE FA 14 00
   2.846000 1  18F100D0x       Rx   d 8 0C FF FF FF FF FF FF FF
   2.848000 1  18F102F3x       Rx   d 8 0F 20 0F 18 10 0C 00 08
   2.849000 1  18F106F3x       Rx   d 8 45 E0 FC FF FF FF FF FF
   2.851000 1  18F107F3x       Rx   d 8 38 A4 30 70 01 5C 00 BA
   2.852000 1  18F108F3x       Rx   d 8 00 00 00 00 00 00 00 00
   2.853000 1  18F155F3x       Rx   d 8 38 37 37 37 37 3A 39 00
   2.854000 1  18F156F3x       Rx   d 8 00 00 00 00 00 00 00 00
   2.880000 1  18F157F3x       Rx   d 8 00 00 00 00 00 00 00 00
   2.881000 1  CFF21CAx        Rx   d 8 FF 00 AD 0E 47 41 00 24
   2.883000 1  18F158F3x       Rx   d 8 00 00 00 00 00 00 00 00
   2.885000 1  18F159F3x       Rx   d 8 00 00 00 00 00 00 00 00
   2.887000 1  18F15AF3x       Rx   d 8 00 00 00 00 00 00 00 00
   2.889000 1  18F15BF3x       Rx   d 7 00 00 00 00 00 00 00
   2.891000 1  18F15CF3x       Rx   d 8 00 00 00 00 00 00 00 00
   2.893000 1  18F15DF3x       Rx   d 8 00 00 00 00 00 00 00 00
   2.894000 1  18F15EF3x       Rx   d 8 00 00 00 00 00 00 00 00
   2.896000 1  CFF21CAx        Rx   d 8 FF 00 BC 0E 47 41 00 24
   2.898000 1  18F100D0x       Rx   d 8 0C FF FF FF FF FF FF FF
   2.900000 1  CFF21CAx        Rx   d 8 00 01 13 0F 47 41 00 24
   2.901000 1  18F100D0x       Rx   d 8 0C FF FF FF FF FF FF FF
   2.903000 1  CFF21CAx        Rx   d 8 02 01 25 0F 47 41 00 24
   2.904000 1  18FF2112x       Rx   d 8 01 00 00 00 00 00 00 00
   2.905000 1  CFF21CAx        Rx   d 8 02 01 38 0F 47 41 00 24
   2.906000 1  18F100D0x       Rx   d 8 0C FF FF FF FF FF FF FF
   2.908000 1  CFF21CAx        Rx   d 8 02 01 47 0F 47 41 00 24
   2.909000 1  CFF21CAx        Rx   d 8 02 01 55 0F 47 41 00 24
   2.939000 1  CFF21CAx        Rx   d 8 04 01 5E 0F 47 41 00 24
   2.943000 1  18F100D0x       Rx   d 8 0C FF FF FF FF FF FF FF
   2.944000 1  18F100F3x       Rx   d 8 03 06 81 36 BE FA 14 00
   2.946000 1  CFF21CAx        Rx   d 8 02 01 96 0F 47 41 00 24
   2.948000 1  18F100D0x       Rx   d 8 0C FF FF FF FF FF FF FF
   2.950000 1  CFF21CAx        Rx   d 8 02 01 A7 0F 47 41 00 24
   2.951000 1  CFF21CAx        Rx   d 8 02 01 B0 0F 47 41 00 24
   2.953000 1  CFF21CAx        Rx   d 8 02 01 BC 0F 47 41 00 24
   2.955000 1  18F100D0x       Rx   d 8 0C FF FF FF FF FF FF FF
   2.957000 1  18F100F3x       Rx   d 8 03 06 81 36 BE FA 14 00
   2.959000 1  18F102F3x       Rx   d 8 0F 20 0F 18 10 0C 00 08
   2.961000 1  18F106F3x       Rx   d 8 45 E0 FC FF FF FF FF FF
   2.963000 1  18F107F3x       Rx   d 8 38 A4 30 70 01 5C 00 BA
   2.964000 1  18F108F3x       Rx   d 8 00 00 00 00 00 00 00 00
   2.965000 1  18F155F3x       Rx   d 8 38 37 37 38 37 3A 39 00
   2.967000 1  18F156F3x       Rx   d 8 00 00 00 00 00 00 00 00
   2.968000 1  18F157F3x       Rx   d 8 00 00 00 00 00 00 00 00
   2.969000 1  18F158F3x       Rx   d 8 00 00 00 00 00 00 00 00
   2.970000 1  18F159F3x       Rx   d 8 00 00 00 00 00 00 00 00
   3.124000 1  CFF21CAx        Rx   d 8 02 01 C4 0F 47 41 00 24
   3.125000 1  18F15AF3x       Rx   d 8 00 00 00 00 00 00 00 00
   3.127000 1  18F15BF3x       Rx   d 7 00 00 00 00 00 00 00
   3.129000 1  18F15CF3x       Rx   d 8 00 00 00 00 00 00 00 00
   3.131000 1  18F15CF3x       Rx   d 8 00 00 00 00 00 00 00 00
   3.133000 1  18F15EF3x       Rx   d 8 00 00 00 00 00 00 00 00
   3.135000 1  CFF21CAx        Rx   d 8 03 01 24 10 47 41 00 24
   3.137000 1  CFF21CAx        Rx   d 8 03 01 2E 10 47 41 00 24
   3.139000 1  18F100D0x       Rx   d 8 0C FF FF FF FF FF FF FF
   3.141000 1  18FF2112x       Rx   d 8 01 00 00 00 00 00 00 00
   3.143000 1  CFF21CAx        Rx   d 8 03 01 2E 10 47 41 00 24
   3.145000 1  CFF21CAx        Rx   d 8 02 01 39 10 47 41 00 24
   3.147000 1  18F100D0x       Rx   d 8 0C FF FF FF FF FF FF FF
   3.150000 1  CFF21CAx        Rx   d 8 02 01 4A 10 47 41 00 24
   3.151000 1  CFF21CAx        Rx   d 8 02 01 52 10 47 41 00 24
   3.152000 1  CFF21CAx        Rx   d 8 04 01 64 10 47 41 00 24
   3.153000 1  18F100D0x       Rx   d 8 0C FF FF FF FF FF FF FF
   3.154000 1  18F100F3x       Rx   d 8 03 05 82 2F BE FA 14 00
   3.156000 1  18F102F3x       Rx   d 8 0F 20 0F 18 10 0C 00 08
   3.157000 1  18F106F3x       Rx   d 8 45 E0 FC FF FF FF FF FF
   3.158000 1  CFF21CAx        Rx   d 8 04 01 6E 10 47 41 00 24
   3.276000 1  18F107F3x       Rx   d 8 38 A4 30 70 01 5C 00 BA
   3.278000 1  18F108F3x       Rx   d 8 00 00 00 00 00 00 00 00
   3.280000 1  CFF21CAx        Rx   d 8 03 01 AA 10 47 41 00 24
   3.282000 1  18F100D0x       Rx   d 8 0C FF FF FF FF FF FF FF
   3.284000 1  CFF21CAx        Rx   d 8 03 01 B9 10 47 41 00 24
   3.286000 1  CFF21CAx        Rx   d 8 03 01 CC 10 47 41 00 24
   3.288000 1  18F100D0x       Rx   d 8 0C FF FF FF FF FF FF FF
   3.289000 1  18F100F3x       Rx   d 8 03 05 82 2F BE FA 14 00
   3.291000 1  18F102F3x       Rx   d 8 0F 20 0F 18 10 0C 00 08
   3.293000 1  18F106F3x       Rx   d 8 45 E0 FC FF FF FF FF FF
   3.295000 1  18F107F3x       Rx   d 8 38 A4 30 70 01 5C 00 BA
   3.296000 1  18F108F3x       Rx   d 8 00 00 00 00 00 00 00 00
   3.299000 1  18F155F3x       Rx   d 8 38 37 37 37 37 3A 39 00
   3.301000 1  18F156F3x       Rx   d 8 00 00 00 00 00 00 00 00
   3.302000 1  18F157F3x       Rx   d 8 00 00 00 00 00 00 00 00
   3.304000 1  18F158F3x       Rx   d 8 00 00 00 00 00 00 00 00
   3.305000 1  18F159F3x       Rx   d 8 00 00 00 00 00 00 00 00
   3.306000 1  18F15AF3x       Rx   d 8 00 00 00 00 00 00 00 00
   3.307000 1  CFF21CAx        Rx   d 8 02 01 D8 10 47 41 00 24
   3.308000 1  18F15BF3x       Rx   d 7 00 00 00 00 00 00 00
   3.426000 1  18F15CF3x       Rx   d 8 00 00 00 00 00 00 00 00
   3.428000 1  18F15DF3x       Rx   d 8 00 00 00 00 00 00 00 00
   3.430000 1  18F15DF3x       Rx   d 8 00 00 00 00 00 00 00 00
   3.431000 1  18F100D0x       Rx   d 8 0C FF FF FF FF FF FF FF
   3.433000 1  CFF21CAx        Rx   d 8 01 01 2F 11 47 41 00 24
   3.436000 1  CFF21CAx        Rx   d 8 01 01 3B 11 47 41 00 24
   3.437000 1  18FF2112x       Rx   d 8 01 00 00 00 00 00 00 00
   3.439000 1  CFF21CAx        Rx   d 8 03 01 46 11 47 41 00 24
   3.441000 1  18F100D0x       Rx   d 8 0C FF FF FF FF FF FF FF
   3.443000 1  CFF21CAx        Rx   d 8 03 01 57 11 47 41 00 24
   3.445000 1  CFF21CAx        Rx   d 8 02 01 5C 11 47 41 00 24
   3.447000 1  18F100D0x       Rx   d 8 0C FF FF FF FF FF FF FF
   3.448000 1  CFF21CAx        Rx   d 8 02 01 5C 11 47 41 00 24
   3.450000 1  CFF21CAx        Rx   d 8 02 01 6B 11 47 41 00 24
   3.452000 1  18F100D0x       Rx   d 8 0C FF FF FF FF FF FF FF
   3.453000 1  18F12AF3x       Rx   d 8 00 00 00 00 00 00 00 00
   3.454000 1  18F12BF3x       Rx   d 8 00 00 00 00 00 00 00 00
   3.456000 1  18F12DF3x       Rx   d 8 00 00 00 00 00 00 00 00
   3.738000 1  18F12FF3x       Rx   d 8 00 00 00 00 00 00 00 00
   3.740000 1  18F131F3x       Rx   d 8 00 00 00 00 00 00 00 00
   3.742000 1  18F133F3x       Rx   d 8 00 00 00 00 00 00 00 00
   3.744000 1  18F136F3x       Rx   d 8 00 00 00 00 00 00 00 00
   3.746000 1  18F138F3x       Rx   d 8 00 00 00 00 00 00 00 00
   3.747000 1  18F13AF3x       Rx   d 8 00 00 00 00 00 00 00 00
   3.749000 1  CFF21CAx        Rx   d 8 02 01 BE 11 47 41 00 24
   3.752000 1  18F13CF3x       Rx   d 8 00 00 00 00 00 00 00 00
   3.754000 1  18F100D0x       Rx   d 8 0C FF FF FF FF FF FF FF
   3.755000 1  CFF21CAx        Rx   d 8 02 01 C3 11 47 41 00 24
   3.757000 1  18F100F3x       Rx   d 8 03 05 83 81 BE FA 14 00
   3.758000 1  CFF21CAx        Rx   d 8 BD 00 2D 15 47 41 00 24
   3.760000 1  18FF2112x       Rx   d 8 01 00 00 00 00 00 00 00
   3.761000 1  18F100F3x       Rx   d 8 03 04 84 E1 BE FA 14 00
   3.762000 1  18F102F3x       Rx   d 8 0F 18 0F 10 10 0C 00 08
   3.883000 1  CFF21CAx        Rx   d 8 BD 00 36 15 47 41 00 24
   3.884000 1  18F106F3x       Rx   d 8 45 E0 FC FF FF FF FF FF
   3.886000 1  18F107F3x       Rx   d 8 38 A4 30 70 01 5B 00 B9
   3.888000 1  18F108F3x       Rx   d 8 00 00 00 00 00 00 00 00
   3.890000 1  18F155F3x       Rx   d 8 38 37 37 37 37 3A 39 00
   3.892000 1  18F156F3x       Rx   d 8 00 00 00 00 00 00 00 00
   3.893000 1  18F157F3x       Rx   d 8 00 00 00 00 00 00 00 00
   3.895000 1  18F159F3x       Rx   d 8 00 00 00 00 00 00 00 00
   3.897000 1  18F15DF3x       Rx   d 8 00 00 00 00 00 00 00 00
   3.899000 1  CFF21CAx        Rx   d 8 BD 00 44 15 47 41 00 24
   3.901000 1  18F100D0x       Rx   d 8 0C FF FF FF FF FF FF FF
   3.903000 1  CFF21CAx        Rx   d 8 BD 00 48 15 47 41 00 24
   3.905000 1  CFF21CAx        Rx   d 8 BC 00 4B 15 47 41 00 24
   3.907000 1  CFF21CAx        Rx   d 8 BC 00 50 15 47 41 00 24
   3.908000 1  18F100D0x       Rx   d 8 0C FF FF FF FF FF FF FF
   3.909000 1  CFF21CAx        Rx   d 8 BC 00 54 15 47 41 00 24
   3.911000 1  CFF21CAx        Rx   d 8 BC 00 5A 15 47 41 00 24
   3.912000 1  18F100D0x       Rx   d 8 0C FF FF FF FF FF FF FF
   3.913000 1  18FF2112x       Rx   d 8 01 00 00 00 00 00 00 00
   4.032000 1  CFF21CAx        Rx   d 8 BC 00 61 15 47 41 00 24
   4.034000 1  18F100F3x       Rx   d 8 03 04 84 E1 BE FA 14 00
   4.036000 1  18F102F3x       Rx   d 8 0F 18 0F 10 10 0C 00 08
   4.038000 1  18F106F3x       Rx   d 8 45 E0 FC FF FF FF FF FF
   4.040000 1  18F107F3x       Rx   d 8 38 A4 30 70 01 5B 00 B9
   4.042000 1  18F108F3x       Rx   d 8 00 00 00 00 00 00 00 00
   4.044000 1  18F155F3x       Rx   d 8 38 37 37 37 37 3A 39 00
   4.046000 1  18F156F3x       Rx   d 8 00 00 00 00 00 00 00 00
   4.048000 1  18F157F3x       Rx   d 8 00 00 00 00 00 00 00 00
   4.049000 1  18F158F3x       Rx   d 8 00 00 00 00 00 00 00 00
   4.051000 1  CFF21CAx        Rx   d 8 BD 00 6D 15 47 41 00 24
   4.053000 1  18F100D0x       Rx   d 8 0C FF FF FF FF FF FF FF
   4.056000 1  18F159F3x       Rx   d 8 00 00 00 00 00 00 00 00
   4.057000 1  18F15AF3x       Rx   d 8 00 00 00 00 00 00 00 00
   4.059000 1  18F15BF3x       Rx   d 7 00 00 00 00 00 00 00
   4.060000 1  18F15CF3x       Rx   d 8 00 00 00 00 00 00 00 00
   4.061000 1  18F15DF3x       Rx   d 8 00 00 00 00 00 00 00 00
   4.062000 1  18F15EF3x       Rx   d 8 00 00 00 00 00 00 00 00
   4.063000 1  CFF21CAx        Rx   d 8 BD 00 73 15 47 41 00 24
   4.065000 1  CFF21CAx        Rx   d 8 BD 00 79 15 47 41 00 24
   4.184000 1  18F100D0x       Rx   d 8 0C FF FF FF FF FF FF FF
   4.186000 1  CFF21CAx        Rx   d 8 BD 00 75 15 47 41 00 24
   4.188000 1  CFF21CAx        Rx   d 8 BD 00 79 15 47 41 00 24
   4.190000 1  18F100D0x       Rx   d 8 0C FF FF FF FF FF FF FF
   4.192000 1  CFF21CAx        Rx   d 8 BD 00 76 15 47 41 00 24
   4.194000 1  CFF21CAx        Rx   d 8 BD 00 78 15 47 41 00 24
   4.195000 1  18F100D0x       Rx   d 8 0C FF FF FF FF FF FF FF
   4.197000 1  18FF2112x       Rx   d 8 01 00 00 00 00 00 00 00
   4.199000 1  CFF21CAx        Rx   d 8 BD 00 78 15 47 41 00 24
   4.201000 1  18F100F3x       Rx   d 8 03 04 84 E1 BE FA 14 00
   4.203000 1  18F102F3x       Rx   d 8 0F 18 0F 10 10 0C 00 08
   4.204000 1  18F106F3x       Rx   d 8 45 E0 FC FF FF FF FF FF
   4.206000 1  18F107F3x       Rx   d 8 38 A4 30 70 01 5B 00 B9
   4.208000 1  18F108F3x       Rx   d 8 00 00 00 00 00 00 00 00
   4.210000 1  CFF21CAx        Rx   d 8 B9 00 7B 15 47 41 00 24
   4.211000 1  18F100F3x       Rx   d 8 03 01 85 9C BE FA 14 00
   4.212000 1  18F102F3x       Rx   d 8 0F 0A 0F 00 10 0C 00 0A
   4.213000 1  18F106F3x       Rx   d 8 45 E0 FC FF FF FF FF FF
   4.215000 1  CFF21CAx        Rx   d 8 BA 00 9C 15 47 41 00 24
   4.346000 1  18F107F3x       Rx   d 8 38 A4 30 70 01 5A 00 B9
   4.348000 1  18F155F3x       Rx   d 8 38 37 37 37 37 3A 39 00
   4.349000 1  18F157F3x       Rx   d 8 00 00 00 00 00 00 00 00
   4.351000 1  18F159F3x       Rx   d 8 00 00 00 00 00 00 00 00
   4.353000 1  18F15BF3x       Rx   d 7 00 00 00 00 00 00 00
   4.355000 1  18F15DF3x       Rx   d 8 00 00 00 00 00 00 00 00
   4.357000 1  CFF21CAx        Rx   d 8 BA 00 B0 15 47 41 00 24
   4.359000 1  18F100D0x       Rx   d 8 0C FF FF FF FF FF FF FF
   4.361000 1  CFF21CAx        Rx   d 8 BA 00 B8 15 47 41 00 24
   4.362000 1  CFF21CAx        Rx   d 8 BA 00 BC 15 47 41 00 24
   4.363000 1  18F100D0x       Rx   d 8 0C FF FF FF FF FF FF FF
   4.364000 1  CFF21CAx        Rx   d 8 BA 00 C1 15 47 41 00 24
   4.365000 1  CFF21CAx        Rx   d 8 BA 00 C6 15 46 41 00 24
   4.366000 1  18FF2112x       Rx   d 8 01 00 00 00 00 00 00 00
   4.483000 1  18F100D0x       Rx   d 8 0C FF FF FF FF FF FF FF
   4.485000 1  CFF21CAx        Rx   d 8 BA 00 D0 15 46 41 00 24
   4.487000 1  CFF21CAx        Rx   d 8 BA 00 D6 15 46 41 00 24
   4.490000 1  CFF21CAx        Rx   d 8 BA 00 07 16 46 41 00 24
   4.491000 1  18F100D0x       Rx   d 8 0C FF FF FF FF FF FF FF
   4.493000 1  CFF21CAx        Rx   d 8 BC 00 08 16 46 41 00 24
   4.495000 1  18FF2112x       Rx   d 8 01 00 00 00 00 00 00 00
   4.497000 1  CFF21CAx        Rx   d 8 BC 00 04 16 46 41 00 24
   4.499000 1  18F100D0x       Rx   d 8 0C FF FF FF FF FF FF FF
   4.501000 1  CFF21CAx        Rx   d 8 BB 00 FB 15 46 41 00 24
   4.503000 1  18F100F3x       Rx   d 8 03 01 85 EA BE FA 14 00
   4.505000 1  18F102F3x       Rx   d 8 0F 0A 0F 00 10 0C 00 0A
   4.507000 1  18F106F3x       Rx   d 8 45 E0 FC FF FF FF FF FF
   4.509000 1  18F107F3x       Rx   d 8 38 A4 30 70 01 5A 00 B9
   4.510000 1  18F108F3x       Rx   d 8 00 00 00 00 00 00 00 00
   4.511000 1  18F155F3x       Rx   d 8 38 37 37 37 37 3A 39 00
   4.512000 1  18F156F3x       Rx   d 8 00 00 00 00 00 00 00 00
   4.514000 1  CFF21CAx        Rx   d 8 BB 00 F4 15 46 41 00 24
   4.515000 1  18F100D0x       Rx   d 8 0C FF FF FF FF FF FF FF
   4.516000 1  18F157F3x       Rx   d 8 00 00 00 00 00 00 00 00
   4.879000 1  18F158F3x       Rx   d 8 00 00 00 00 00 00 00 00
   4.881000 1  18F159F3x       Rx   d 8 00 00 00 00 00 00 00 00
   4.883000 1  18F15AF3x       Rx   d 8 00 00 00 00 00 00 00 00
   4.885000 1  18F100F3x       Rx   d 8 03 01 85 EA BE FA 14 00
   4.887000 1  18F102F3x       Rx   d 8 0F 0A 0F 00 10 0C 00 0A
   4.888000 1  18F106F3x       Rx   d 8 45 E0 FC FF FF FF FF FF
   4.890000 1  CFF21CAx        Rx   d 8 B8 00 FF 15 47 41 00 24
   4.892000 1  18F155F3x       Rx   d 8 38 37 37 37 37 3A 39 00
   4.893000 1  18F157F3x       Rx   d 8 00 00 00 00 00 00 00 00
   4.895000 1  18F159F3x       Rx   d 8 00 00 00 00 00 00 00 00
   4.897000 1  18F15BF3x       Rx   d 7 00 00 00 00 00 00 00
   4.899000 1  18F15DF3x       Rx   d 8 00 00 00 00 00 00 00 00
   4.901000 1  CFF21CAx        Rx   d 8 B8 00 05 16 47 41 00 24
   4.903000 1  CFF21CAx        Rx   d 8 B8 00 05 16 47 41 00 24
   4.904000 1  18F100D0x       Rx   d 8 0C FF FF FF FF FF FF FF
   4.905000 1  18F104F3x       Rx   d 8 3A 37 06 02 03 FF FF FF
   4.906000 1  18F113F3x       Rx   d 8 0F 07 0F 04 0F 03 0F 07
   4.907000 1  18F114F3x       Rx   d 8 0F 03 0F 04 0F 05 0F 02
   4.909000 1  CFF21CAx        Rx   d 8 B7 00 0C 16 47 41 00 24
   5.269000 1  18F115F3x       Rx   d 8 0F 02 0F 02 0F 03 0F 00
   5.270000 1  18F116F3x       Rx   d 8 0F 07 0F 03 0F 07 0F 0A
   5.272000 1  18F15AF3x       Rx   d 8 00 00 00 00 00 00 00 00
   5.274000 1  18F15BF3x       Rx   d 7 00 00 00 00 00 00 00
   5.276000 1  18F15DF3x       Rx   d 8 00 00 00 00 00 00 00 00
   5.278000 1  CFF21CAx        Rx   d 8 B4 00 4C 16 47 41 00 24
   5.279000 1  18FECACAx       Rx   d 8 00 00 00 00 00 00 FF FF
   5.281000 1  CFF21CAx        Rx   d 8 B4 00 51 16 47 41 00 24
   5.283000 1  18F100D0x       Rx   d 8 0C FF FF FF FF FF FF FF
   5.285000 1  CFF21CAx        Rx   d 8 B4 00 51 16 47 41 00 24
   5.287000 1  CFF21CAx        Rx   d 8 B3 00 56 16 47 41 00 24
   5.288000 1  18F100D0x       Rx   d 8 0C FF FF FF FF FF FF FF
   5.291000 1  18FF2112x       Rx   d 8 01 00 00 00 00 00 00 00
   5.292000 1  CFF21CAx        Rx   d 8 B3 00 60 16 47 41 00 24
   5.294000 1  CFF21CAx        Rx   d 8 B3 00 69 16 47 41 00 24
   5.295000 1  18F100D0x       Rx   d 8 0C FF FF FF FF FF FF FF
   5.296000 1  CFF21CAx        Rx   d 8 B2 00 73 16 47 41 00 24
   5.297000 1  18F100D0x       Rx   d 8 0C FF FF FF FF FF FF FF
   5.298000 1  CFF21CAx        Rx   d 8 AF 00 9D 16 47 41 00 24
   5.662000 1  18FF2112x       Rx   d 8 01 00 00 00 00 00 00 00
   5.663000 1  CFF21CAx        Rx   d 8 AF 00 9E 16 47 41 00 24
   5.665000 1  18F100D0x       Rx   d 8 0C FF FF FF FF FF FF FF
   5.667000 1  CFF21CAx        Rx   d 8 AC 00 96 16 47 41 00 24
   5.669000 1  CFF21CAx        Rx   d 8 AC 00 94 16 47 41 00 24
   5.671000 1  18F100F3x       Rx   d 8 02 FE 85 2B BE FA 14 00
   5.672000 1  18F102F3x       Rx   d 8 0E FA 0E EF 11 0B 00 0B
   5.674000 1  18F106F3x       Rx   d 8 45 E0 FC FF FF FF FF FF
   5.677000 1  18F107F3x       Rx   d 8 38 A4 30 70 01 59 00 B8
   5.678000 1  18F108F3x       Rx   d 8 00 00 00 00 00 00 00 00
   5.681000 1  18F155F3x       Rx   d 8 38 37 37 38 37 3A 39 00
   5.682000 1  18F156F3x       Rx   d 8 00 00 00 00 00 00 00 00
   5.685000 1  18F157F3x       Rx   d 8 00 00 00 00 00 00 00 00
   5.691000 1  18F158F3x       Rx   d 8 00 00 00 00 00 00 00 00
   5.693000 1  CFF21CAx        Rx   d 8 AC 00 91 16 47 41 00 24
   5.696000 1  18F100D0x       Rx   d 8 0C FF FF FF FF FF FF FF
   5.697000 1  18F159F3x       Rx   d 8 00 00 00 00 00 00 00 00
   5.699000 1  18F108F3x       Rx   d 8 00 00 00 00 00 00 00 00
   5.701000 1  18F100D0x       Rx   d 8 0C FF FF FF FF FF FF FF
   5.703000 1  18F156F3x       Rx   d 8 00 00 00 00 00 00 00 00
   5.705000 1  18F159F3x       Rx   d 8 00 00 00 00 00 00 00 00
   5.706000 1  18F15BF3x       Rx   d 7 00 00 00 00 00 00 00
   5.708000 1  18F15DF3x       Rx   d 8 00 00 00 00 00 00 00 00
   5.710000 1  CFF21CAx        Rx   d 8 AF 00 96 16 47 41 00 24
   5.712000 1  CFF21CAx        Rx   d 8 AD 00 9F 16 47 41 00 24
   5.714000 1  18F100D0x       Rx   d 8 0C FF FF FF FF FF FF FF
   5.716000 1  CFF21CAx        Rx   d 8 AD 00 A1 16 47 41 00 24
   5.717000 1  CFF21CAx        Rx   d 8 AD 00 A6 16 47 41 00 24
   5.719000 1  18FF2112x       Rx   d 8 01 00 00 00 00 00 00 00
   5.721000 1  18F100D0x       Rx   d 8 0C FF FF FF FF FF FF FF
   5.722000 1  CFF21CAx        Rx   d 8 AC 00 A5 16 47 41 00 24
   5.723000 1  CFF21CAx        Rx   d 8 AC 00 B3 16 47 41 00 24
   5.724000 1  18F100D0x       Rx   d 8 0C FF FF FF FF FF FF FF
   5.725000 1  CFF21CAx        Rx   d 8 AC 00 B6 16 47 41 00 24
   5.727000 1  18F100F3x       Rx   d 8 02 FB 85 46 BE FA 14 00
   5.743000 1  18F102F3x       Rx   d 8 0E EF 0E E3 11 0B 00 0C
   5.748000 1  18F106F3x       Rx   d 8 45 E0 FC FF FF FF FF FF
   5.749000 1  CFF21CAx        Rx   d 8 A9 00 D6 16 47 41 00 24
   5.751000 1  CFF21CAx        Rx   d 8 A7 00 D2 16 47 41 00 24
   5.753000 1  18F100D0x       Rx   d 8 0C FF FF FF FF FF FF FF
   5.755000 1  CFF21CAx        Rx   d 8 A7 00 D1 16 47 41 00 24
   5.756000 1  CFF21CAx        Rx   d 8 A7 00 CE 16 47 41 00 24
   5.758000 1  18F100F3x       Rx   d 8 02 FB 85 46 BE FA 14 00
   5.760000 1  18F102F3x       Rx   d 8 0E EF 0E E3 11 0B 00 0C
   5.762000 1  18F106F3x       Rx   d 8 45 E0 FC FF FF FF FF FF
   5.763000 1  18F107F3x       Rx   d 8 38 A4 30 70 01 57 00 B7
   5.765000 1  18F108F3x       Rx   d 8 00 00 00 00 00 00 00 00
   5.766000 1  18F155F3x       Rx   d 8 38 37 37 37 37 3A 39 00
   5.767000 1  18F100D0x       Rx   d 8 0C FF FF FF FF FF FF FF
   5.769000 1  18F156F3x       Rx   d 8 00 00 00 00 00 00 00 00
   5.798000 1  18F157F3x       Rx   d 8 00 00 00 00 00 00 00 00
   5.802000 1  18F158F3x       Rx   d 8 00 00 00 00 00 00 00 00
   5.805000 1  18F159F3x       Rx   d 8 00 00 00 00 00 00 00 00
   5.807000 1  CFF21CAx        Rx   d 8 A7 00 D4 16 47 41 00 24
   5.809000 1  18F15AF3x       Rx   d 8 00 00 00 00 00 00 00 00
   5.810000 1  18F15BF3x       Rx   d 7 00 00 00 00 00 00 00
   5.812000 1  CFF21CAx        Rx   d 8 AA 00 D2 16 47 41 00 24
   5.815000 1  CFF21CAx        Rx   d 8 AB 00 DB 16 47 41 00 24
   5.816000 1  18F100D0x       Rx   d 8 0C FF FF FF FF FF FF FF
   5.818000 1  CFF21CAx        Rx   d 8 AB 00 E4 16 47 41 00 24
   5.820000 1  18FF2112x       Rx   d 8 01 00 00 00 00 00 00 00
   5.821000 1  CFF21CAx        Rx   d 8 A9 00 E7 16 47 41 00 24
   5.823000 1  18F100D0x       Rx   d 8 0C FF FF FF FF FF FF FF
   5.824000 1  CFF21CAx        Rx   d 8 A9 00 ED 16 47 41 00 24
   5.825000 1  CFF21CAx        Rx   d 8 A9 00 FB 16 47 41 00 24
   5.826000 1  18F100D0x       Rx   d 8 0C FF FF FF FF FF FF FF
   5.827000 1  CFF21CAx        Rx   d 8 A7 00 02 17 47 41 00 24
   5.829000 1  18F100F3x       Rx   d 8 02 FB 85 35 BE FA 14 00
   5.966000 1  18F102F3x       Rx   d 8 0E EF 0E E3 11 0B 00 0C
   5.972000 1  18F106F3x       Rx   d 8 45 E0 FC FF FF FF FF FF
   5.973000 1  18F100D0x       Rx   d 8 0C FF FF FF FF FF FF FF
   5.975000 1  18F127F3x       Rx   d 8 00 00 00 00 00 00 00 00
   5.977000 1  18F129F3x       Rx   d 8 00 00 00 00 00 00 00 00
   5.979000 1  18F12CF3x       Rx   d 8 00 00 00 00 00 00 00 00
   5.981000 1  CFF21CAx        Rx   d 8 A5 00 FB 16 47 41 00 24
   5.983000 1  18F130F3x       Rx   d 8 00 00 00 00 00 00 00 00
   5.985000 1  18F132F3x       Rx   d 8 00 00 00 00 00 00 00 00
   5.986000 1  18F134F3x       Rx   d 8 00 00 00 00 00 00 00 00
   5.988000 1  18F136F3x       Rx   d 8 00 00 00 00 00 00 00 00
   5.991000 1  18F138F3x       Rx   d 8 00 00 00 00 00 00 00 00
   5.992000 1  CFF21CAx        Rx   d 8 A5 00 FF 16 47 41 00 24
   5.994000 1  18F100D0x       Rx   d 8 0C FF FF FF FF FF FF FF
   5.996000 1  CFF21CAx        Rx   d 8 A5 00 FF 16 47 41 00 24
   5.997000 1  18F100F3x       Rx   d 8 02 FB 85 35 BE FA 14 00
   5.999000 1  CFF21CAx        Rx   d 8 A7 00 04 17 47 41 00 24
   6.000000 1  18F102F3x       Rx   d 8 0E EF 0E E3 11 0B 00 0C
   6.001000 1  18F106F3x       Rx   d 8 45 E0 FC FF FF FF FF FF
   6.002000 1  18F107F3x       Rx   d 8 38 A4 30 70 01 57 00 B7
   6.124000 1  18F100D0x       Rx   d 8 0C FF FF FF FF FF FF FF
   6.125000 1  18F108F3x       Rx   d 8 00 00 00 00 00 00 00 00
   6.127000 1  18F100D0x       Rx   d 8 0C FF FF FF FF FF FF FF
   6.129000 1  CFF21CAx        Rx   d 8 A3 00 20 17 47 41 00 24
   6.130000 1  CFF21CAx        Rx   d 8 A2 00 29 17 47 41 00 24
   6.133000 1  18F100D0x       Rx   d 8 0C FF FF FF FF FF FF FF
   6.135000 1  CFF21CAx        Rx   d 8 A2 00 2F 17 47 41 00 24
   6.137000 1  CFF21CAx        Rx   d 8 A2 00 35 17 47 41 00 24
   6.139000 1  18F100F3x       Rx   d 8 02 FA 85 21 BE FA 14 00
   6.141000 1  18F102F3x       Rx   d 8 0E EA 0E DD 11 0C 00 0D
   6.142000 1  18F106F3x       Rx   d 8 45 E0 FC FF FF FF FF FF
   6.144000 1  18F107F3x       Rx   d 8 38 A4 30 70 01 57 00 B7
   6.147000 1  18F108F3x       Rx   d 8 00 00 00 00 00 00 00 00
   6.148000 1  18F100D0x       Rx   d 8 0C FF FF FF FF FF FF FF
   6.149000 1  18F155F3x       Rx   d 8 38 37 37 38 37 3A 39 00
   6.150000 1  18F156F3x       Rx   d 8 00 00 00 00 00 00 00 00
   6.151000 1  18F157F3x       Rx   d 8 00 00 00 00 00 00 00 00
   6.153000 1  18F158F3x       Rx   d 8 00 00 00 00 00 00 00 00
   6.280000 1  CFF21CAx        Rx   d 8 A1 00 33 17 47 41 00 24
   6.281000 1  18F159F3x       Rx   d 8 00 00 00 00 00 00 00 00
   6.283000 1  18F15AF3x       Rx   d 8 00 00 00 00 00 00 00 00
   6.284000 1  CFF21CAx        Rx   d 8 A2 00 46 17 47 41 00 24
   6.286000 1  18F100D0x       Rx   d 8 0C FF FF FF FF FF FF FF
   6.288000 1  CFF21CAx        Rx   d 8 A1 00 49 17 47 41 00 24
   6.290000 1  CFF21CAx        Rx   d 8 A1 00 4C 17 47 41 00 24
   6.292000 1  18F100D0x       Rx   d 8 0C FF FF FF FF FF FF FF
   6.293000 1  CFF21CAx        Rx   d 8 A1 00 45 17 47 41 00 24
   6.295000 1  CFF21CAx        Rx   d 8 9E 00 47 17 47 41 00 24
   6.298000 1  18F100F3x       Rx   d 8 02 F9 84 98 BE FA 14 00
   6.299000 1  18F102F3x       Rx   d 8 0E E7 0E DA 11 03 00 0D
   6.301000 1  18F106F3x       Rx   d 8 45 E0 FC FF FF FF FF FF
   6.302000 1  18F100D0x       Rx   d 8 0C FF FF FF FF FF FF FF
   6.304000 1  18F107F3x       Rx   d 8 38 A4 30 70 01 56 00 B7
   6.305000 1  18F108F3x       Rx   d 8 00 00 00 00 00 00 00 00
   6.306000 1  18F155F3x       Rx   d 8 38 37 37 38 37 3A 39 00
   6.427000 1  CFF21CAx        Rx   d 8 9E 00 46 17 47 41 00 24
   6.429000 1  18F156F3x       Rx   d 8 00 00 00 00 00 00 00 00
   6.431000 1  18F157F3x       Rx   d 8 00 00 00 00 00 00 00 00
   6.432000 1  18F158F3x       Rx   d 8 00 00 00 00 00 00 00 00
   6.434000 1  18F159F3x       Rx   d 8 00 00 00 00 00 00 00 00
   6.436000 1  CFF21CAx        Rx   d 8 9A 00 49 17 47 41 00 24
   6.438000 1  18F100D0x       Rx   d 8 0C FF FF FF FF FF FF FF
   6.440000 1  CFF21CAx        Rx   d 8 9A 00 4C 17 47 41 00 24
   6.442000 1  CFF21CAx        Rx   d 8 9A 00 4C 17 47 41 00 24
   6.444000 1  18F100D0x       Rx   d 8 0C FF FF FF FF FF FF FF
   6.446000 1  CFF21CAx        Rx   d 8 99 00 49 17 47 41 00 24
   6.447000 1  CFF21CAx        Rx   d 8 99 00 47 17 47 41 00 24
   6.450000 1  18F100F3x       Rx   d 8 02 F9 84 5D BE FA 14 00
   6.451000 1  18F102F3x       Rx   d 8 0E E7 0E DA 11 03 00 0D
   6.452000 1  18F106F3x       Rx   d 8 45 E0 FC FF FF FF FF FF
   6.453000 1  18F107F3x       Rx   d 8 38 A4 30 70 01 56 00 B7
   6.455000 1  CFF21CAx        Rx   d 8 99 00 4C 17 47 41 00 24
   6.456000 1  18F100D0x       Rx   d 8 0C FF FF FF FF FF FF FF
   6.457000 1  18F108F3x       Rx   d 8 00 00 00 00 00 00 00 00
   6.595000 1  18F155F3x       Rx   d 8 38 37 37 38 37 3A 39 00
   6.597000 1  18F156F3x       Rx   d 8 00 00 00 00 00 00 00 00
   6.598000 1  18F157F3x       Rx   d 8 00 00 00 00 00 00 00 00
   6.601000 1  18F158F3x       Rx   d 8 00 00 00 00 00 00 00 00
   6.602000 1  18FF2112x       Rx   d 8 01 00 00 00 00 00 00 00
   6.603000 1  18F159F3x       Rx   d 8 00 00 00 00 00 00 00 00
   6.605000 1  18F15AF3x       Rx   d 8 00 00 00 00 00 00 00 00
   6.606000 1  18F15BF3x       Rx   d 7 00 00 00 00 00 00 00
   6.607000 1  18F15CF3x       Rx   d 8 00 00 00 00 00 00 00 00
   6.727000 1  18F15DF3x       Rx   d 8 00 00 00 00 00 00 00 00
   6.729000 1  18F15EF3x       Rx   d 8 00 00 00 00 00 00 00 00
   6.731000 1  CFF21CAx        Rx   d 8 9B 00 47 17 47 41 00 24
   6.733000 1  CFF21CAx        Rx   d 8 9B 00 48 17 47 41 00 24
   6.735000 1  18F100D0x       Rx   d 8 0C FF FF FF FF FF FF FF
   6.737000 1  CFF21CAx        Rx   d 8 9B 00 4C 17 47 41 00 24
   6.738000 1  18FECACAx       Rx   d 8 00 00 00 00 00 00 FF FF
   6.741000 1  CFF21CAx        Rx   d 8 9B 00 54 17 47 41 00 24
   6.742000 1  18F100D0x       Rx   d 8 0C FF FF FF FF FF FF FF
   6.744000 1  CFF21CAx        Rx   d 8 9B 00 57 17 47 41 00 24
   6.746000 1  CFF21CAx        Rx   d 8 9B 00 5F 17 47 41 00 24
   6.748000 1  18F100D0x       Rx   d 8 0C FF FF FF FF FF FF FF
   6.749000 1  CFF21CAx        Rx   d 8 9B 00 5D 17 47 41 00 24
   6.752000 1  18F100F3x       Rx   d 8 02 F9 84 50 BE FA 14 00
   6.753000 1  18F102F3x       Rx   d 8 0E E7 0E DA 11 03 00 0D
   6.755000 1  CFF21CAx        Rx   d 8 9B 00 58 17 47 41 00 24
   6.756000 1  18F106F3x       Rx   d 8 45 E0 FC FF FF FF FF FF
   6.757000 1  18F107F3x       Rx   d 8 38 A4 30 70 01 56 00 B7
   6.880000 1  18F108F3x       Rx   d 8 00 00 00 00 00 00 00 00
   6.881000 1  18F100D0x       Rx   d 8 0C FF FF FF FF FF FF FF
   6.883000 1  18F155F3x       Rx   d 8 38 37 37 38 37 3A 39 00
   6.885000 1  18FF2112x       Rx   d 8 01 00 00 00 00 00 00 00
   6.887000 1  18F156F3x       Rx   d 8 00 00 00 00 00 00 00 00
   6.889000 1  18F157F3x       Rx   d 8 00 00 00 00 00 00 00 00
   6.890000 1  18F158F3x       Rx   d 8 00 00 00 00 00 00 00 00
   6.892000 1  18F159F3x       Rx   d 8 00 00 00 00 00 00 00 00
   6.894000 1  18F15AF3x       Rx   d 8 00 00 00 00 00 00 00 00
   6.896000 1  18F15BF3x       Rx   d 7 00 00 00 00 00 00 00
   6.898000 1  18F15CF3x       Rx   d 8 00 00 00 00 00 00 00 00
   6.900000 1  CFF21CAx        Rx   d 8 9B 00 52 17 47 41 00 24
   6.901000 1  18F15DF3x       Rx   d 8 00 00 00 00 00 00 00 00
   6.903000 1  18F15EF3x       Rx   d 8 00 00 00 00 00 00 00 00
   6.905000 1  CFF21CAx        Rx   d 8 9B 00 54 17 47 41 00 24
   6.906000 1  18F100D0x       Rx   d 8 0C FF FF FF FF FF FF FF
   6.907000 1  CFF21CAx        Rx   d 8 9A 00 50 17 47 41 00 24
   6.908000 1  CFF21CAx        Rx   d 8 9A 00 52 17 47 41 00 24
   6.909000 1  18F100D0x       Rx   d 8 0C FF FF FF FF FF FF FF
   7.029000 1  CFF21CAx        Rx   d 8 9A 00 52 17 47 41 00 24
   7.031000 1  CFF21CAx        Rx   d 8 99 00 4F 17 47 41 00 24
   7.033000 1  18F100D0x       Rx   d 8 0C FF FF FF FF FF FF FF
   7.034000 1  CFF21CAx        Rx   d 8 99 00 4F 17 47 41 00 24
   7.037000 1  CFF21CAx        Rx   d 8 99 00 48 17 47 41 00 24
   7.039000 1  18F100F3x       Rx   d 8 02 F9 84 50 BE FA 14 00
   7.041000 1  18F102F3x       Rx   d 8 0E E7 0E DA 11 03 00 0D
   7.042000 1  18F106F3x       Rx   d 8 45 E0 FC FF FF FF FF FF
   7.044000 1  CFF21CAx        Rx   d 8 97 00 44 17 47 41 00 24
   7.046000 1  18F100D0x       Rx   d 8 0C FF FF FF FF FF FF FF
   7.048000 1  CFF21CAx        Rx   d 8 97 00 44 17 47 41 00 24
   7.050000 1  CFF21CAx        Rx   d 8 93 00 49 17 47 41 00 24
   7.051000 1  CFF21CAx        Rx   d 8 93 00 4E 17 47 41 00 24
   7.054000 1  18F100D0x       Rx   d 8 0C FF FF FF FF FF FF FF
   7.056000 1  CFF21CAx        Rx   d 8 8B 00 4E 17 47 41 00 24
   7.057000 1  18F100F3x       Rx   d 8 02 F9 84 50 BE FA 14 00
   7.058000 1  18F102F3x       Rx   d 8 0E E7 0E DA 11 03 00 0D
   7.060000 1  18FF2112x       Rx   d 8 01 00 00 00 00 00 00 00
   7.061000 1  18F106F3x       Rx   d 8 45 E0 FC FF FF FF FF FF
   7.062000 1  18F107F3x       Rx   d 8 38 A4 30 70 01 56 00 B7
   7.181000 1  18F108F3x       Rx   d 8 00 00 00 00 00 00 00 00
   7.184000 1  CFF21CAx        Rx   d 8 8B 00 4A 17 47 41 00 24
   7.186000 1  18F100D0x       Rx   d 8 0C FF FF FF FF FF FF FF
   7.187000 1  18F155F3x       Rx   d 8 38 37 37 38 37 3A 39 00
   7.189000 1  18F156F3x       Rx   d 8 00 00 00 00 00 00 00 00
   7.191000 1  18F157F3x       Rx   d 8 00 00 00 00 00 00 00 00
   7.193000 1  18F158F3x       Rx   d 8 00 00 00 00 00 00 00 00
   7.195000 1  18F159F3x       Rx   d 8 00 00 00 00 00 00 00 00
   7.197000 1  18FF2112x       Rx   d 8 01 00 00 00 00 00 00 00
   7.199000 1  18F100F3x       Rx   d 8 02 F9 83 25 BE FA 14 00
   7.200000 1  18F102F3x       Rx   d 8 0E E7 0E DA 11 03 00 0D
   7.201000 1  18F106F3x       Rx   d 8 45 E0 FC FF FF FF FF FF
   7.203000 1  CFF21CAx        Rx   d 8 67 00 15 17 47 41 00 24
   7.206000 1  18F108F3x       Rx   d 8 00 00 00 00 00 00 00 00
   7.207000 1  18F156F3x       Rx   d 8 00 00 00 00 00 00 00 00
   7.209000 1  18F158F3x       Rx   d 8 00 00 00 00 00 00 00 00
   7.210000 1  18F15AF3x       Rx   d 8 00 00 00 00 00 00 00 00
   7.211000 1  18F15DF3x       Rx   d 8 00 00 00 00 00 00 00 00
   7.328000 1  CFF21CAx        Rx   d 8 5B 00 07 17 47 41 00 24
   7.330000 1  18F100D0x       Rx   d 8 0C FF FF FF FF FF FF FF
   7.331000 1  CFF21CAx        Rx   d 8 5B 00 00 17 47 41 00 24
   7.333000 1  CFF21CAx        Rx   d 8 5B 00 F3 16 47 41 00 24
   7.335000 1  18F100D0x       Rx   d 8 0C FF FF FF FF FF FF FF
   7.337000 1  CFF21CAx        Rx   d 8 50 00 ED 16 47 41 00 24
   7.339000 1  CFF21CAx        Rx   d 8 50 00 DC 16 47 41 00 24
   7.341000 1  18F100D0x       Rx   d 8 0C FF FF FF FF FF FF FF
   7.343000 1  CFF21CAx        Rx   d 8 32 00 8F 16 47 41 00 24
   7.344000 1  18F100D0x       Rx   d 8 0C FF FF FF FF FF FF FF
   7.346000 1  CFF21CAx        Rx   d 8 32 00 84 16 47 41 00 24
   7.347000 1  CFF21CAx        Rx   d 8 2B 00 79 16 47 41 00 24
   7.348000 1  18F100D0x       Rx   d 8 0C FF FF FF FF FF FF FF
   7.350000 1  18FF2112x       Rx   d 8 01 00 00 00 00 00 00 00
   8.964000 1  CFF21CAx        Rx   d 8 2B 00 77 16 47 41 00 24
   8.967000 1  18F100F3x       Rx   d 8 02 F9 7E E4 BE FA 14 00
   8.969000 1  18F102F3x       Rx   d 8 0E E7 0E DA 11 03 00 0D
   8.971000 1  18F106F3x       Rx   d 8 45 E0 FC FF FF FF FF FF
   8.973000 1  18F107F3x       Rx   d 8 38 A4 30 70 01 56 00 B7
   8.975000 1  18F108F3x       Rx   d 8 00 00 00 00 00 00 00 00
   8.977000 1  18F155F3x       Rx   d 8 38 37 37 38 37 3A 39 00
   8.978000 1  18F156F3x       Rx   d 8 00 00 00 00 00 00 00 00
   8.980000 1  CFF21CAx        Rx   d 8 2B 00 70 16 47 41 00 24
   8.982000 1  18F157F3x       Rx   d 8 00 00 00 00 00 00 00 00
   8.984000 1  18F158F3x       Rx   d 8 00 00 00 00 00 00 00 00
   8.986000 1  18F100F3x       Rx   d 8 02 F9 7E E4 BE FA 14 00
   8.988000 1  18F106F3x       Rx   d 8 45 E0 FC FF FF FF FF FF
   8.990000 1  18F107F3x       Rx   d 8 38 A4 30 70 01 56 00 B7
   8.991000 1  18F108F3x       Rx   d 8 00 00 00 00 00 00 00 00
   8.992000 1  18F156F3x       Rx   d 8 00 00 00 00 00 00 00 00
   8.993000 1  18F158F3x       Rx   d 8 00 00 00 00 00 00 00 00
   8.994000 1  18F15AF3x       Rx   d 8 00 00 00 00 00 00 00 00
   8.996000 1  18F15CF3x       Rx   d 8 00 00 00 00 00 00 00 00
   9.115000 1  18F15EF3x       Rx   d 8 00 00 00 00 00 00 00 00
   9.117000 1  CFF21CAx        Rx   d 8 17 00 3A 16 47 41 00 24
   9.119000 1  18F104F3x       Rx   d 8 3A 37 06 02 03 FF FF FF
   9.121000 1  18F113F3x       Rx   d 8 0E E4 0E DC 0E DA 0E E1
   9.123000 1  18F114F3x       Rx   d 8 0E DD 0E DD 0E DF 0E DA
   9.125000 1  CFF21CAx        Rx   d 8 17 00 33 16 47 41 00 24
   9.126000 1  18F100D0x       Rx   d 8 0C FF FF FF FF FF FF FF
   9.128000 1  18F115F3x       Rx   d 8 0E DA 0E DB 0E DC 0E DA
   9.130000 1  18F116F3x       Rx   d 8 0E E2 0E DB 0E E1 0E E3
   9.132000 1  18F117F3x       Rx   d 8 0E E7 0E E4 0E E4 0E E2
   9.134000 1  18F118F3x       Rx   d 8 00 00 00 00 00 00 00 00
   9.136000 1  18F100D0x       Rx   d 8 0C FF FF FF FF FF FF FF
   9.139000 1  CFF21CAx        Rx   d 8 1A 00 F6 15 47 41 00 24
   9.140000 1  CFF21CAx        Rx   d 8 1F 00 E8 15 47 41 00 24
   9.141000 1  18FF2112x       Rx   d 8 01 00 00 00 00 00 00 00
   9.143000 1  18F100D0x       Rx   d 8 0C FF FF FF FF FF FF FF
   9.144000 1  CFF21CAx        Rx   d 8 1F 00 DF 15 47 41 00 24
   9.145000 1  18F100F3x       Rx   d 8 02 F9 7D 93 BE FA 14 00
   9.265000 1  18F102F3x       Rx   d 8 0E E7 0E DA 11 03 00 0D
   9.267000 1  18F106F3x       Rx   d 8 45 E0 FC FF FF FF FF FF
   9.268000 1  18F100F3x       Rx   d 8 02 F9 7D 93 BE FA 14 00
   9.270000 1  18F106F3x       Rx   d 8 45 E0 FC FF FF FF FF FF
   9.272000 1  18F107F3x       Rx   d 8 38 A4 30 70 01 56 00 B7
   9.274000 1  18F108F3x       Rx   d 8 00 00 00 00 00 00 00 00
   9.275000 1  18F156F3x       Rx   d 8 00 00 00 00 00 00 00 00
   9.277000 1  18F158F3x       Rx   d 8 00 00 00 00 00 00 00 00
   9.279000 1  18F15AF3x       Rx   d 8 00 00 00 00 00 00 00 00
   9.281000 1  18F15DF3x       Rx   d 8 00 00 00 00 00 00 00 00
   9.283000 1  CFF21CAx        Rx   d 8 2D 00 7E 15 47 41 00 24
   9.285000 1  18F100D0x       Rx   d 8 0C FF FF FF FF FF FF FF
   9.287000 1  CFF21CAx        Rx   d 8 2D 00 6F 15 47 41 00 24
End TriggerBlock
