date Sat May 09 08:32:59.622 2026
base hex  timestamps absolute
internal events logged
Begin Triggerblock Sat May 09 08:32:59.627 2026
 0.000000 Start of measurement
 0.000000 1  CFF21CAx        Rx   d 8 1E 00 3E 14 3A 35 00 18
 0.000148 1  18F100D0x       Rx   d 8 0C FF FF FF FF FF FF FF
 0.000258 1  CFF21CAx        Rx   d 8 1E 00 3B 14 3A 35 00 18
 0.010322 1  CFF21CAx        Rx   d 8 1E 00 42 14 3A 35 00 18
 0.018217 1  18F100D0x       Rx   d 8 0C FF FF FF FF FF FF FF
 0.021825 1  CFF21CAx        Rx   d 8 1E 00 41 14 3A 35 00 18
 0.024313 1  18FF2112x       Rx   d 8 01 00 00 00 00 00 00 00
 0.028131 1  18F100F3x       Rx   d 8 03 3E 7D 5C F9 FA 14 00
 0.029194 1  18F102F3x       Rx   d 8 10 3B 10 33 10 0C 00 08
 0.030395 1  18F106F3x       Rx   d 8 45 E0 FC FF FF FF FF FF
 0.031740 1  18F107F3x       Rx   d 8 38 A4 27 10 01 76 00 00
 0.033523 1  18F108F3x       Rx   d 8 10 00 04 00 00 00 00 01
 0.034317 1  CFF21CAx        Rx   d 8 1E 00 42 14 3A 35 00 18
 0.034825 1  18F155F3x       Rx   d 8 37 37 38 38 38 38 38 00
 0.035773 1  18F156F3x       Rx   d 8 00 00 00 00 00 00 00 00
 0.036703 1  18F157F3x       Rx   d 8 00 00 00 00 00 00 00 00
 0.037590 1  18F158F3x       Rx   d 8 00 00 00 00 00 00 00 00
 0.038439 1  18F159F3x       Rx   d 8 00 00 00 00 00 00 00 00
 0.039406 1  18F15AF3x       Rx   d 8 00 00 00 00 00 00 00 00
 0.040158 1  18F15BF3x       Rx   d 7 00 00 00 00 00 00 00
 0.041051 1  18F15CF3x       Rx   d 8 00 00 00 00 00 00 00 00
 0.041950 1  18F15DF3x       Rx   d 8 00 00 00 00 00 00 00 00
 0.042516 1  18F100D0x       Rx   d 8 0C FF FF FF FF FF FF FF
 0.043087 1  18F15EF3x       Rx   d 8 00 00 00 00 00 00 00 00
 0.045854 1  CFF21CAx        Rx   d 8 1D 00 42 14 3A 35 00 18
 0.058343 1  CFF21CAx        Rx   d 8 1D 00 42 14 3A 35 00 18
 0.066570 1  18F100D0x       Rx   d 8 0C FF FF FF FF FF FF FF
 0.070020 1  CFF21CAx        Rx   d 8 1D 00 40 14 3A 35 00 18
 0.082472 1  CFF21CAx        Rx   d 8 1D 00 3F 14 3A 35 00 18
 0.090524 1  18F100D0x       Rx   d 8 0C FF FF FF FF FF FF FF
 0.094134 1  CFF21CAx        Rx   d 8 1D 00 3C 14 3A 35 00 18
 0.106621 1  CFF21CAx        Rx   d 8 1D 00 40 14 3A 35 00 18
 0.114263 1  18F100D0x       Rx   d 8 0C FF FF FF FF FF FF FF
 0.118202 1  CFF21CAx        Rx   d 8 1D 00 3C 14 3A 35 00 18
 0.121607 1  18FF2112x       Rx   d 8 01 00 00 00 00 00 00 00
 0.128155 1  18F100F3x       Rx   d 8 03 3E 7D 5B F9 FA 14 00
 0.129239 1  18F102F3x       Rx   d 8 10 3B 10 33 10 0C 00 08
 0.130405 1  18F106F3x       Rx   d 8 45 E0 FC FF FF FF FF FF
 0.130964 1  CFF21CAx        Rx   d 8 1D 00 41 14 3A 35 00 18
 0.131695 1  18F107F3x       Rx   d 8 38 A4 27 10 01 76 00 00
 0.133461 1  18F108F3x       Rx   d 8 10 00 04 00 00 00 00 01
 0.134339 1  18F155F3x       Rx   d 8 37 37 38 38 38 38 38 00
 0.135292 1  18F156F3x       Rx   d 8 00 00 00 00 00 00 00 00
 0.136226 1  18F157F3x       Rx   d 8 00 00 00 00 00 00 00 00
 0.137102 1  18F158F3x       Rx   d 8 00 00 00 00 00 00 00 00
 0.138024 1  18F159F3x       Rx   d 8 00 00 00 00 00 00 00 00
 0.138728 1  18F100D0x       Rx   d 8 0C FF FF FF FF FF FF FF
 0.139312 1  18F15AF3x       Rx   d 8 00 00 00 00 00 00 00 00
 0.140198 1  18F15BF3x       Rx   d 7 00 00 00 00 00 00 00
 0.140992 1  18F15CF3x       Rx   d 8 00 00 00 00 00 00 00 00
 0.141874 1  18F15DF3x       Rx   d 8 00 00 00 00 00 00 00 00
 0.142622 1  CFF21CAx        Rx   d 8 1D 00 41 14 3A 35 00 18
 0.143196 1  18F15EF3x       Rx   d 8 00 00 00 00 00 00 00 00
 0.154745 1  CFF21CAx        Rx   d 8 1D 00 42 14 3A 35 00 18
 0.162425 1  18F100D0x       Rx   d 8 0C FF FF FF FF FF FF FF
 0.166437 1  CFF21CAx        Rx   d 8 1D 00 42 14 3A 35 00 18
 0.178813 1  CFF21CAx        Rx   d 8 1D 00 43 14 3A 35 00 18
 0.182490 1  18F100D0x       Rx   d 8 0C FF FF FF FF FF FF FF
 0.190648 1  CFF21CAx        Rx   d 8 1D 00 43 14 3A 35 00 18
 0.203164 1  CFF21CAx        Rx   d 8 1C 00 3B 14 3A 35 00 18
 0.216093 1  18F100D0x       Rx   d 8 0C FF FF FF FF FF FF FF
 0.216297 1  CFF21CAx        Rx   d 8 1C 00 3F 14 3A 35 00 18
 0.218893 1  18FF2112x       Rx   d 8 01 00 00 00 00 00 00 00
 0.226651 1  CFF21CAx        Rx   d 8 1D 00 3F 14 3A 35 00 18
 0.228132 1  18F100F3x       Rx   d 8 03 3E 7D 5B F9 FA 14 00
 0.229237 1  18F102F3x       Rx   d 8 10 3B 10 33 10 0C 00 08
 0.230451 1  18F106F3x       Rx   d 8 45 E0 FC FF FF FF FF FF
 0.231118 1  18F100D0x       Rx   d 8 0C FF FF FF FF FF FF FF
 0.231896 1  18F107F3x       Rx   d 8 38 A4 27 10 01 76 00 00
 0.233672 1  18F108F3x       Rx   d 8 10 00 04 00 00 00 00 01
 0.234546 1  18F155F3x       Rx   d 8 37 37 38 38 38 38 38 00
 0.235419 1  18F156F3x       Rx   d 8 00 00 00 00 00 00 00 00
 0.236330 1  18F157F3x       Rx   d 8 00 00 00 00 00 00 00 00
 0.237229 1  18F158F3x       Rx   d 8 00 00 00 00 00 00 00 00
 0.238074 1  18F159F3x       Rx   d 8 00 00 00 00 00 00 00 00
 0.238733 1  CFF21CAx        Rx   d 8 1D 00 3C 14 3A 35 00 18
 0.239303 1  18F15AF3x       Rx   d 8 00 00 00 00 00 00 00 00
 0.240119 1  18F15BF3x       Rx   d 7 00 00 00 00 00 00 00
 0.241031 1  18F15CF3x       Rx   d 8 00 00 00 00 00 00 00 00
 0.241847 1  18F15DF3x       Rx   d 8 00 00 00 00 00 00 00 00
 0.242747 1  18F15EF3x       Rx   d 8 00 00 00 00 00 00 00 00
 0.250686 1  CFF21CAx        Rx   d 8 1D 00 41 14 3A 35 00 18
 0.254771 1  18F100D0x       Rx   d 8 0C FF FF FF FF FF FF FF
 0.262800 1  CFF21CAx        Rx   d 8 1D 00 41 14 3A 35 00 18
 0.275236 1  CFF21CAx        Rx   d 8 1D 00 40 14 3A 35 00 18
 0.278863 1  18F100D0x       Rx   d 8 0C FF FF FF FF FF FF FF
 0.279431 1  18FECACAx       Rx   d 8 00 00 00 00 00 00 FF FF
 0.286932 1  CFF21CAx        Rx   d 8 1D 00 40 14 3A 35 00 18
 0.298947 1  CFF21CAx        Rx   d 8 1D 00 40 14 3A 35 00 18
 0.302915 1  18F100D0x       Rx   d 8 0C FF FF FF FF FF FF FF
 0.311049 1  CFF21CAx        Rx   d 8 1D 00 40 14 3A 35 00 18
 0.316297 1  18FF2112x       Rx   d 8 01 00 00 00 00 00 00 00
 0.323055 1  CFF21CAx        Rx   d 8 1D 00 3B 14 3A 35 00 18
 0.327044 1  18F100D0x       Rx   d 8 0C FF FF FF FF FF FF FF
 0.328252 1  18F100F3x       Rx   d 8 03 3E 7D 5B F9 FA 14 00
 0.329248 1  18F102F3x       Rx   d 8 10 3B 10 33 10 0C 00 08
 0.330470 1  18F106F3x       Rx   d 8 45 E0 FC FF FF FF FF FF
 0.331779 1  18F107F3x       Rx   d 8 38 A4 27 10 01 76 00 00
 0.333493 1  18F108F3x       Rx   d 8 10 00 04 00 00 00 00 01
 0.334367 1  18F155F3x       Rx   d 8 37 37 38 38 38 38 38 00
 0.335261 1  18F156F3x       Rx   d 8 00 00 00 00 00 00 00 00
 0.335814 1  CFF21CAx        Rx   d 8 1D 00 3B 14 3A 35 00 18
 0.336391 1  18F157F3x       Rx   d 8 00 00 00 00 00 00 00 00
 0.337312 1  18F158F3x       Rx   d 8 00 00 00 00 00 00 00 00
 0.338195 1  18F159F3x       Rx   d 8 00 00 00 00 00 00 00 00
 0.339266 1  18F15AF3x       Rx   d 8 00 00 00 00 00 00 00 00
 0.340013 1  18F15BF3x       Rx   d 7 00 00 00 00 00 00 00
 0.340920 1  18F15CF3x       Rx   d 8 00 00 00 00 00 00 00 00
 0.341835 1  18F15DF3x       Rx   d 8 00 00 00 00 00 00 00 00
 0.342704 1  18F15EF3x       Rx   d 8 00 00 00 00 00 00 00 00
 0.347157 1  CFF21CAx        Rx   d 8 1D 00 3F 14 3A 35 00 18
 0.351349 1  18F100D0x       Rx   d 8 0C FF FF FF FF FF FF FF
 0.359221 1  CFF21CAx        Rx   d 8 1E 00 41 14 3A 35 00 18
 0.371708 1  CFF21CAx        Rx   d 8 1E 00 42 14 3A 35 00 18
 0.375292 1  18F100D0x       Rx   d 8 0C FF FF FF FF FF FF FF
 0.383347 1  CFF21CAx        Rx   d 8 1D 00 42 14 3A 35 00 18
 0.395573 1  CFF21CAx        Rx   d 8 1D 00 41 14 3A 35 00 18
 0.399330 1  18F100D0x       Rx   d 8 0C FF FF FF FF FF FF FF
 0.407844 1  CFF21CAx        Rx   d 8 1D 00 3F 14 3A 35 00 18
 0.413646 1  18FF2112x       Rx   d 8 01 00 00 00 00 00 00 00
 0.419587 1  CFF21CAx        Rx   d 8 1E 00 3A 14 3A 35 00 18
 0.432008 1  18F100D0x       Rx   d 8 0C FF FF FF FF FF FF FF
 0.432158 1  18F100F3x       Rx   d 8 03 3E 7D 5B F9 FA 14 00
 0.432284 1  18F102F3x       Rx   d 8 10 3B 10 33 10 0C 00 08
 0.432409 1  18F106F3x       Rx   d 8 45 E0 FC FF FF FF FF FF
 0.432525 1  18F107F3x       Rx   d 8 38 A4 27 10 01 76 00 00
 0.432645 1  CFF21CAx        Rx   d 8 1E 00 3F 14 3A 35 00 18
 0.433495 1  18F108F3x       Rx   d 8 10 00 04 00 00 00 00 01
 0.434379 1  18F155F3x       Rx   d 8 37 37 38 38 38 38 38 00
 0.435257 1  18F156F3x       Rx   d 8 00 00 00 00 00 00 00 00
 0.436188 1  18F157F3x       Rx   d 8 00 00 00 00 00 00 00 00
 0.437047 1  18F158F3x       Rx   d 8 00 00 00 00 00 00 00 00
 0.437964 1  18F159F3x       Rx   d 8 00 00 00 00 00 00 00 00
 0.439234 1  18F15AF3x       Rx   d 8 00 00 00 00 00 00 00 00
 0.439945 1  18F15BF3x       Rx   d 7 00 00 00 00 00 00 00
 0.440853 1  18F15CF3x       Rx   d 8 00 00 00 00 00 00 00 00
 0.441752 1  18F15DF3x       Rx   d 8 00 00 00 00 00 00 00 00
 0.442629 1  18F15EF3x       Rx   d 8 00 00 00 00 00 00 00 00
 0.443506 1  CFF21CAx        Rx   d 8 1E 00 3B 14 3A 35 00 18
 0.444060 1  18F100D0x       Rx   d 8 0C FF FF FF FF FF FF FF
 0.455992 1  CFF21CAx        Rx   d 8 1E 00 41 14 3A 35 00 18
 0.468100 1  CFF21CAx        Rx   d 8 1E 00 41 14 3A 35 00 18
 0.468593 1  18F100D0x       Rx   d 8 0C FF FF FF FF FF FF FF
 0.480191 1  CFF21CAx        Rx   d 8 1F 00 43 14 3A 35 00 18
 0.491752 1  CFF21CAx        Rx   d 8 1F 00 41 14 3A 35 00 18
 0.492275 1  18F100D0x       Rx   d 8 0C FF FF FF FF FF FF FF
 0.504289 1  CFF21CAx        Rx   d 8 1F 00 41 14 3A 35 00 18
 0.510765 1  18FF2112x       Rx   d 8 01 00 00 00 00 00 00 00
 0.515906 1  CFF21CAx        Rx   d 8 1E 00 3F 14 3A 35 00 18
 0.520469 1  18F100D0x       Rx   d 8 0C FF FF FF FF FF FF FF
 0.528239 1  18F100F3x       Rx   d 8 03 3E 7D 5B F9 FA 14 00
 0.528709 1  CFF21CAx        Rx   d 8 1E 00 3F 14 3A 35 00 18
 0.529226 1  18F102F3x       Rx   d 8 10 3B 10 33 10 0C 00 08
 0.530553 1  18F106F3x       Rx   d 8 45 E0 FC FF FF FF FF FF
 0.531894 1  18F107F3x       Rx   d 8 38 A4 27 10 01 76 00 00
 0.533625 1  18F108F3x       Rx   d 8 10 00 04 00 00 00 00 01
 0.534616 1  18F155F3x       Rx   d 8 37 37 38 38 38 38 38 00
 0.535383 1  18F156F3x       Rx   d 8 00 00 00 00 00 00 00 00
 0.536327 1  18F157F3x       Rx   d 8 00 00 00 00 00 00 00 00
 0.537233 1  18F158F3x       Rx   d 8 00 00 00 00 00 00 00 00
 0.538058 1  18F159F3x       Rx   d 8 00 00 00 00 00 00 00 00
 0.539316 1  18F15AF3x       Rx   d 8 00 00 00 00 00 00 00 00
 0.539979 1  CFF21CAx        Rx   d 8 1E 00 39 14 3A 35 00 18
 0.540517 1  18F100D0x       Rx   d 8 0C FF FF FF FF FF FF FF
 0.541071 1  18F15BF3x       Rx   d 7 00 00 00 00 00 00 00
 0.541928 1  18F15CF3x       Rx   d 8 00 00 00 00 00 00 00 00
 0.542790 1  18F15DF3x       Rx   d 8 00 00 00 00 00 00 00 00
 0.543646 1  18F15EF3x       Rx   d 8 00 00 00 00 00 00 00 00
 0.552504 1  CFF21CAx        Rx   d 8 1E 00 3F 14 3A 35 00 18
 0.564620 1  CFF21CAx        Rx   d 8 1E 00 41 14 3A 35 00 18
 0.565088 1  18F100D0x       Rx   d 8 0C FF FF FF FF FF FF FF
 0.576807 1  CFF21CAx        Rx   d 8 1E 00 3B 14 3A 35 00 18
 0.588267 1  CFF21CAx        Rx   d 8 1E 00 40 14 3A 35 00 18
 0.588688 1  18F100D0x       Rx   d 8 0C FF FF FF FF FF FF FF
 0.600766 1  CFF21CAx        Rx   d 8 1E 00 41 14 3A 35 00 18
 0.608030 1  18FF2112x       Rx   d 8 01 00 00 00 00 00 00 00
 0.612632 1  CFF21CAx        Rx   d 8 1F 00 3D 14 3A 35 00 18
 0.613216 1  18F100D0x       Rx   d 8 0C FF FF FF FF FF FF FF
 0.624888 1  CFF21CAx        Rx   d 8 1F 00 40 14 3A 35 00 18
 0.627690 1  18F104F3x       Rx   d 8 38 37 03 01 01 FF FF FF
 0.628795 1  18F100F3x       Rx   d 8 03 3E 7D 5B F9 FA 14 00
 0.629603 1  18F102F3x       Rx   d 8 10 3B 10 33 10 0C 00 08
 0.630984 1  18F106F3x       Rx   d 8 45 E0 FC FF FF FF FF FF
 0.632246 1  18F107F3x       Rx   d 8 38 A4 27 10 01 76 00 00
 0.634224 1  18F108F3x       Rx   d 8 10 00 04 00 00 00 00 01
 0.635111 1  18F113F3x       Rx   d 8 10 36 10 36 10 36 10 36
 0.645394 1  18F114F3x       Rx   d 8 10 35 10 34 10 37 10 37
 0.645562 1  CFF21CAx        Rx   d 8 1F 00 40 14 3A 35 00 18
 0.645694 1  18F100D0x       Rx   d 8 0C FF FF FF FF FF FF FF
 0.645827 1  18F115F3x       Rx   d 8 10 34 10 35 10 35 10 33
 0.645953 1  18F116F3x       Rx   d 8 10 38 10 36 10 39 10 3B
 0.646074 1  18F117F3x       Rx   d 8 10 36 10 36 10 3A 10 39
 0.646192 1  18F118F3x       Rx   d 8 00 00 00 00 00 00 00 00
 0.646310 1  18F119F3x       Rx   d 8 00 00 00 00 00 00 00 00
 0.646426 1  18F11AF3x       Rx   d 8 00 00 00 00 00 00 00 00
 0.646559 1  18F11BF3x       Rx   d 8 00 00 00 00 00 00 00 00
 0.646794 1  18F11CF3x       Rx   d 8 00 00 00 00 00 00 00 00
 0.646922 1  18F11DF3x       Rx   d 8 00 00 00 00 00 00 00 00
 0.647027 1  18F11EF3x       Rx   d 8 00 00 00 00 00 00 00 00
 0.647933 1  18F11FF3x       Rx   d 8 00 00 00 00 00 00 00 00
 0.648764 1  CFF21CAx        Rx   d 8 1F 00 40 14 3A 35 00 18
 0.649364 1  18F120F3x       Rx   d 8 00 00 00 00 00 00 00 00
 0.650284 1  18F121F3x       Rx   d 8 00 00 00 00 00 00 00 00
 0.651239 1  18F122F3x       Rx   d 8 00 00 00 00 00 00 00 00
 0.652133 1  18F123F3x       Rx   d 8 00 00 00 00 00 00 00 00
 0.653048 1  18F124F3x       Rx   d 8 00 00 00 00 00 00 00 00
 0.654076 1  18F125F3x       Rx   d 8 00 00 00 00 00 00 00 00
 0.655017 1  18F126F3x       Rx   d 8 00 00 00 00 00 00 00 00
 0.655998 1  18F127F3x       Rx   d 8 00 00 00 00 00 00 00 00
 0.656932 1  18F128F3x       Rx   d 8 00 00 00 00 00 00 00 00
 0.657899 1  18F129F3x       Rx   d 8 00 00 00 00 00 00 00 00
 0.659092 1  18F12AF3x       Rx   d 8 00 00 00 00 00 00 00 00
 0.660032 1  18F12BF3x       Rx   d 8 00 00 00 00 00 00 00 00
 0.660784 1  CFF21CAx        Rx   d 8 1F 00 3A 14 3A 35 00 18
 0.661330 1  18F100D0x       Rx   d 8 0C FF FF FF FF FF FF FF
 0.661917 1  18F12CF3x       Rx   d 8 00 00 00 00 00 00 00 00
 0.662884 1  18F12DF3x       Rx   d 8 00 00 00 00 00 00 00 00
 0.663802 1  18F12EF3x       Rx   d 8 00 00 00 00 00 00 00 00
 0.664787 1  18F12FF3x       Rx   d 8 00 00 00 00 00 00 00 00
 0.665660 1  18F130F3x       Rx   d 8 00 00 00 00 00 00 00 00
 0.666544 1  18F131F3x       Rx   d 8 00 00 00 00 00 00 00 00
 0.667426 1  18F132F3x       Rx   d 8 00 00 00 00 00 00 00 00
 0.668351 1  18F133F3x       Rx   d 8 00 00 00 00 00 00 00 00
 0.669241 1  18F134F3x       Rx   d 8 00 00 00 00 00 00 00 00
 0.670120 1  18F135F3x       Rx   d 8 00 00 00 00 00 00 00 00
 0.671047 1  18F136F3x       Rx   d 8 00 00 00 00 00 00 00 00
 0.671997 1  18F137F3x       Rx   d 8 00 00 00 00 00 00 00 00
 0.672882 1  18F138F3x       Rx   d 8 00 00 00 00 00 00 00 00
 0.673456 1  CFF21CAx        Rx   d 8 1F 00 3E 14 3A 35 00 18
 0.674047 1  18F139F3x       Rx   d 8 00 00 00 00 00 00 00 00
 0.674953 1  18F13AF3x       Rx   d 8 00 00 00 00 00 00 00 00
 0.675866 1  18F13BF3x       Rx   d 8 00 00 00 00 00 00 00 00
 0.676764 1  18F13CF3x       Rx   d 8 00 00 00 00 00 00 00 00
 0.677650 1  18F155F3x       Rx   d 8 37 37 38 38 38 38 38 00
 0.678531 1  18F156F3x       Rx   d 8 00 00 00 00 00 00 00 00
 0.679425 1  18F157F3x       Rx   d 8 00 00 00 00 00 00 00 00
 0.680285 1  18F158F3x       Rx   d 8 00 00 00 00 00 00 00 00
 0.681217 1  18F159F3x       Rx   d 8 00 00 00 00 00 00 00 00
 0.682062 1  18F15AF3x       Rx   d 8 00 00 00 00 00 00 00 00
 0.682916 1  18F15BF3x       Rx   d 7 00 00 00 00 00 00 00
 0.683826 1  18F15CF3x       Rx   d 8 00 00 00 00 00 00 00 00
 0.684474 1  CFF21CAx        Rx   d 8 1F 00 3E 14 3A 35 00 18
 0.685052 1  18F100D0x       Rx   d 8 0C FF FF FF FF FF FF FF
 0.685635 1  18F15DF3x       Rx   d 8 00 00 00 00 00 00 00 00
 0.686466 1  18F15EF3x       Rx   d 8 00 00 00 00 00 00 00 00
 0.696965 1  CFF21CAx        Rx   d 8 1F 00 42 14 3A 35 00 18
 0.705309 1  18FF2112x       Rx   d 8 01 00 00 00 00 00 00 00
 0.708997 1  CFF21CAx        Rx   d 8 1F 00 40 14 3A 35 00 18
 0.709566 1  18F100D0x       Rx   d 8 0C FF FF FF FF FF FF FF
 0.721330 1  CFF21CAx        Rx   d 8 1F 00 3F 14 3A 35 00 18
 0.728251 1  18F100F3x       Rx   d 8 03 3E 7D 5B F9 FA 14 00
 0.729274 1  18F102F3x       Rx   d 8 10 3B 10 33 10 0C 00 08
 0.730495 1  18F106F3x       Rx   d 8 45 E0 FC FF FF FF FF FF
 0.731791 1  18F107F3x       Rx   d 8 38 A4 27 10 01 76 00 00
 0.733227 1  CFF21CAx        Rx   d 8 1F 00 3F 14 3A 35 00 18
 0.733695 1  18F100D0x       Rx   d 8 0C FF FF FF FF FF FF FF
 0.734295 1  18F108F3x       Rx   d 8 10 00 04 00 00 00 00 01
 0.735240 1  18F155F3x       Rx   d 8 37 37 38 38 38 38 38 00
 0.736064 1  18F156F3x       Rx   d 8 00 00 00 00 00 00 00 00
 0.736981 1  18F157F3x       Rx   d 8 00 00 00 00 00 00 00 00
 0.737909 1  18F158F3x       Rx   d 8 00 00 00 00 00 00 00 00
 0.739093 1  18F159F3x       Rx   d 8 00 00 00 00 00 00 00 00
 0.740052 1  18F15AF3x       Rx   d 8 00 00 00 00 00 00 00 00
 0.740867 1  18F15BF3x       Rx   d 7 00 00 00 00 00 00 00
 0.741837 1  18F15CF3x       Rx   d 8 00 00 00 00 00 00 00 00
 0.742618 1  18F15DF3x       Rx   d 8 00 00 00 00 00 00 00 00
 0.743538 1  18F15EF3x       Rx   d 8 00 00 00 00 00 00 00 00
 0.745240 1  CFF21CAx        Rx   d 8 1F 00 40 14 3A 35 00 18
 0.757251 1  CFF21CAx        Rx   d 8 1F 00 38 14 3A 35 00 18
 0.757814 1  18F100D0x       Rx   d 8 0C FF FF FF FF FF FF FF
 0.769558 1  CFF21CAx        Rx   d 8 1F 00 3D 14 3A 35 00 18
 0.781051 1  CFF21CAx        Rx   d 8 1F 00 3B 14 3A 35 00 18
 0.781474 1  18F100D0x       Rx   d 8 0C FF FF FF FF FF FF FF
 0.793459 1  CFF21CAx        Rx   d 8 1F 00 3E 14 3A 35 00 18
 0.802792 1  18FF2112x       Rx   d 8 01 00 00 00 00 00 00 00
 0.805075 1  CFF21CAx        Rx   d 8 1E 00 40 14 3A 35 00 18
 0.805615 1  18F100D0x       Rx   d 8 0C FF FF FF FF FF FF FF
 0.817516 1  CFF21CAx        Rx   d 8 1E 00 41 14 3A 35 00 18
 0.825573 1  18F100D0x       Rx   d 8 0C FF FF FF FF FF FF FF
 0.828360 1  18F100F3x       Rx   d 8 03 3E 7D 5A F9 FA 14 00
 0.829219 1  18F102F3x       Rx   d 8 10 3B 10 33 10 0C 00 08
 0.829717 1  CFF21CAx        Rx   d 8 1E 00 3D 14 3A 35 00 18
 0.830413 1  18F106F3x       Rx   d 8 45 E0 FC FF FF FF FF FF
 0.831713 1  18F107F3x       Rx   d 8 38 A4 27 10 01 76 00 00
 0.833485 1  18F108F3x       Rx   d 8 10 00 04 00 00 00 00 01
 0.834368 1  18F155F3x       Rx   d 8 37 37 38 38 38 38 38 00
 0.835364 1  18F156F3x       Rx   d 8 00 00 00 00 00 00 00 00
 0.836455 1  18F157F3x       Rx   d 8 00 00 00 00 00 00 00 00
 0.837104 1  18F158F3x       Rx   d 8 00 00 00 00 00 00 00 00
 0.838083 1  18F159F3x       Rx   d 8 00 00 00 00 00 00 00 00
 0.839258 1  18F15AF3x       Rx   d 8 00 00 00 00 00 00 00 00
 0.840155 1  18F15BF3x       Rx   d 7 00 00 00 00 00 00 00
 0.841014 1  18F15CF3x       Rx   d 8 00 00 00 00 00 00 00 00
 0.841730 1  CFF21CAx        Rx   d 8 1F 00 40 14 3A 35 00 18
 0.842198 1  18F15DF3x       Rx   d 8 00 00 00 00 00 00 00 00
 0.843088 1  18F15EF3x       Rx   d 8 00 00 00 00 00 00 00 00
 0.849946 1  18F100D0x       Rx   d 8 0C FF FF FF FF FF FF FF
 0.863450 1  CFF21CAx        Rx   d 8 1F 00 3E 14 3A 35 00 18
 0.865678 1  CFF21CAx        Rx   d 8 1F 00 3E 14 3A 35 00 18
 0.873784 1  18F100D0x       Rx   d 8 0C FF FF FF FF FF FF FF
 0.877248 1  CFF21CAx        Rx   d 8 1E 00 40 14 3A 35 00 18
 0.889856 1  CFF21CAx        Rx   d 8 1E 00 3D 14 3A 35 00 18
 0.898018 1  18F100D0x       Rx   d 8 0C FF FF FF FF FF FF FF
 0.899807 1  18FF2112x       Rx   d 8 01 00 00 00 00 00 00 00
 0.901408 1  CFF21CAx        Rx   d 8 1E 00 3E 14 3A 35 00 18
 0.913914 1  CFF21CAx        Rx   d 8 1E 00 38 14 3A 35 00 18
 0.921929 1  18F100D0x       Rx   d 8 0C FF FF FF FF FF FF FF
 0.925471 1  CFF21CAx        Rx   d 8 1E 00 3E 14 3A 35 00 18
 0.929327 1  18F100F3x       Rx   d 8 03 3E 7D 5A F9 FA 14 00
 0.930216 1  18F102F3x       Rx   d 8 10 3B 10 33 10 0C 00 08
 0.931459 1  18F106F3x       Rx   d 8 45 E0 FC FF FF FF FF FF
 0.932739 1  18F107F3x       Rx   d 8 38 A4 27 10 01 76 00 00
 0.934530 1  18F108F3x       Rx   d 8 10 00 04 00 00 00 00 01
 0.935359 1  18F155F3x       Rx   d 8 37 37 38 38 38 38 38 00
 0.936267 1  18F156F3x       Rx   d 8 00 00 00 00 00 00 00 00
 0.937240 1  18F157F3x       Rx   d 8 00 00 00 00 00 00 00 00
 0.938024 1  CFF21CAx        Rx   d 8 1E 00 40 14 3A 35 00 18
 0.938582 1  18F158F3x       Rx   d 8 00 00 00 00 00 00 00 00
 0.939452 1  18F159F3x       Rx   d 8 00 00 00 00 00 00 00 00
 0.940333 1  18F15AF3x       Rx   d 8 00 00 00 00 00 00 00 00
 0.941197 1  18F15BF3x       Rx   d 7 00 00 00 00 00 00 00
 0.942044 1  18F15CF3x       Rx   d 8 00 00 00 00 00 00 00 00
 0.942923 1  18F15DF3x       Rx   d 8 00 00 00 00 00 00 00 00
 0.943789 1  18F15EF3x       Rx   d 8 00 00 00 00 00 00 00 00
 0.946005 1  18F100D0x       Rx   d 8 0C FF FF FF FF FF FF FF
 0.949944 1  CFF21CAx        Rx   d 8 1E 00 3E 14 3A 35 00 18
 0.962263 1  CFF21CAx        Rx   d 8 1E 00 3F 14 3A 35 00 18
 0.970250 1  18F100D0x       Rx   d 8 0C FF FF FF FF FF FF FF
 0.973716 1  CFF21CAx        Rx   d 8 1F 00 40 14 3A 35 00 18
 0.986339 1  CFF21CAx        Rx   d 8 1F 00 3C 14 3A 35 00 18
 0.989747 1  18F100D0x       Rx   d 8 0C FF FF FF FF FF FF FF
 0.997253 1  18FF2112x       Rx   d 8 01 00 00 00 00 00 00 00
 0.997785 1  CFF21CAx        Rx   d 8 1F 00 3B 14 3A 35 00 18
 1.010307 1  CFF21CAx        Rx   d 8 1F 00 3D 14 3A 35 00 18
 1.014046 1  18F100D0x       Rx   d 8 0C FF FF FF FF FF FF FF
 1.021943 1  CFF21CAx        Rx   d 8 1F 00 3A 14 3A 35 00 18
 1.029424 1  18F100F3x       Rx   d 8 03 3E 7D 5A F9 FA 14 00
 1.030202 1  18F102F3x       Rx   d 8 10 3B 10 33 10 0C 00 08
 1.031535 1  18F106F3x       Rx   d 8 45 E0 FC FF FF FF FF FF
 1.032818 1  18F107F3x       Rx   d 8 38 A4 27 10 01 76 00 00
 1.034674 1  CFF21CAx        Rx   d 8 1F 00 3A 14 3A 35 00 18
 1.035128 1  18F108F3x       Rx   d 8 10 00 04 00 00 00 00 01
 1.036065 1  18F155F3x       Rx   d 8 37 37 38 38 38 38 38 00
 1.037066 1  18F156F3x       Rx   d 8 00 00 00 00 00 00 00 00
 1.037937 1  18F157F3x       Rx   d 8 00 00 00 00 00 00 00 00
 1.039163 1  18F158F3x       Rx   d 8 00 00 00 00 00 00 00 00
 1.040023 1  18F159F3x       Rx   d 8 00 00 00 00 00 00 00 00
 1.040958 1  18F15AF3x       Rx   d 8 00 00 00 00 00 00 00 00
 1.041832 1  18F15BF3x       Rx   d 7 00 00 00 00 00 00 00
 1.042383 1  18F100D0x       Rx   d 8 0C FF FF FF FF FF FF FF
 1.043159 1  18F15CF3x       Rx   d 8 00 00 00 00 00 00 00 00
 1.043929 1  18F15DF3x       Rx   d 8 00 00 00 00 00 00 00 00
 1.044837 1  18F15EF3x       Rx   d 8 00 00 00 00 00 00 00 00
 1.046424 1  CFF21CAx        Rx   d 8 1F 00 41 14 3A 35 00 18
 1.058486 1  CFF21CAx        Rx   d 8 1F 00 40 14 3A 35 00 18
 1.066540 1  18F100D0x       Rx   d 8 0C FF FF FF FF FF FF FF
 1.082620 1  CFF21CAx        Rx   d 8 1F 00 3F 14 3A 35 00 18
 1.082747 1  CFF21CAx        Rx   d 8 1F 00 3E 14 3A 35 00 18
 1.086178 1  18F100D0x       Rx   d 8 0C FF FF FF FF FF FF FF
 1.094188 1  CFF21CAx        Rx   d 8 1F 00 39 14 3A 35 00 18
 1.094777 1  18FF2112x       Rx   d 8 01 00 00 00 00 00 00 00
 1.106258 1  CFF21CAx        Rx   d 8 1F 00 3D 14 3A 35 00 18
 1.110282 1  18F100D0x       Rx   d 8 0C FF FF FF FF FF FF FF
 1.118255 1  CFF21CAx        Rx   d 8 1F 00 3A 14 3A 35 00 18
 1.129407 1  18F100F3x       Rx   d 8 03 3E 7D 5B F9 FA 14 00
 1.130223 1  18F102F3x       Rx   d 8 10 3B 10 33 10 0C 00 08
 1.130880 1  CFF21CAx        Rx   d 8 1E 00 3E 14 3A 35 00 18
 1.131429 1  18F106F3x       Rx   d 8 45 E0 FC FF FF FF FF FF
 1.132737 1  18F107F3x       Rx   d 8 38 A4 27 10 01 76 00 00
 1.134517 1  18F108F3x       Rx   d 8 10 00 04 00 00 00 00 01
 1.135077 1  18F100D0x       Rx   d 8 0C FF FF FF FF FF FF FF
 1.135650 1  18F155F3x       Rx   d 8 37 37 38 38 38 38 38 00
 1.136594 1  18F156F3x       Rx   d 8 00 00 00 00 00 00 00 00
 1.137453 1  18F157F3x       Rx   d 8 00 00 00 00 00 00 00 00
 1.138327 1  18F158F3x       Rx   d 8 00 00 00 00 00 00 00 00
 1.139284 1  18F159F3x       Rx   d 8 00 00 00 00 00 00 00 00
 1.140232 1  18F15AF3x       Rx   d 8 00 00 00 00 00 00 00 00
 1.141018 1  18F15BF3x       Rx   d 7 00 00 00 00 00 00 00
 1.141922 1  18F15CF3x       Rx   d 8 00 00 00 00 00 00 00 00
 1.142740 1  CFF21CAx        Rx   d 8 1E 00 3B 14 3A 35 00 18
 1.143313 1  18F15DF3x       Rx   d 8 00 00 00 00 00 00 00 00
 1.144209 1  18F15EF3x       Rx   d 8 00 00 00 00 00 00 00 00
 1.154483 1  CFF21CAx        Rx   d 8 1E 00 3B 14 3A 35 00 18
 1.158464 1  18F100D0x       Rx   d 8 0C FF FF FF FF FF FF FF
 1.166502 1  CFF21CAx        Rx   d 8 1E 00 40 14 3A 35 00 18
 1.179008 1  CFF21CAx        Rx   d 8 1E 00 42 14 3A 35 00 18
 1.182524 1  18F100D0x       Rx   d 8 0C FF FF FF FF FF FF FF
 1.190740 1  CFF21CAx        Rx   d 8 1E 00 40 14 3A 35 00 18
 1.191743 1  18FF2112x       Rx   d 8 01 00 00 00 00 00 00 00
 1.202661 1  CFF21CAx        Rx   d 8 1E 00 3B 14 3A 35 00 18
 1.206647 1  18F100D0x       Rx   d 8 0C FF FF FF FF FF FF FF
 1.214612 1  CFF21CAx        Rx   d 8 1E 00 3F 14 3A 35 00 18
 1.227233 1  CFF21CAx        Rx   d 8 1E 00 3F 14 3A 35 00 18
 1.229448 1  18F100F3x       Rx   d 8 03 3E 7D 5B F9 FA 14 00
 1.230360 1  18F102F3x       Rx   d 8 10 3B 10 33 10 0C 00 08
 1.231193 1  18F100D0x       Rx   d 8 0C FF FF FF FF FF FF FF
 1.231704 1  18F106F3x       Rx   d 8 45 E0 FC FF FF FF FF FF
 1.233156 1  18F107F3x       Rx   d 8 38 A4 27 10 01 76 00 00
 1.235012 1  18F108F3x       Rx   d 8 10 00 04 00 00 00 00 01
 1.235894 1  18F155F3x       Rx   d 8 37 37 38 38 38 38 38 00
 1.236779 1  18F156F3x       Rx   d 8 00 00 00 00 00 00 00 00
 1.237666 1  18F157F3x       Rx   d 8 00 00 00 00 00 00 00 00
 1.238536 1  18F158F3x       Rx   d 8 00 00 00 00 00 00 00 00
 1.239245 1  CFF21CAx        Rx   d 8 1E 00 39 14 3A 35 00 18
 1.239657 1  18F159F3x       Rx   d 8 00 00 00 00 00 00 00 00
 1.240688 1  18F15AF3x       Rx   d 8 00 00 00 00 00 00 00 00
 1.241500 1  18F15BF3x       Rx   d 7 00 00 00 00 00 00 00
 1.242378 1  18F15CF3x       Rx   d 8 00 00 00 00 00 00 00 00
 1.243216 1  18F15DF3x       Rx   d 8 00 00 00 00 00 00 00 00
 1.243958 1  18F15EF3x       Rx   d 8 00 00 00 00 00 00 00 00
 1.250803 1  CFF21CAx        Rx   d 8 1D 00 42 14 3A 35 00 18
 1.254985 1  18F100D0x       Rx   d 8 0C FF FF FF FF FF FF FF
 1.262982 1  CFF21CAx        Rx   d 8 1D 00 40 14 3A 35 00 18
 1.274950 1  CFF21CAx        Rx   d 8 1D 00 3F 14 3A 35 00 18
 1.278911 1  18F100D0x       Rx   d 8 0C FF FF FF FF FF FF FF
 1.287134 1  CFF21CAx        Rx   d 8 1D 00 40 14 3A 35 00 18
 1.300932 1  18FF2112x       Rx   d 8 01 00 00 00 00 00 00 00
 1.301064 1  18FECACAx       Rx   d 8 00 00 00 00 00 00 FF FF
 1.301169 1  CFF21CAx        Rx   d 8 1D 00 41 14 3A 35 00 18
 1.303050 1  18F100D0x       Rx   d 8 0C FF FF FF FF FF FF FF
 1.311030 1  CFF21CAx        Rx   d 8 1D 00 3C 14 3A 35 00 18
 1.323201 1  CFF21CAx        Rx   d 8 1E 00 3C 14 3A 35 00 18
 1.327130 1  18F100D0x       Rx   d 8 0C FF FF FF FF FF FF FF
 1.329396 1  18F100F3x       Rx   d 8 03 3E 7D 5B F9 FA 14 00
 1.330230 1  18F102F3x       Rx   d 8 10 3B 10 33 10 0C 00 08
 1.331416 1  18F106F3x       Rx   d 8 45 E0 FC FF FF FF FF FF
 1.332938 1  18F107F3x       Rx   d 8 38 A4 27 10 01 76 00 00
 1.334548 1  18F108F3x       Rx   d 8 10 00 04 00 00 00 00 01
 1.335419 1  18F155F3x       Rx   d 8 37 37 38 38 38 38 38 00
 1.335967 1  CFF21CAx        Rx   d 8 1E 00 3D 14 3A 35 00 18
 1.336543 1  18F156F3x       Rx   d 8 00 00 00 00 00 00 00 00
 1.337439 1  18F157F3x       Rx   d 8 00 00 00 00 00 00 00 00
 1.338309 1  18F158F3x       Rx   d 8 00 00 00 00 00 00 00 00
 1.339265 1  18F159F3x       Rx   d 8 00 00 00 00 00 00 00 00
 1.340189 1  18F15AF3x       Rx   d 8 00 00 00 00 00 00 00 00
 1.340974 1  18F15BF3x       Rx   d 7 00 00 00 00 00 00 00
 1.341873 1  18F15CF3x       Rx   d 8 00 00 00 00 00 00 00 00
 1.342776 1  18F15DF3x       Rx   d 8 00 00 00 00 00 00 00 00
 1.343650 1  18F15EF3x       Rx   d 8 00 00 00 00 00 00 00 00
 1.347169 1  CFF21CAx        Rx   d 8 1E 00 3F 14 3A 35 00 18
 1.351223 1  18F100D0x       Rx   d 8 0C FF FF FF FF FF FF FF
 1.359676 1  CFF21CAx        Rx   d 8 1E 00 41 14 3A 35 00 18
 1.371329 1  CFF21CAx        Rx   d 8 1E 00 40 14 3A 35 00 18
 1.375346 1  18F100D0x       Rx   d 8 0C FF FF FF FF FF FF FF
 1.383742 1  CFF21CAx        Rx   d 8 1F 00 40 14 3A 35 00 18
 1.386182 1  18FF2112x       Rx   d 8 01 00 00 00 00 00 00 00
 1.395462 1  CFF21CAx        Rx   d 8 1F 00 3F 14 3A 35 00 18
 1.399894 1  18F100D0x       Rx   d 8 0C FF FF FF FF FF FF FF
 1.407522 1  CFF21CAx        Rx   d 8 1F 00 3E 14 3A 35 00 18
 1.419677 1  CFF21CAx        Rx   d 8 1E 00 40 14 3A 35 00 18
 1.420122 1  18F100D0x       Rx   d 8 0C FF FF FF FF FF FF FF
 1.429427 1  18F100F3x       Rx   d 8 03 3E 7D 5B F9 FA 14 00
 1.430286 1  18F102F3x       Rx   d 8 10 3B 10 33 10 0C 00 08
 1.431536 1  18F106F3x       Rx   d 8 45 E0 FC FF FF FF FF FF
 1.432032 1  CFF21CAx        Rx   d 8 1E 00 40 14 3A 35 00 18
 1.432772 1  18F107F3x       Rx   d 8 38 A4 27 10 01 76 00 00
 1.434744 1  18F108F3x       Rx   d 8 10 00 04 00 00 00 00 01
 1.435462 1  18F155F3x       Rx   d 8 37 37 38 38 38 38 38 00
 1.436353 1  18F156F3x       Rx   d 8 00 00 00 00 00 00 00 00
 1.437262 1  18F157F3x       Rx   d 8 00 00 00 00 00 00 00 00
 1.438226 1  18F158F3x       Rx   d 8 00 00 00 00 00 00 00 00
 1.439339 1  18F159F3x       Rx   d 8 00 00 00 00 00 00 00 00
 1.440267 1  18F15AF3x       Rx   d 8 00 00 00 00 00 00 00 00
 1.440980 1  18F15BF3x       Rx   d 7 00 00 00 00 00 00 00
 1.441947 1  18F15CF3x       Rx   d 8 00 00 00 00 00 00 00 00
 1.442791 1  18F15DF3x       Rx   d 8 00 00 00 00 00 00 00 00
 1.443639 1  18F15EF3x       Rx   d 8 00 00 00 00 00 00 00 00
 1.444252 1  CFF21CAx        Rx   d 8 1E 00 3E 14 3A 35 00 18
 1.444774 1  18F100D0x       Rx   d 8 0C FF FF FF FF FF FF FF
 1.455784 1  CFF21CAx        Rx   d 8 1E 00 39 14 3A 35 00 18
 1.468084 1  CFF21CAx        Rx   d 8 1E 00 3E 14 3A 35 00 18
 1.468606 1  18F100D0x       Rx   d 8 0C FF FF FF FF FF FF FF
 1.480305 1  CFF21CAx        Rx   d 8 1F 00 40 14 3A 35 00 18
 1.483440 1  18FF2112x       Rx   d 8 01 00 00 00 00 00 00 00
 1.491918 1  CFF21CAx        Rx   d 8 1F 00 3F 14 3A 35 00 18
 1.492470 1  18F100D0x       Rx   d 8 0C FF FF FF FF FF FF FF
 1.504290 1  CFF21CAx        Rx   d 8 1F 00 3F 14 3A 35 00 18
 1.521188 1  18F100D0x       Rx   d 8 0C FF FF FF FF FF FF FF
 1.521322 1  CFF21CAx        Rx   d 8 20 00 41 14 3A 35 00 18
 1.528378 1  CFF21CAx        Rx   d 8 20 00 3F 14 3A 35 00 18
 1.529383 1  18F100F3x       Rx   d 8 03 3E 7D 5B F9 FA 14 00
 1.530257 1  18F102F3x       Rx   d 8 10 3B 10 33 10 0C 00 08
 1.531534 1  18F106F3x       Rx   d 8 45 E0 FC FF FF FF FF FF
 1.532818 1  18F107F3x       Rx   d 8 38 A4 27 10 01 76 00 00
 1.534615 1  18F108F3x       Rx   d 8 10 00 04 00 00 00 00 01
 1.535479 1  18F155F3x       Rx   d 8 37 37 38 38 38 38 38 00
 1.536338 1  18F156F3x       Rx   d 8 00 00 00 00 00 00 00 00
 1.536906 1  18F100D0x       Rx   d 8 0C FF FF FF FF FF FF FF
 1.537497 1  18F157F3x       Rx   d 8 00 00 00 00 00 00 00 00
 1.538367 1  18F158F3x       Rx   d 8 00 00 00 00 00 00 00 00
 1.539295 1  18F159F3x       Rx   d 8 00 00 00 00 00 00 00 00
 1.540203 1  18F15AF3x       Rx   d 8 00 00 00 00 00 00 00 00
 1.540697 1  CFF21CAx        Rx   d 8 20 00 3C 14 3A 35 00 18
 1.541251 1  18F15BF3x       Rx   d 7 00 00 00 00 00 00 00
 1.542107 1  18F15CF3x       Rx   d 8 00 00 00 00 00 00 00 00
 1.543039 1  18F15DF3x       Rx   d 8 00 00 00 00 00 00 00 00
 1.543915 1  18F15EF3x       Rx   d 8 00 00 00 00 00 00 00 00
 1.552442 1  CFF21CAx        Rx   d 8 20 00 3D 14 3A 35 00 18
 1.564322 1  CFF21CAx        Rx   d 8 20 00 3D 14 3A 35 00 18
 1.564684 1  18F100D0x       Rx   d 8 0C FF FF FF FF FF FF FF
 1.576630 1  CFF21CAx        Rx   d 8 20 00 42 14 3A 35 00 18
 1.580751 1  18FF2112x       Rx   d 8 01 00 00 00 00 00 00 00
 1.584623 1  18F100D0x       Rx   d 8 0C FF FF FF FF FF FF FF
 1.588231 1  CFF21CAx        Rx   d 8 20 00 40 14 3A 35 00 18
 1.600866 1  CFF21CAx        Rx   d 8 20 00 40 14 3A 35 00 18
 1.608760 1  18F100D0x       Rx   d 8 0C FF FF FF FF FF FF FF
 1.612320 1  CFF21CAx        Rx   d 8 20 00 3F 14 3A 35 00 18
 1.624801 1  CFF21CAx        Rx   d 8 20 00 41 14 3A 35 00 18
 1.627667 1  18F104F3x       Rx   d 8 38 37 03 01 01 FF FF FF
 1.628622 1  18F113F3x       Rx   d 8 10 36 10 36 10 36 10 36
 1.629651 1  18F100F3x       Rx   d 8 03 3E 7D 5C F9 FA 14 00
 1.630170 1  18F102F3x       Rx   d 8 10 3B 10 33 10 0C 00 08
 1.631469 1  18F106F3x       Rx   d 8 45 E0 FC FF FF FF FF FF
 1.632819 1  18F100D0x       Rx   d 8 0C FF FF FF FF FF FF FF
 1.633406 1  18F107F3x       Rx   d 8 38 A4 27 10 01 76 00 00
 1.635267 1  18F108F3x       Rx   d 8 10 00 04 00 00 00 00 01
 1.636205 1  18F114F3x       Rx   d 8 10 35 10 34 10 37 10 37
 1.636830 1  CFF21CAx        Rx   d 8 20 00 41 14 3A 35 00 18
 1.637372 1  18F115F3x       Rx   d 8 10 34 10 34 10 35 10 33
 1.638310 1  18F116F3x       Rx   d 8 10 38 10 36 10 39 10 3B
 1.639342 1  18F117F3x       Rx   d 8 10 36 10 36 10 3A 10 39
 1.640277 1  18F118F3x       Rx   d 8 00 00 00 00 00 00 00 00
 1.641226 1  18F119F3x       Rx   d 8 00 00 00 00 00 00 00 00
 1.642274 1  18F11AF3x       Rx   d 8 00 00 00 00 00 00 00 00
 1.643234 1  18F11BF3x       Rx   d 8 00 00 00 00 00 00 00 00
 1.644216 1  18F11CF3x       Rx   d 8 00 00 00 00 00 00 00 00
 1.645071 1  18F11DF3x       Rx   d 8 00 00 00 00 00 00 00 00
 1.646110 1  18F11EF3x       Rx   d 8 00 00 00 00 00 00 00 00
 1.647073 1  18F11FF3x       Rx   d 8 00 00 00 00 00 00 00 00
 1.647988 1  18F120F3x       Rx   d 8 00 00 00 00 00 00 00 00
 1.648815 1  CFF21CAx        Rx   d 8 1F 00 3F 14 3A 35 00 18
 1.649408 1  18F121F3x       Rx   d 8 00 00 00 00 00 00 00 00
 1.650376 1  18F122F3x       Rx   d 8 00 00 00 00 00 00 00 00
 1.651334 1  18F123F3x       Rx   d 8 00 00 00 00 00 00 00 00
 1.652184 1  18F124F3x       Rx   d 8 00 00 00 00 00 00 00 00
 1.653160 1  18F125F3x       Rx   d 8 00 00 00 00 00 00 00 00
 1.654097 1  18F126F3x       Rx   d 8 00 00 00 00 00 00 00 00
 1.655119 1  18F127F3x       Rx   d 8 00 00 00 00 00 00 00 00
 1.655925 1  18F128F3x       Rx   d 8 00 00 00 00 00 00 00 00
 1.656898 1  18F100D0x       Rx   d 8 0C FF FF FF FF FF FF FF
 1.657401 1  18F129F3x       Rx   d 8 00 00 00 00 00 00 00 00
 1.658300 1  18F12AF3x       Rx   d 8 00 00 00 00 00 00 00 00
 1.659322 1  18F12BF3x       Rx   d 8 00 00 00 00 00 00 00 00
 1.660270 1  18F12CF3x       Rx   d 8 00 00 00 00 00 00 00 00
 1.660749 1  CFF21CAx        Rx   d 8 1F 00 3E 14 3A 35 00 18
 1.661351 1  18F12DF3x       Rx   d 8 00 00 00 00 00 00 00 00
 1.662320 1  18F12EF3x       Rx   d 8 00 00 00 00 00 00 00 00
 1.663186 1  18F12FF3x       Rx   d 8 00 00 00 00 00 00 00 00
 1.664112 1  18F130F3x       Rx   d 8 00 00 00 00 00 00 00 00
 1.665033 1  18F131F3x       Rx   d 8 00 00 00 00 00 00 00 00
 1.665913 1  18F132F3x       Rx   d 8 00 00 00 00 00 00 00 00
 1.666850 1  18F133F3x       Rx   d 8 00 00 00 00 00 00 00 00
 1.667908 1  18F134F3x       Rx   d 8 00 00 00 00 00 00 00 00
 1.668678 1  18F135F3x       Rx   d 8 00 00 00 00 00 00 00 00
 1.669581 1  18F136F3x       Rx   d 8 00 00 00 00 00 00 00 00
 1.670470 1  18F137F3x       Rx   d 8 00 00 00 00 00 00 00 00
 1.671332 1  18F138F3x       Rx   d 8 00 00 00 00 00 00 00 00
 1.672208 1  18F139F3x       Rx   d 8 00 00 00 00 00 00 00 00
 1.672996 1  CFF21CAx        Rx   d 8 1F 00 41 14 3A 35 00 18
 1.673503 1  18F13AF3x       Rx   d 8 00 00 00 00 00 00 00 00
 1.674360 1  18F13BF3x       Rx   d 8 00 00 00 00 00 00 00 00
 1.675333 1  18F13CF3x       Rx   d 8 00 00 00 00 00 00 00 00
 1.676129 1  18F155F3x       Rx   d 8 37 37 38 38 38 38 38 00
 1.677052 1  18F156F3x       Rx   d 8 00 00 00 00 00 00 00 00
 1.678006 1  18FF2112x       Rx   d 8 01 00 00 00 00 00 00 00
 1.678554 1  18F157F3x       Rx   d 8 00 00 00 00 00 00 00 00
 1.679435 1  18F158F3x       Rx   d 8 00 00 00 00 00 00 00 00
 1.680367 1  18F159F3x       Rx   d 8 00 00 00 00 00 00 00 00
 1.681007 1  18F100D0x       Rx   d 8 0C FF FF FF FF FF FF FF
 1.681574 1  18F15AF3x       Rx   d 8 00 00 00 00 00 00 00 00
 1.682393 1  18F15BF3x       Rx   d 7 00 00 00 00 00 00 00
 1.683210 1  18F15CF3x       Rx   d 8 00 00 00 00 00 00 00 00
 1.684059 1  18F15DF3x       Rx   d 8 00 00 00 00 00 00 00 00
 1.684937 1  CFF21CAx        Rx   d 8 1F 00 3D 14 3A 35 00 18
 1.685470 1  18F15EF3x       Rx   d 8 00 00 00 00 00 00 00 00
 1.697074 1  CFF21CAx        Rx   d 8 1F 00 3C 14 3A 35 00 18
 1.705113 1  18F100D0x       Rx   d 8 0C FF FF FF FF FF FF FF
 1.708723 1  CFF21CAx        Rx   d 8 1F 00 3F 14 3A 35 00 18
 1.721299 1  CFF21CAx        Rx   d 8 1F 00 3F 14 3A 35 00 18
 1.740015 1  18F100D0x       Rx   d 8 0C FF FF FF FF FF FF FF
 1.740161 1  18F100F3x       Rx   d 8 03 3E 7D 5C F9 FA 14 00
 1.740272 1  18F102F3x       Rx   d 8 10 3B 10 33 10 0C 00 08
 1.740377 1  18F106F3x       Rx   d 8 45 E0 FC FF FF FF FF FF
 1.740479 1  CFF21CAx        Rx   d 8 1F 00 43 14 3A 35 00 18
 1.740578 1  18F107F3x       Rx   d 8 38 A4 27 10 01 76 00 00
 1.740674 1  18F108F3x       Rx   d 8 10 00 04 00 00 00 00 01
 1.740774 1  18F155F3x       Rx   d 8 37 37 38 38 38 38 38 00
 1.740925 1  18F156F3x       Rx   d 8 00 00 00 00 00 00 00 00
 1.741053 1  18F157F3x       Rx   d 8 00 00 00 00 00 00 00 00
 1.741160 1  18F158F3x       Rx   d 8 00 00 00 00 00 00 00 00
 1.741262 1  18F159F3x       Rx   d 8 00 00 00 00 00 00 00 00
 1.741361 1  18F15AF3x       Rx   d 8 00 00 00 00 00 00 00 00
 1.741931 1  18F15BF3x       Rx   d 7 00 00 00 00 00 00 00
 1.742835 1  18F15CF3x       Rx   d 8 00 00 00 00 00 00 00 00
 1.743691 1  18F15DF3x       Rx   d 8 00 00 00 00 00 00 00 00
 1.744509 1  18F15EF3x       Rx   d 8 00 00 00 00 00 00 00 00
 1.745230 1  CFF21CAx        Rx   d 8 1F 00 42 14 3A 35 00 18
 1.753335 1  18F100D0x       Rx   d 8 0C FF FF FF FF FF FF FF
 1.756910 1  CFF21CAx        Rx   d 8 1F 00 41 14 3A 35 00 18
 1.769433 1  CFF21CAx        Rx   d 8 1F 00 40 14 3A 35 00 18
 1.775319 1  18FF2112x       Rx   d 8 01 00 00 00 00 00 00 00
 1.777362 1  18F100D0x       Rx   d 8 0C FF FF FF FF FF FF FF
 1.780969 1  CFF21CAx        Rx   d 8 1E 00 41 14 3A 35 00 18
 1.793655 1  CFF21CAx        Rx   d 8 1E 00 41 14 3A 35 00 18
 1.801629 1  18F100D0x       Rx   d 8 0C FF FF FF FF FF FF FF
 1.805433 1  CFF21CAx        Rx   d 8 1E 00 41 14 3A 35 00 18
 1.817636 1  CFF21CAx        Rx   d 8 1E 00 3E 14 3A 35 00 18
 1.825611 1  18F100D0x       Rx   d 8 0C FF FF FF FF FF FF FF
 1.829265 1  CFF21CAx        Rx   d 8 1E 00 40 14 3A 35 00 18
 1.829727 1  18F100F3x       Rx   d 8 03 3E 7D 5C F9 FA 14 00
 1.830618 1  18F102F3x       Rx   d 8 10 3B 10 33 10 0C 00 08
 1.831898 1  18F106F3x       Rx   d 8 45 E0 FC FF FF FF FF FF
 1.833231 1  18F107F3x       Rx   d 8 38 A4 27 10 01 76 00 00
 1.835023 1  18F108F3x       Rx   d 8 10 00 04 00 00 00 00 01
 1.835950 1  18F155F3x       Rx   d 8 37 37 38 38 38 38 38 00
 1.836900 1  18F156F3x       Rx   d 8 00 00 00 00 00 00 00 00
 1.837721 1  18F157F3x       Rx   d 8 00 00 00 00 00 00 00 00
 1.838584 1  18F158F3x       Rx   d 8 00 00 00 00 00 00 00 00
 1.839505 1  18F159F3x       Rx   d 8 00 00 00 00 00 00 00 00
 1.840332 1  18F15AF3x       Rx   d 8 00 00 00 00 00 00 00 00
 1.841168 1  18F15BF3x       Rx   d 7 00 00 00 00 00 00 00
 1.841716 1  CFF21CAx        Rx   d 8 1E 00 41 14 3A 35 00 18
 1.842298 1  18F15CF3x       Rx   d 8 00 00 00 00 00 00 00 00
 1.843262 1  18F15DF3x       Rx   d 8 00 00 00 00 00 00 00 00
 1.844029 1  18F15EF3x       Rx   d 8 00 00 00 00 00 00 00 00
 1.849760 1  18F100D0x       Rx   d 8 0C FF FF FF FF FF FF FF
 1.853297 1  CFF21CAx        Rx   d 8 1E 00 43 14 3A 35 00 18
 1.865876 1  CFF21CAx        Rx   d 8 1E 00 42 14 3A 35 00 18
 1.872738 1  18FF2112x       Rx   d 8 01 00 00 00 00 00 00 00
 1.873880 1  18F100D0x       Rx   d 8 0C FF FF FF FF FF FF FF
 1.877396 1  CFF21CAx        Rx   d 8 1E 00 41 14 3A 35 00 18
 1.889942 1  CFF21CAx        Rx   d 8 1E 00 41 14 3A 35 00 18
 1.893550 1  18F100D0x       Rx   d 8 0C FF FF FF FF FF FF FF
 1.901575 1  CFF21CAx        Rx   d 8 1E 00 41 14 3A 35 00 18
 1.913988 1  CFF21CAx        Rx   d 8 1E 00 41 14 3A 35 00 18
 1.917487 1  18F100D0x       Rx   d 8 0C FF FF FF FF FF FF FF
 1.926106 1  CFF21CAx        Rx   d 8 1E 00 41 14 3A 35 00 18
 1.929486 1  18F100F3x       Rx   d 8 03 3E 7D 5C F9 FA 14 00
 1.930264 1  18F102F3x       Rx   d 8 10 3B 10 33 10 0C 00 08
 1.931528 1  18F106F3x       Rx   d 8 45 E0 FC FF FF FF FF FF
 1.932831 1  18F107F3x       Rx   d 8 38 A4 27 10 01 76 00 00
 1.934627 1  18F108F3x       Rx   d 8 10 00 04 00 00 00 00 01
 1.935424 1  18F155F3x       Rx   d 8 37 37 38 38 38 38 38 00
 1.936360 1  18F156F3x       Rx   d 8 00 00 00 00 00 00 00 00
 1.937230 1  18F157F3x       Rx   d 8 00 00 00 00 00 00 00 00
 1.938034 1  CFF21CAx        Rx   d 8 1D 00 3A 14 3A 35 00 18
 1.938583 1  18F158F3x       Rx   d 8 00 00 00 00 00 00 00 00
 1.939525 1  18F159F3x       Rx   d 8 00 00 00 00 00 00 00 00
 1.940357 1  18F15AF3x       Rx   d 8 00 00 00 00 00 00 00 00
 1.941200 1  18F15BF3x       Rx   d 7 00 00 00 00 00 00 00
 1.941763 1  18F100D0x       Rx   d 8 0C FF FF FF FF FF FF FF
 1.942331 1  18F15CF3x       Rx   d 8 00 00 00 00 00 00 00 00
 1.943219 1  18F15DF3x       Rx   d 8 00 00 00 00 00 00 00 00
 1.944056 1  18F15EF3x       Rx   d 8 00 00 00 00 00 00 00 00
 1.960427 1  CFF21CAx        Rx   d 8 1D 00 3F 14 3A 35 00 18
 1.962246 1  CFF21CAx        Rx   d 8 1D 00 3D 14 3A 35 00 18
 1.965723 1  18F100D0x       Rx   d 8 0C FF FF FF FF FF FF FF
 1.969800 1  18FF2112x       Rx   d 8 01 00 00 00 00 00 00 00
 1.973741 1  CFF21CAx        Rx   d 8 1D 00 41 14 3A 35 00 18
 1.986438 1  CFF21CAx        Rx   d 8 1D 00 41 14 3A 35 00 18
 1.986968 1  18F100D0x       Rx   d 8 0C FF FF FF FF FF FF FF
 1.997933 1  CFF21CAx        Rx   d 8 1D 00 43 14 3A 35 00 18
 2.010445 1  CFF21CAx        Rx   d 8 1D 00 41 14 3A 35 00 18
 2.013990 1  18F100D0x       Rx   d 8 0C FF FF FF FF FF FF FF
 2.022015 1  CFF21CAx        Rx   d 8 1D 00 40 14 3A 35 00 18
 2.029503 1  18F100F3x       Rx   d 8 03 3E 7D 5C F9 FA 14 00
 2.030280 1  18F102F3x       Rx   d 8 10 3B 10 33 10 0C 00 08
 2.031563 1  18F106F3x       Rx   d 8 45 E0 FC FF FF FF FF FF
 2.032853 1  18F107F3x       Rx   d 8 38 A4 27 10 01 76 00 00
 2.034520 1  CFF21CAx        Rx   d 8 1D 00 3F 14 3A 35 00 18
 2.035070 1  18F100D0x       Rx   d 8 0C FF FF FF FF FF FF FF
 2.035655 1  18F108F3x       Rx   d 8 10 00 04 00 00 00 00 01
 2.036540 1  18F155F3x       Rx   d 8 37 37 38 38 38 38 38 00
 2.037449 1  18F156F3x       Rx   d 8 00 00 00 00 00 00 00 00
 2.038322 1  18F157F3x       Rx   d 8 00 00 00 00 00 00 00 00
 2.039328 1  18F158F3x       Rx   d 8 00 00 00 00 00 00 00 00
 2.040354 1  18F159F3x       Rx   d 8 00 00 00 00 00 00 00 00
 2.041073 1  18F15AF3x       Rx   d 8 00 00 00 00 00 00 00 00
 2.041925 1  18F15BF3x       Rx   d 7 00 00 00 00 00 00 00
 2.043085 1  18F15CF3x       Rx   d 8 00 00 00 00 00 00 00 00
 2.043684 1  18F15DF3x       Rx   d 8 00 00 00 00 00 00 00 00
 2.044540 1  18F15EF3x       Rx   d 8 00 00 00 00 00 00 00 00
 2.046051 1  CFF21CAx        Rx   d 8 1D 00 3E 14 3A 35 00 18
 2.058633 1  CFF21CAx        Rx   d 8 1D 00 38 14 3A 35 00 18
 2.062139 1  18F100D0x       Rx   d 8 0C FF FF FF FF FF FF FF
 2.067144 1  18FF2112x       Rx   d 8 01 00 00 00 00 00 00 00
 2.070261 1  CFF21CAx        Rx   d 8 1D 00 41 14 3A 35 00 18
 2.082631 1  CFF21CAx        Rx   d 8 1D 00 40 14 3A 35 00 18
 2.083199 1  18F100D0x       Rx   d 8 0C FF FF FF FF FF FF FF
 2.094258 1  CFF21CAx        Rx   d 8 1D 00 3F 14 3A 35 00 18
 2.106749 1  CFF21CAx        Rx   d 8 1D 00 40 14 3A 35 00 18
 2.107320 1  18F100D0x       Rx   d 8 0C FF FF FF FF FF FF FF
 2.119936 1  CFF21CAx        Rx   d 8 1D 00 40 14 3A 35 00 18
 2.129469 1  18F100F3x       Rx   d 8 03 3E 7D 5A F9 FA 14 00
 2.130300 1  18F102F3x       Rx   d 8 10 3B 10 33 10 0C 00 08
 2.130870 1  CFF21CAx        Rx   d 8 1D 00 3C 14 3A 35 00 18
 2.131374 1  18F100D0x       Rx   d 8 0C FF FF FF FF FF FF FF
 2.131946 1  18F106F3x       Rx   d 8 45 E0 FC FF FF FF FF FF
 2.133358 1  18F107F3x       Rx   d 8 38 A4 27 10 01 76 00 00
 2.135097 1  18F108F3x       Rx   d 8 10 00 04 00 00 00 00 01
 2.136116 1  18F155F3x       Rx   d 8 37 37 38 38 38 38 38 00
 2.137054 1  18F156F3x       Rx   d 8 00 00 00 00 00 00 00 00
 2.137988 1  18F157F3x       Rx   d 8 00 00 00 00 00 00 00 00
 2.139186 1  18F158F3x       Rx   d 8 00 00 00 00 00 00 00 00
 2.140170 1  18F159F3x       Rx   d 8 00 00 00 00 00 00 00 00
 2.141091 1  18F15AF3x       Rx   d 8 00 00 00 00 00 00 00 00
 2.142018 1  18F15BF3x       Rx   d 7 00 00 00 00 00 00 00
 2.142623 1  CFF21CAx        Rx   d 8 1D 00 3C 14 3A 35 00 18
 2.143176 1  18F15CF3x       Rx   d 8 00 00 00 00 00 00 00 00
 2.143938 1  18F15DF3x       Rx   d 8 00 00 00 00 00 00 00 00
 2.144966 1  18F15EF3x       Rx   d 8 00 00 00 00 00 00 00 00
 2.155100 1  CFF21CAx        Rx   d 8 1D 00 3C 14 3A 35 00 18
 2.155655 1  18F100D0x       Rx   d 8 0C FF FF FF FF FF FF FF
 2.164383 1  18FF2112x       Rx   d 8 01 00 00 00 00 00 00 00
 2.166589 1  CFF21CAx        Rx   d 8 1D 00 3C 14 3A 35 00 18
 2.179074 1  CFF21CAx        Rx   d 8 1D 00 39 14 3A 35 00 18
 2.179191 1  18F100D0x       Rx   d 8 0C FF FF FF FF FF FF FF
 2.190673 1  CFF21CAx        Rx   d 8 1D 00 3D 14 3A 35 00 18
 2.203083 1  CFF21CAx        Rx   d 8 1D 00 3F 14 3A 35 00 18
 2.203653 1  18F100D0x       Rx   d 8 0C FF FF FF FF FF FF FF
 2.214807 1  CFF21CAx        Rx   d 8 1D 00 41 14 3A 35 00 18
 2.226856 1  CFF21CAx        Rx   d 8 1E 00 40 14 3A 35 00 18
 2.227320 1  18F100D0x       Rx   d 8 0C FF FF FF FF FF FF FF
 2.229428 1  18F100F3x       Rx   d 8 03 3E 7D 5A F9 FA 14 00
 2.230268 1  18F102F3x       Rx   d 8 10 3B 10 33 10 0C 00 08
 2.231483 1  18F106F3x       Rx   d 8 45 E0 FC FF FF FF FF FF
 2.232748 1  18F107F3x       Rx   d 8 38 A4 27 10 01 76 00 00
 2.234497 1  18F108F3x       Rx   d 8 10 00 04 00 00 00 00 01
 2.235371 1  18F155F3x       Rx   d 8 37 37 38 38 38 38 38 00
 2.236274 1  18F156F3x       Rx   d 8 00 00 00 00 00 00 00 00
 2.237221 1  18F157F3x       Rx   d 8 00 00 00 00 00 00 00 00
 2.238092 1  18F158F3x       Rx   d 8 00 00 00 00 00 00 00 00
 2.238842 1  CFF21CAx        Rx   d 8 1E 00 3F 14 3A 35 00 18
 2.239394 1  18F159F3x       Rx   d 8 00 00 00 00 00 00 00 00
 2.240283 1  18F15AF3x       Rx   d 8 00 00 00 00 00 00 00 00
 2.241202 1  18F15BF3x       Rx   d 7 00 00 00 00 00 00 00
 2.242025 1  18F15CF3x       Rx   d 8 00 00 00 00 00 00 00 00
 2.242944 1  18F15DF3x       Rx   d 8 00 00 00 00 00 00 00 00
 2.243804 1  18F15EF3x       Rx   d 8 00 00 00 00 00 00 00 00
 2.250884 1  CFF21CAx        Rx   d 8 1E 00 3D 14 3A 35 00 18
 2.251457 1  18F100D0x       Rx   d 8 0C FF FF FF FF FF FF FF
 2.261657 1  18FF2112x       Rx   d 8 01 00 00 00 00 00 00 00
 2.263118 1  CFF21CAx        Rx   d 8 1E 00 3E 14 3A 35 00 18
 2.274983 1  CFF21CAx        Rx   d 8 1E 00 37 14 3A 35 00 18
 2.275511 1  18F100D0x       Rx   d 8 0C FF FF FF FF FF FF FF
 2.287136 1  CFF21CAx        Rx   d 8 1E 00 3D 14 3A 35 00 18
 2.299601 1  CFF21CAx        Rx   d 8 1E 00 40 14 3A 35 00 18
 2.299992 1  18F100D0x       Rx   d 8 0C FF FF FF FF FF FF FF
 2.300583 1  18FECACAx       Rx   d 8 00 00 00 00 00 00 FF FF
 2.311280 1  CFF21CAx        Rx   d 8 1E 00 3F 14 3A 35 00 18
 2.323326 1  CFF21CAx        Rx   d 8 1F 00 3D 14 3A 35 00 18
 2.323829 1  18F100D0x       Rx   d 8 0C FF FF FF FF FF FF FF
 2.329470 1  18F100F3x       Rx   d 8 03 3E 7D 5B F9 FA 14 00
 2.330294 1  18F102F3x       Rx   d 8 10 3B 10 33 10 0C 00 08
 2.331578 1  18F106F3x       Rx   d 8 45 E0 FC FF FF FF FF FF
 2.332900 1  18F107F3x       Rx   d 8 38 A4 27 10 01 76 00 00
 2.334598 1  18F108F3x       Rx   d 8 10 00 04 00 00 00 00 01
 2.335421 1  18F155F3x       Rx   d 8 37 37 38 38 38 38 38 00
 2.335975 1  CFF21CAx        Rx   d 8 1F 00 40 14 3A 35 00 18
 2.336635 1  18F156F3x       Rx   d 8 00 00 00 00 00 00 00 00
 2.337582 1  18F157F3x       Rx   d 8 00 00 00 00 00 00 00 00
 2.338633 1  18F158F3x       Rx   d 8 00 00 00 00 00 00 00 00
 2.339317 1  18F159F3x       Rx   d 8 00 00 00 00 00 00 00 00
 2.340258 1  18F15AF3x       Rx   d 8 00 00 00 00 00 00 00 00
 2.341054 1  18F15BF3x       Rx   d 7 00 00 00 00 00 00 00
 2.341980 1  18F15CF3x       Rx   d 8 00 00 00 00 00 00 00 00
 2.342881 1  18F15DF3x       Rx   d 8 00 00 00 00 00 00 00 00
 2.343650 1  18F15EF3x       Rx   d 8 00 00 00 00 00 00 00 00
 2.347280 1  CFF21CAx        Rx   d 8 1F 00 3D 14 3A 35 00 18
 2.347852 1  18F100D0x       Rx   d 8 0C FF FF FF FF FF FF FF
 2.359122 1  18FF2112x       Rx   d 8 01 00 00 00 00 00 00 00
 2.359889 1  CFF21CAx        Rx   d 8 1F 00 3D 14 3A 35 00 18
 2.371383 1  CFF21CAx        Rx   d 8 1F 00 3C 14 3A 35 00 18
 2.371951 1  18F100D0x       Rx   d 8 0C FF FF FF FF FF FF FF
 2.383797 1  CFF21CAx        Rx   d 8 1F 00 3D 14 3A 35 00 18
 2.397632 1  CFF21CAx        Rx   d 8 1F 00 41 14 3A 35 00 18
 2.397764 1  18F100D0x       Rx   d 8 0C FF FF FF FF FF FF FF
 2.407925 1  CFF21CAx        Rx   d 8 1F 00 3F 14 3A 35 00 18
 2.419571 1  CFF21CAx        Rx   d 8 1F 00 40 14 3A 35 00 18
 2.420209 1  18F100D0x       Rx   d 8 0C FF FF FF FF FF FF FF
 2.429475 1  18F100F3x       Rx   d 8 03 3E 7D 5B F9 FA 14 00
 2.430264 1  18F102F3x       Rx   d 8 10 3B 10 33 10 0C 00 08
 2.431566 1  18F106F3x       Rx   d 8 45 E0 FC FF FF FF FF FF
 2.432092 1  CFF21CAx        Rx   d 8 1F 00 3F 14 3A 35 00 18
 2.432826 1  18F107F3x       Rx   d 8 38 A4 27 10 01 76 00 00
 2.434593 1  18F108F3x       Rx   d 8 10 00 04 00 00 00 00 01
 2.435466 1  18F155F3x       Rx   d 8 37 37 38 38 38 38 38 00
 2.436312 1  18F156F3x       Rx   d 8 00 00 00 00 00 00 00 00
 2.437216 1  18F157F3x       Rx   d 8 00 00 00 00 00 00 00 00
 2.438100 1  18F158F3x       Rx   d 8 00 00 00 00 00 00 00 00
 2.439329 1  18F159F3x       Rx   d 8 00 00 00 00 00 00 00 00
 2.440268 1  18F15AF3x       Rx   d 8 00 00 00 00 00 00 00 00
 2.441012 1  18F15BF3x       Rx   d 7 00 00 00 00 00 00 00
 2.441929 1  18F15CF3x       Rx   d 8 00 00 00 00 00 00 00 00
 2.442845 1  18F15DF3x       Rx   d 8 00 00 00 00 00 00 00 00
 2.443688 1  18F15EF3x       Rx   d 8 00 00 00 00 00 00 00 00
 2.444271 1  CFF21CAx        Rx   d 8 1E 00 40 14 3A 35 00 18
 2.444799 1  18F100D0x       Rx   d 8 0C FF FF FF FF FF FF FF
 2.456161 1  CFF21CAx        Rx   d 8 1E 00 38 14 3A 35 00 18
 2.456671 1  18FF2112x       Rx   d 8 01 00 00 00 00 00 00 00
 2.467785 1  CFF21CAx        Rx   d 8 1E 00 3D 14 3A 35 00 18
 2.468377 1  18F100D0x       Rx   d 8 0C FF FF FF FF FF FF FF
 2.480284 1  CFF21CAx        Rx   d 8 1F 00 3E 14 3A 35 00 18
 2.488328 1  18F100D0x       Rx   d 8 0C FF FF FF FF FF FF FF
