date Sat May 09 06:34:24.635 2026
base hex  timestamps absolute
internal events logged
Begin Triggerblock Sat May 09 06:34:24.640 2026
 0.000000 Start of measurement
 0.000000 1  CFF21CAx        Rx   d 8 21 00 3B 16 3A 36 00 14
 0.000159 1  CFF21CAx        Rx   d 8 21 00 3A 16 3A 36 00 14
 0.000256 1  18F100D0x       Rx   d 8 0C FF FF FF FF FF FF FF
 0.003134 1  CFF21CAx        Rx   d 8 21 00 39 16 3A 36 00 14
 0.015230 1  CFF21CAx        Rx   d 8 21 00 3A 16 3A 36 00 14
 0.015786 1  18F100D0x       Rx   d 8 0C FF FF FF FF FF FF FF
 0.027629 1  CFF21CAx        Rx   d 8 21 00 3A 16 3A 36 00 14
 0.039314 1  CFF21CAx        Rx   d 8 21 00 3A 16 3A 36 00 14
 0.043315 1  18F100D0x       Rx   d 8 0C FF FF FF FF FF FF FF
 0.051351 1  CFF21CAx        Rx   d 8 22 00 37 16 3A 36 00 14
 0.052565 1  18F100F3x       Rx   d 8 03 3F 7E 41 FA FA 14 00
 0.053453 1  18F102F3x       Rx   d 8 10 41 10 3B 10 05 00 06
 0.055001 1  18F106F3x       Rx   d 8 45 E0 FC FF FF FF FF FF
 0.056306 1  18F107F3x       Rx   d 8 38 A4 27 10 01 76 00 00
 0.058069 1  18F108F3x       Rx   d 8 10 00 04 00 00 00 00 01
 0.058935 1  18F155F3x       Rx   d 8 38 38 39 39 39 3A 39 00
 0.059818 1  18F156F3x       Rx   d 8 00 00 00 00 00 00 00 00
 0.060691 1  18F157F3x       Rx   d 8 00 00 00 00 00 00 00 00
 0.061253 1  18FF2112x       Rx   d 8 01 00 00 00 00 00 00 00
 0.061861 1  18F158F3x       Rx   d 8 00 00 00 00 00 00 00 00
 0.062763 1  18F159F3x       Rx   d 8 00 00 00 00 00 00 00 00
 0.063414 1  CFF21CAx        Rx   d 8 22 00 39 16 3A 36 00 14
 0.063977 1  18F100D0x       Rx   d 8 0C FF FF FF FF FF FF FF
 0.064556 1  18F15AF3x       Rx   d 8 00 00 00 00 00 00 00 00
 0.065403 1  18F15BF3x       Rx   d 7 00 00 00 00 00 00 00
 0.066306 1  18F15CF3x       Rx   d 8 00 00 00 00 00 00 00 00
 0.067230 1  18F15DF3x       Rx   d 8 00 00 00 00 00 00 00 00
 0.068064 1  18F15EF3x       Rx   d 8 00 00 00 00 00 00 00 00
 0.075568 1  CFF21CAx        Rx   d 8 21 00 37 16 3A 36 00 14
 0.087548 1  CFF21CAx        Rx   d 8 21 00 3B 16 3A 36 00 14
 0.091602 1  18F100D0x       Rx   d 8 0C FF FF FF FF FF FF FF
 0.099572 1  CFF21CAx        Rx   d 8 21 00 38 16 3A 36 00 14
 0.111627 1  CFF21CAx        Rx   d 8 21 00 3B 16 3A 36 00 14
 0.115673 1  18F100D0x       Rx   d 8 0C FF FF FF FF FF FF FF
 0.124097 1  CFF21CAx        Rx   d 8 21 00 3B 16 3A 36 00 14
 0.135763 1  CFF21CAx        Rx   d 8 22 00 36 16 3A 36 00 14
 0.139770 1  18F100D0x       Rx   d 8 0C FF FF FF FF FF FF FF
 0.148230 1  CFF21CAx        Rx   d 8 22 00 3B 16 3A 35 00 14
 0.152035 1  18F104F3x       Rx   d 8 3A 38 06 01 02 FF FF FF
 0.152993 1  18F100F3x       Rx   d 8 03 3F 7E 3F FA FA 14 00
 0.153907 1  18F102F3x       Rx   d 8 10 41 10 3B 10 05 00 06
 0.155470 1  18F106F3x       Rx   d 8 45 E0 FC FF FF FF FF FF
 0.156794 1  18F107F3x       Rx   d 8 38 A4 27 10 01 76 00 00
 0.158510 1  18FF2112x       Rx   d 8 01 00 00 00 00 00 00 00
 0.159087 1  18F108F3x       Rx   d 8 10 00 04 00 00 00 00 01
 0.159971 1  18F113F3x       Rx   d 8 10 3D 10 3D 10 3D 10 3E
 0.160432 1  CFF21CAx        Rx   d 8 22 00 37 16 3A 35 00 14
 0.161120 1  18F114F3x       Rx   d 8 10 3B 10 3B 10 3E 10 3E
 0.162014 1  18F115F3x       Rx   d 8 10 3C 10 3C 10 3B 10 3B
 0.162979 1  18F116F3x       Rx   d 8 10 3F 10 3D 10 3F 10 41
 0.163908 1  18F117F3x       Rx   d 8 10 3C 10 3C 10 40 10 40
 0.164344 1  18F100D0x       Rx   d 8 0C FF FF FF FF FF FF FF
 0.165012 1  18F118F3x       Rx   d 8 00 00 00 00 00 00 00 00
 0.166016 1  18F119F3x       Rx   d 8 00 00 00 00 00 00 00 00
 0.166971 1  18F11AF3x       Rx   d 8 00 00 00 00 00 00 00 00
 0.167875 1  18F11BF3x       Rx   d 8 00 00 00 00 00 00 00 00
 0.168667 1  18F11CF3x       Rx   d 8 00 00 00 00 00 00 00 00
 0.169606 1  18F11DF3x       Rx   d 8 00 00 00 00 00 00 00 00
 0.170610 1  18F11EF3x       Rx   d 8 00 00 00 00 00 00 00 00
 0.171530 1  18F11FF3x       Rx   d 8 00 00 00 00 00 00 00 00
 0.172239 1  CFF21CAx        Rx   d 8 22 00 3B 16 3A 36 00 14
 0.172813 1  18F120F3x       Rx   d 8 00 00 00 00 00 00 00 00
 0.173733 1  18F121F3x       Rx   d 8 00 00 00 00 00 00 00 00
 0.174825 1  18F122F3x       Rx   d 8 00 00 00 00 00 00 00 00
 0.175746 1  18F123F3x       Rx   d 8 00 00 00 00 00 00 00 00
 0.176597 1  18F124F3x       Rx   d 8 00 00 00 00 00 00 00 00
 0.177603 1  18F125F3x       Rx   d 8 00 00 00 00 00 00 00 00
 0.178428 1  18F126F3x       Rx   d 8 00 00 00 00 00 00 00 00
 0.179524 1  18F127F3x       Rx   d 8 00 00 00 00 00 00 00 00
 0.180473 1  18F128F3x       Rx   d 8 00 00 00 00 00 00 00 00
 0.181271 1  18F129F3x       Rx   d 8 00 00 00 00 00 00 00 00
 0.182352 1  18F12AF3x       Rx   d 8 00 00 00 00 00 00 00 00
 0.183255 1  18F12BF3x       Rx   d 8 00 00 00 00 00 00 00 00
 0.184014 1  CFF21CAx        Rx   d 8 22 00 36 16 3A 35 00 14
 0.184663 1  18F12CF3x       Rx   d 8 00 00 00 00 00 00 00 00
 0.185408 1  18F12DF3x       Rx   d 8 00 00 00 00 00 00 00 00
 0.186350 1  18F12EF3x       Rx   d 8 00 00 00 00 00 00 00 00
 0.187308 1  18F12FF3x       Rx   d 8 00 00 00 00 00 00 00 00
 0.188358 1  18F130F3x       Rx   d 8 00 00 00 00 00 00 00 00
 0.188942 1  18F100D0x       Rx   d 8 0C FF FF FF FF FF FF FF
 0.189382 1  18F131F3x       Rx   d 8 00 00 00 00 00 00 00 00
 0.190447 1  18F132F3x       Rx   d 8 00 00 00 00 00 00 00 00
 0.191389 1  18F133F3x       Rx   d 8 00 00 00 00 00 00 00 00
 0.192309 1  18F134F3x       Rx   d 8 00 00 00 00 00 00 00 00
 0.193179 1  18F135F3x       Rx   d 8 00 00 00 00 00 00 00 00
 0.193923 1  18F136F3x       Rx   d 8 00 00 00 00 00 00 00 00
 0.194805 1  18F137F3x       Rx   d 8 00 00 00 00 00 00 00 00
 0.195803 1  18F138F3x       Rx   d 8 00 00 00 00 00 00 00 00
 0.196467 1  CFF21CAx        Rx   d 8 22 00 3B 16 3A 35 00 14
 0.197038 1  18F139F3x       Rx   d 8 00 00 00 00 00 00 00 00
 0.197753 1  18F13AF3x       Rx   d 8 00 00 00 00 00 00 00 00
 0.198758 1  18F13BF3x       Rx   d 8 00 00 00 00 00 00 00 00
 0.199673 1  18F13CF3x       Rx   d 8 00 00 00 00 00 00 00 00
 0.200530 1  18F155F3x       Rx   d 8 38 38 39 39 39 3A 39 00
 0.201470 1  18F156F3x       Rx   d 8 00 00 00 00 00 00 00 00
 0.202243 1  18F157F3x       Rx   d 8 00 00 00 00 00 00 00 00
 0.203175 1  18F158F3x       Rx   d 8 00 00 00 00 00 00 00 00
 0.204377 1  18F159F3x       Rx   d 8 00 00 00 00 00 00 00 00
 0.205363 1  18F15AF3x       Rx   d 8 00 00 00 00 00 00 00 00
 0.214479 1  18F15BF3x       Rx   d 7 00 00 00 00 00 00 00
 0.214609 1  18F15CF3x       Rx   d 8 00 00 00 00 00 00 00 00
 0.214718 1  18F15DF3x       Rx   d 8 00 00 00 00 00 00 00 00
 0.214823 1  CFF21CAx        Rx   d 8 21 00 35 16 3A 36 00 14
 0.214927 1  18F15EF3x       Rx   d 8 00 00 00 00 00 00 00 00
 0.215040 1  18F100D0x       Rx   d 8 0C FF FF FF FF FF FF FF
 0.220593 1  CFF21CAx        Rx   d 8 21 00 38 16 3A 36 00 14
 0.232149 1  CFF21CAx        Rx   d 8 22 00 39 16 3A 36 00 14
 0.236188 1  18F100D0x       Rx   d 8 0C FF FF FF FF FF FF FF
 0.244561 1  CFF21CAx        Rx   d 8 22 00 37 16 3A 36 00 14
 0.252794 1  18F100F3x       Rx   d 8 03 3F 7E 3F FA FA 14 00
 0.256567 1  18F102F3x       Rx   d 8 10 41 10 3B 10 05 00 06
 0.256769 1  18F106F3x       Rx   d 8 45 E0 FC FF FF FF FF FF
 0.256929 1  18FF2112x       Rx   d 8 01 00 00 00 00 00 00 00
 0.257052 1  18F107F3x       Rx   d 8 38 A4 27 10 01 76 00 00
 0.257166 1  CFF21CAx        Rx   d 8 22 00 39 16 3A 36 00 14
 0.258101 1  18F108F3x       Rx   d 8 10 00 04 00 00 00 00 01
 0.258971 1  18F155F3x       Rx   d 8 38 38 39 39 39 3A 39 00
 0.259852 1  18F156F3x       Rx   d 8 00 00 00 00 00 00 00 00
 0.260666 1  18F100D0x       Rx   d 8 0C FF FF FF FF FF FF FF
 0.261286 1  18F157F3x       Rx   d 8 00 00 00 00 00 00 00 00
 0.262219 1  18F158F3x       Rx   d 8 00 00 00 00 00 00 00 00
 0.263029 1  18F159F3x       Rx   d 8 00 00 00 00 00 00 00 00
 0.263964 1  18F15AF3x       Rx   d 8 00 00 00 00 00 00 00 00
 0.264729 1  18F15BF3x       Rx   d 7 00 00 00 00 00 00 00
 0.265643 1  18F15CF3x       Rx   d 8 00 00 00 00 00 00 00 00
 0.266557 1  18F15DF3x       Rx   d 8 00 00 00 00 00 00 00 00
 0.267337 1  18F15EF3x       Rx   d 8 00 00 00 00 00 00 00 00
 0.268810 1  CFF21CAx        Rx   d 8 22 00 39 16 3A 36 00 14
 0.280294 1  CFF21CAx        Rx   d 8 23 00 39 16 3A 36 00 14
 0.284784 1  18F100D0x       Rx   d 8 0C FF FF FF FF FF FF FF
 0.292487 1  CFF21CAx        Rx   d 8 23 00 39 16 3A 36 00 14
 0.304361 1  CFF21CAx        Rx   d 8 23 00 39 16 3A 36 00 14
 0.308577 1  18F100D0x       Rx   d 8 0C FF FF FF FF FF FF FF
 0.317022 1  CFF21CAx        Rx   d 8 22 00 37 16 3A 36 00 14
 0.328510 1  CFF21CAx        Rx   d 8 22 00 3A 16 3A 36 00 14
 0.333266 1  18F100D0x       Rx   d 8 0C FF FF FF FF FF FF FF
 0.341014 1  CFF21CAx        Rx   d 8 22 00 3A 16 3A 36 00 14
 0.352788 1  18F100F3x       Rx   d 8 03 3F 7E 42 FA FA 14 00
 0.353104 1  CFF21CAx        Rx   d 8 22 00 3A 16 3A 36 00 14
 0.353830 1  18F102F3x       Rx   d 8 10 40 10 3A 10 05 00 06
 0.354410 1  18FF2112x       Rx   d 8 01 00 00 00 00 00 00 00
 0.355217 1  18F106F3x       Rx   d 8 45 E0 FC FF FF FF FF FF
 0.356362 1  18F107F3x       Rx   d 8 38 A4 27 10 01 76 00 00
 0.357331 1  18F100D0x       Rx   d 8 0C FF FF FF FF FF FF FF
 0.358486 1  18F108F3x       Rx   d 8 10 00 04 00 00 00 00 01
 0.359396 1  18F155F3x       Rx   d 8 38 38 39 39 39 3A 39 00
 0.360183 1  18F156F3x       Rx   d 8 00 00 00 00 00 00 00 00
 0.361157 1  18F157F3x       Rx   d 8 00 00 00 00 00 00 00 00
 0.361940 1  18F158F3x       Rx   d 8 00 00 00 00 00 00 00 00
 0.362973 1  18F159F3x       Rx   d 8 00 00 00 00 00 00 00 00
 0.363838 1  18F15AF3x       Rx   d 8 00 00 00 00 00 00 00 00
 0.364593 1  18F15BF3x       Rx   d 7 00 00 00 00 00 00 00
 0.365321 1  CFF21CAx        Rx   d 8 22 00 38 16 3A 36 00 14
 0.365887 1  18F15CF3x       Rx   d 8 00 00 00 00 00 00 00 00
 0.366745 1  18F15DF3x       Rx   d 8 00 00 00 00 00 00 00 00
 0.367666 1  18F15EF3x       Rx   d 8 00 00 00 00 00 00 00 00
 0.376685 1  CFF21CAx        Rx   d 8 22 00 37 16 3A 36 00 14
 0.381118 1  18F100D0x       Rx   d 8 0C FF FF FF FF FF FF FF
 0.389185 1  CFF21CAx        Rx   d 8 22 00 38 16 3A 36 00 14
 0.400929 1  CFF21CAx        Rx   d 8 22 00 38 16 3A 36 00 14
 0.405380 1  18F100D0x       Rx   d 8 0C FF FF FF FF FF FF FF
 0.413430 1  CFF21CAx        Rx   d 8 22 00 35 16 3A 36 00 14
 0.434448 1  CFF21CAx        Rx   d 8 22 00 3A 16 3A 36 00 14
 0.434589 1  18F100D0x       Rx   d 8 0C FF FF FF FF FF FF FF
 0.437388 1  CFF21CAx        Rx   d 8 22 00 35 16 3A 36 00 14
 0.449001 1  CFF21CAx        Rx   d 8 22 00 3B 16 3A 36 00 14
 0.450249 1  18FF2112x       Rx   d 8 01 00 00 00 00 00 00 00
 0.452610 1  18F100F3x       Rx   d 8 03 3F 7E 42 FA FA 14 00
 0.453569 1  18F100D0x       Rx   d 8 0C FF FF FF FF FF FF FF
 0.454013 1  18F102F3x       Rx   d 8 10 40 10 3A 10 05 00 06
 0.455339 1  18F106F3x       Rx   d 8 45 E0 FC FF FF FF FF FF
 0.456638 1  18F107F3x       Rx   d 8 38 A4 27 10 01 76 00 00
 0.458414 1  18F108F3x       Rx   d 8 10 00 04 00 00 00 00 01
 0.459320 1  18F155F3x       Rx   d 8 38 38 39 39 39 3A 39 00
 0.460303 1  18F156F3x       Rx   d 8 00 00 00 00 00 00 00 00
 0.461114 1  18F157F3x       Rx   d 8 00 00 00 00 00 00 00 00
 0.461654 1  CFF21CAx        Rx   d 8 22 00 37 16 3A 36 00 14
 0.462227 1  18F158F3x       Rx   d 8 00 00 00 00 00 00 00 00
 0.463160 1  18F159F3x       Rx   d 8 00 00 00 00 00 00 00 00
 0.463976 1  18F15AF3x       Rx   d 8 00 00 00 00 00 00 00 00
 0.464787 1  18F15BF3x       Rx   d 7 00 00 00 00 00 00 00
 0.465708 1  18F15CF3x       Rx   d 8 00 00 00 00 00 00 00 00
 0.466510 1  18F15DF3x       Rx   d 8 00 00 00 00 00 00 00 00
 0.467426 1  18F15EF3x       Rx   d 8 00 00 00 00 00 00 00 00
 0.473085 1  CFF21CAx        Rx   d 8 22 00 3B 16 3A 36 00 14
 0.481158 1  18F100D0x       Rx   d 8 0C FF FF FF FF FF FF FF
 0.485571 1  CFF21CAx        Rx   d 8 22 00 3A 16 3A 36 00 14
 0.497238 1  CFF21CAx        Rx   d 8 22 00 3B 16 3A 36 00 14
 0.505265 1  18F100D0x       Rx   d 8 0C FF FF FF FF FF FF FF
 0.509701 1  CFF21CAx        Rx   d 8 22 00 3A 16 3A 36 00 14
 0.521352 1  CFF21CAx        Rx   d 8 22 00 38 16 3A 36 00 14
 0.529391 1  18F100D0x       Rx   d 8 0C FF FF FF FF FF FF FF
 0.533944 1  CFF21CAx        Rx   d 8 22 00 39 16 3A 36 00 14
 0.545382 1  CFF21CAx        Rx   d 8 22 00 3C 16 3A 36 00 14
 0.547535 1  18FF2112x       Rx   d 8 01 00 00 00 00 00 00 00
 0.552750 1  18F100F3x       Rx   d 8 03 3F 7E 42 FA FA 14 00
 0.553525 1  18F102F3x       Rx   d 8 10 40 10 3A 10 05 00 06
 0.554034 1  18F100D0x       Rx   d 8 0C FF FF FF FF FF FF FF
 0.555348 1  18F106F3x       Rx   d 8 45 E0 FC FF FF FF FF FF
 0.556655 1  18F107F3x       Rx   d 8 38 A4 27 10 01 76 00 00
 0.558036 1  CFF21CAx        Rx   d 8 22 00 39 16 3A 36 00 14
 0.558663 1  18F108F3x       Rx   d 8 10 00 04 00 00 00 00 01
 0.559513 1  18F155F3x       Rx   d 8 38 38 39 39 39 3A 39 00
 0.560330 1  18F156F3x       Rx   d 8 00 00 00 00 00 00 00 00
 0.561262 1  18F157F3x       Rx   d 8 00 00 00 00 00 00 00 00
 0.562315 1  18F158F3x       Rx   d 8 00 00 00 00 00 00 00 00
 0.563204 1  18F159F3x       Rx   d 8 00 00 00 00 00 00 00 00
 0.564025 1  18F15AF3x       Rx   d 8 00 00 00 00 00 00 00 00
 0.564741 1  18F15BF3x       Rx   d 7 00 00 00 00 00 00 00
 0.565744 1  18F15CF3x       Rx   d 8 00 00 00 00 00 00 00 00
 0.566663 1  18F15DF3x       Rx   d 8 00 00 00 00 00 00 00 00
 0.567485 1  18F15EF3x       Rx   d 8 00 00 00 00 00 00 00 00
 0.569524 1  CFF21CAx        Rx   d 8 21 00 37 16 3A 36 00 14
 0.577552 1  18F100D0x       Rx   d 8 0C FF FF FF FF FF FF FF
 0.582119 1  CFF21CAx        Rx   d 8 21 00 35 16 3A 36 00 14
 0.593536 1  CFF21CAx        Rx   d 8 21 00 39 16 3A 36 00 14
 0.601612 1  18F100D0x       Rx   d 8 0C FF FF FF FF FF FF FF
 0.606097 1  CFF21CAx        Rx   d 8 21 00 36 16 3A 36 00 14
 0.617799 1  CFF21CAx        Rx   d 8 21 00 39 16 3A 36 00 14
 0.625857 1  18F100D0x       Rx   d 8 0C FF FF FF FF FF FF FF
 0.630348 1  CFF21CAx        Rx   d 8 22 00 36 16 3A 36 00 14
 0.652637 1  CFF21CAx        Rx   d 8 22 00 3D 16 3A 36 00 14
 0.652765 1  18FF2112x       Rx   d 8 01 00 00 00 00 00 00 00
 0.652870 1  18F100D0x       Rx   d 8 0C FF FF FF FF FF FF FF
 0.652973 1  18F100F3x       Rx   d 8 03 3F 7E 43 FA FA 14 00
 0.653535 1  18F102F3x       Rx   d 8 10 40 10 3A 10 05 00 06
 0.654555 1  CFF21CAx        Rx   d 8 22 00 3A 16 3A 36 00 14
 0.655051 1  18F106F3x       Rx   d 8 45 E0 FC FF FF FF FF FF
 0.656358 1  18F107F3x       Rx   d 8 38 A4 27 10 01 76 00 00
 0.658129 1  18F108F3x       Rx   d 8 10 00 04 00 00 00 00 01
 0.658995 1  18F155F3x       Rx   d 8 38 38 39 39 39 3A 39 00
 0.659908 1  18F156F3x       Rx   d 8 00 00 00 00 00 00 00 00
 0.660756 1  18F157F3x       Rx   d 8 00 00 00 00 00 00 00 00
 0.661654 1  18F158F3x       Rx   d 8 00 00 00 00 00 00 00 00
 0.662542 1  18F159F3x       Rx   d 8 00 00 00 00 00 00 00 00
 0.663562 1  18F15AF3x       Rx   d 8 00 00 00 00 00 00 00 00
 0.664642 1  18F15BF3x       Rx   d 7 00 00 00 00 00 00 00
 0.665560 1  18F15CF3x       Rx   d 8 00 00 00 00 00 00 00 00
 0.666065 1  CFF21CAx        Rx   d 8 22 00 3C 16 3A 36 00 14
 0.666650 1  18F15DF3x       Rx   d 8 00 00 00 00 00 00 00 00
 0.667559 1  18F15EF3x       Rx   d 8 00 00 00 00 00 00 00 00
 0.673959 1  18F100D0x       Rx   d 8 0C FF FF FF FF FF FF FF
 0.678386 1  CFF21CAx        Rx   d 8 22 00 37 16 3A 36 00 14
 0.689977 1  CFF21CAx        Rx   d 8 22 00 3D 16 3A 36 00 14
 0.702073 1  CFF21CAx        Rx   d 8 22 00 37 16 3A 36 00 14
 0.702633 1  18F100D0x       Rx   d 8 0C FF FF FF FF FF FF FF
 0.714165 1  CFF21CAx        Rx   d 8 22 00 37 16 3A 36 00 14
 0.726619 1  CFF21CAx        Rx   d 8 22 00 38 16 3A 36 00 14
 0.727155 1  18F100D0x       Rx   d 8 0C FF FF FF FF FF FF FF
 0.738203 1  CFF21CAx        Rx   d 8 22 00 38 16 3A 36 00 14
 0.742073 1  18FF2112x       Rx   d 8 01 00 00 00 00 00 00 00
 0.750338 1  CFF21CAx        Rx   d 8 21 00 39 16 3A 36 00 14
 0.750903 1  18F100D0x       Rx   d 8 0C FF FF FF FF FF FF FF
 0.752791 1  18F100F3x       Rx   d 8 03 3F 7E 43 FA FA 14 00
 0.753526 1  18F102F3x       Rx   d 8 10 40 10 38 10 0C 00 08
 0.755164 1  18F106F3x       Rx   d 8 45 E0 FC FF FF FF FF FF
 0.756316 1  18F107F3x       Rx   d 8 38 A4 27 10 01 76 00 00
 0.758233 1  18F108F3x       Rx   d 8 10 00 04 00 00 00 00 01
 0.759108 1  18F155F3x       Rx   d 8 38 38 39 39 39 3A 39 00
 0.759909 1  18F156F3x       Rx   d 8 00 00 00 00 00 00 00 00
 0.760724 1  18F157F3x       Rx   d 8 00 00 00 00 00 00 00 00
 0.761602 1  18F158F3x       Rx   d 8 00 00 00 00 00 00 00 00
 0.762224 1  CFF21CAx        Rx   d 8 21 00 39 16 3A 35 00 14
 0.762950 1  18F159F3x       Rx   d 8 00 00 00 00 00 00 00 00
 0.763829 1  18F15AF3x       Rx   d 8 00 00 00 00 00 00 00 00
 0.764623 1  18F15BF3x       Rx   d 7 00 00 00 00 00 00 00
 0.765674 1  18F15CF3x       Rx   d 8 00 00 00 00 00 00 00 00
 0.766529 1  18F15DF3x       Rx   d 8 00 00 00 00 00 00 00 00
 0.767411 1  18F15EF3x       Rx   d 8 00 00 00 00 00 00 00 00
 0.774936 1  CFF21CAx        Rx   d 8 21 00 39 16 3A 36 00 14
 0.775481 1  18F100D0x       Rx   d 8 0C FF FF FF FF FF FF FF
 0.786344 1  CFF21CAx        Rx   d 8 22 00 3E 16 3A 36 00 14
 0.798518 1  CFF21CAx        Rx   d 8 22 00 39 16 3A 36 00 14
 0.799152 1  18F100D0x       Rx   d 8 0C FF FF FF FF FF FF FF
 0.810584 1  CFF21CAx        Rx   d 8 22 00 3D 16 3A 36 00 14
 0.822954 1  CFF21CAx        Rx   d 8 22 00 39 16 3A 36 00 14
 0.823690 1  18F100D0x       Rx   d 8 0C FF FF FF FF FF FF FF
 0.834713 1  CFF21CAx        Rx   d 8 22 00 3C 16 3A 36 00 14
 0.839416 1  18FF2112x       Rx   d 8 01 00 00 00 00 00 00 00
 0.846749 1  CFF21CAx        Rx   d 8 22 00 37 16 3A 36 00 14
 0.847305 1  18F100D0x       Rx   d 8 0C FF FF FF FF FF FF FF
 0.852777 1  18F100F3x       Rx   d 8 03 3F 7E 41 FA FA 14 00
 0.853604 1  18F102F3x       Rx   d 8 10 40 10 38 10 0C 00 08
 0.855175 1  18F106F3x       Rx   d 8 45 E0 FC FF FF FF FF FF
 0.856467 1  18F107F3x       Rx   d 8 38 A4 27 10 01 76 00 00
 0.858252 1  18F108F3x       Rx   d 8 10 00 04 00 00 00 00 01
 0.870106 1  18F155F3x       Rx   d 8 38 38 39 39 39 3A 39 00
 0.870222 1  CFF21CAx        Rx   d 8 22 00 39 16 3A 35 00 14
 0.870323 1  18F156F3x       Rx   d 8 00 00 00 00 00 00 00 00
 0.870422 1  18F157F3x       Rx   d 8 00 00 00 00 00 00 00 00
 0.870520 1  18F158F3x       Rx   d 8 00 00 00 00 00 00 00 00
 0.870689 1  18F159F3x       Rx   d 8 00 00 00 00 00 00 00 00
 0.870803 1  18F15AF3x       Rx   d 8 00 00 00 00 00 00 00 00
 0.870897 1  18F15BF3x       Rx   d 7 00 00 00 00 00 00 00
 0.870998 1  18F15CF3x       Rx   d 8 00 00 00 00 00 00 00 00
 0.871094 1  18F15DF3x       Rx   d 8 00 00 00 00 00 00 00 00
 0.871193 1  18F15EF3x       Rx   d 8 00 00 00 00 00 00 00 00
 0.871289 1  CFF21CAx        Rx   d 8 22 00 38 16 3A 36 00 14
 0.871385 1  18F100D0x       Rx   d 8 0C FF FF FF FF FF FF FF
 0.882767 1  CFF21CAx        Rx   d 8 21 00 39 16 3A 36 00 14
 0.894854 1  CFF21CAx        Rx   d 8 21 00 38 16 3A 36 00 14
 0.895425 1  18F100D0x       Rx   d 8 0C FF FF FF FF FF FF FF
 0.896040 1  18FECACAx       Rx   d 8 00 00 00 00 00 00 FF FF
 0.906870 1  CFF21CAx        Rx   d 8 21 00 39 16 3A 36 00 14
 0.918884 1  CFF21CAx        Rx   d 8 21 00 3A 16 3A 36 00 14
 0.922951 1  18F100D0x       Rx   d 8 0C FF FF FF FF FF FF FF
 0.930959 1  CFF21CAx        Rx   d 8 21 00 3A 16 3A 36 00 14
 0.936638 1  18FF2112x       Rx   d 8 01 00 00 00 00 00 00 00
 0.943061 1  CFF21CAx        Rx   d 8 22 00 3A 16 3A 36 00 14
 0.947077 1  18F100D0x       Rx   d 8 0C FF FF FF FF FF FF FF
 0.952634 1  18F100F3x       Rx   d 8 03 3F 7E 41 FA FA 14 00
 0.953550 1  18F102F3x       Rx   d 8 10 40 10 38 10 0C 00 08
 0.955071 1  18F106F3x       Rx   d 8 45 E0 FC FF FF FF FF FF
 0.955613 1  CFF21CAx        Rx   d 8 22 00 3B 16 3A 36 00 14
 0.956347 1  18F107F3x       Rx   d 8 38 A4 27 10 01 76 00 00
 0.958123 1  18F108F3x       Rx   d 8 10 00 04 00 00 00 00 01
 0.958984 1  18F155F3x       Rx   d 8 38 38 39 39 39 3A 39 00
 0.959998 1  18F156F3x       Rx   d 8 00 00 00 00 00 00 00 00
 0.960809 1  18F157F3x       Rx   d 8 00 00 00 00 00 00 00 00
 0.961697 1  18F158F3x       Rx   d 8 00 00 00 00 00 00 00 00
 0.962601 1  18F159F3x       Rx   d 8 00 00 00 00 00 00 00 00
 0.963477 1  18F15AF3x       Rx   d 8 00 00 00 00 00 00 00 00
 0.964610 1  18F15BF3x       Rx   d 7 00 00 00 00 00 00 00
 0.965589 1  18F15CF3x       Rx   d 8 00 00 00 00 00 00 00 00
 0.966485 1  18F15DF3x       Rx   d 8 00 00 00 00 00 00 00 00
 0.967202 1  CFF21CAx        Rx   d 8 22 00 38 16 3A 36 00 14
 0.967779 1  18F15EF3x       Rx   d 8 00 00 00 00 00 00 00 00
 0.971186 1  18F100D0x       Rx   d 8 0C FF FF FF FF FF FF FF
 0.979295 1  CFF21CAx        Rx   d 8 22 00 39 16 3A 36 00 14
 0.991379 1  CFF21CAx        Rx   d 8 22 00 39 16 3A 36 00 14
 0.995338 1  18F100D0x       Rx   d 8 0C FF FF FF FF FF FF FF
 1.003224 1  CFF21CAx        Rx   d 8 22 00 3A 16 3A 36 00 14
 1.015457 1  CFF21CAx        Rx   d 8 22 00 39 16 3A 36 00 14
 1.019449 1  18F100D0x       Rx   d 8 0C FF FF FF FF FF FF FF
 1.027321 1  CFF21CAx        Rx   d 8 22 00 39 16 3A 36 00 14
 1.034003 1  18FF2112x       Rx   d 8 01 00 00 00 00 00 00 00
 1.039404 1  CFF21CAx        Rx   d 8 22 00 3A 16 3A 36 00 14
 1.043515 1  18F100D0x       Rx   d 8 0C FF FF FF FF FF FF FF
 1.051644 1  CFF21CAx        Rx   d 8 22 00 3A 16 3A 36 00 14
 1.052782 1  18F100F3x       Rx   d 8 03 3F 7E 41 FA FA 14 00
 1.053591 1  18F102F3x       Rx   d 8 10 40 10 38 10 0C 00 08
 1.055207 1  18F106F3x       Rx   d 8 45 E0 FC FF FF FF FF FF
 1.056403 1  18F107F3x       Rx   d 8 38 A4 27 10 01 76 00 00
 1.058249 1  18F108F3x       Rx   d 8 10 00 04 00 00 00 00 01
 1.059108 1  18F155F3x       Rx   d 8 38 38 39 39 39 3A 39 00
 1.059971 1  18F156F3x       Rx   d 8 00 00 00 00 00 00 00 00
 1.060872 1  18F157F3x       Rx   d 8 00 00 00 00 00 00 00 00
 1.061681 1  18F158F3x       Rx   d 8 00 00 00 00 00 00 00 00
 1.062578 1  18F159F3x       Rx   d 8 00 00 00 00 00 00 00 00
 1.063483 1  18F15AF3x       Rx   d 8 00 00 00 00 00 00 00 00
 1.064079 1  CFF21CAx        Rx   d 8 22 00 3A 16 3A 36 00 14
 1.064619 1  18F15BF3x       Rx   d 7 00 00 00 00 00 00 00
 1.065658 1  18F15CF3x       Rx   d 8 00 00 00 00 00 00 00 00
 1.066491 1  18F15DF3x       Rx   d 8 00 00 00 00 00 00 00 00
 1.067424 1  18F15EF3x       Rx   d 8 00 00 00 00 00 00 00 00
 1.067962 1  18F100D0x       Rx   d 8 0C FF FF FF FF FF FF FF
 1.088342 1  CFF21CAx        Rx   d 8 22 00 3A 16 3A 36 00 14
 1.088483 1  CFF21CAx        Rx   d 8 22 00 3A 16 3A 36 00 14
 1.091663 1  18F100D0x       Rx   d 8 0C FF FF FF FF FF FF FF
 1.100047 1  CFF21CAx        Rx   d 8 22 00 3A 16 3A 36 00 14
 1.111699 1  CFF21CAx        Rx   d 8 22 00 36 16 3A 36 00 14
 1.115752 1  18F100D0x       Rx   d 8 0C FF FF FF FF FF FF FF
 1.124121 1  CFF21CAx        Rx   d 8 22 00 38 16 3A 36 00 14
 1.131165 1  18FF2112x       Rx   d 8 01 00 00 00 00 00 00 00
 1.135779 1  CFF21CAx        Rx   d 8 22 00 39 16 3A 36 00 14
 1.139855 1  18F100D0x       Rx   d 8 0C FF FF FF FF FF FF FF
 1.148241 1  CFF21CAx        Rx   d 8 22 00 38 16 3A 36 00 14
 1.152100 1  18F104F3x       Rx   d 8 3A 38 06 01 02 FF FF FF
 1.153037 1  18F100F3x       Rx   d 8 03 3F 7E 43 FA FA 14 00
 1.154021 1  18F102F3x       Rx   d 8 10 40 10 38 10 0C 00 08
 1.155411 1  18F106F3x       Rx   d 8 45 E0 FC FF FF FF FF FF
 1.156799 1  18F107F3x       Rx   d 8 38 A4 27 10 01 76 00 00
 1.158588 1  18F108F3x       Rx   d 8 10 00 04 00 00 00 00 01
 1.159594 1  18F113F3x       Rx   d 8 10 3B 10 3C 10 3B 10 3C
 1.160254 1  CFF21CAx        Rx   d 8 22 00 39 16 3A 36 00 14
 1.160797 1  18F114F3x       Rx   d 8 10 39 10 3A 10 3C 10 3D
 1.161723 1  18F115F3x       Rx   d 8 10 3B 10 3B 10 39 10 38
 1.162678 1  18F116F3x       Rx   d 8 10 3D 10 3B 10 3E 10 40
 1.163619 1  18F117F3x       Rx   d 8 10 3A 10 3C 10 40 10 3F
 1.164749 1  18F118F3x       Rx   d 8 00 00 00 00 00 00 00 00
 1.165738 1  18F119F3x       Rx   d 8 00 00 00 00 00 00 00 00
 1.166661 1  18F11AF3x       Rx   d 8 00 00 00 00 00 00 00 00
 1.167611 1  18F11BF3x       Rx   d 8 00 00 00 00 00 00 00 00
 1.168146 1  18F100D0x       Rx   d 8 0C FF FF FF FF FF FF FF
 1.168728 1  18F11CF3x       Rx   d 8 00 00 00 00 00 00 00 00
 1.169672 1  18F11DF3x       Rx   d 8 00 00 00 00 00 00 00 00
 1.170588 1  18F11EF3x       Rx   d 8 00 00 00 00 00 00 00 00
 1.171561 1  18F11FF3x       Rx   d 8 00 00 00 00 00 00 00 00
 1.172313 1  CFF21CAx        Rx   d 8 22 00 39 16 3A 36 00 14
 1.172939 1  18F120F3x       Rx   d 8 00 00 00 00 00 00 00 00
 1.173844 1  18F121F3x       Rx   d 8 00 00 00 00 00 00 00 00
 1.174775 1  18F122F3x       Rx   d 8 00 00 00 00 00 00 00 00
 1.175730 1  18F123F3x       Rx   d 8 00 00 00 00 00 00 00 00
 1.176644 1  18F124F3x       Rx   d 8 00 00 00 00 00 00 00 00
 1.177565 1  18F125F3x       Rx   d 8 00 00 00 00 00 00 00 00
 1.178545 1  18F126F3x       Rx   d 8 00 00 00 00 00 00 00 00
 1.179589 1  18F127F3x       Rx   d 8 00 00 00 00 00 00 00 00
 1.180603 1  18F128F3x       Rx   d 8 00 00 00 00 00 00 00 00
 1.181389 1  18F129F3x       Rx   d 8 00 00 00 00 00 00 00 00
 1.182424 1  18F12AF3x       Rx   d 8 00 00 00 00 00 00 00 00
 1.183415 1  18F12BF3x       Rx   d 8 00 00 00 00 00 00 00 00
 1.184153 1  CFF21CAx        Rx   d 8 22 00 3A 16 3A 36 00 14
 1.184726 1  18F12CF3x       Rx   d 8 00 00 00 00 00 00 00 00
 1.185523 1  18F12DF3x       Rx   d 8 00 00 00 00 00 00 00 00
 1.186512 1  18F12EF3x       Rx   d 8 00 00 00 00 00 00 00 00
 1.187535 1  18F12FF3x       Rx   d 8 00 00 00 00 00 00 00 00
 1.188465 1  18F130F3x       Rx   d 8 00 00 00 00 00 00 00 00
 1.189250 1  18F131F3x       Rx   d 8 00 00 00 00 00 00 00 00
 1.190275 1  18F132F3x       Rx   d 8 00 00 00 00 00 00 00 00
 1.191163 1  18F133F3x       Rx   d 8 00 00 00 00 00 00 00 00
 1.192034 1  18F134F3x       Rx   d 8 00 00 00 00 00 00 00 00
 1.192654 1  18F100D0x       Rx   d 8 0C FF FF FF FF FF FF FF
 1.193171 1  18F135F3x       Rx   d 8 00 00 00 00 00 00 00 00
 1.193932 1  18F136F3x       Rx   d 8 00 00 00 00 00 00 00 00
 1.194830 1  18F137F3x       Rx   d 8 00 00 00 00 00 00 00 00
 1.195840 1  18F138F3x       Rx   d 8 00 00 00 00 00 00 00 00
 1.196541 1  CFF21CAx        Rx   d 8 22 00 3A 16 3A 36 00 14
 1.197121 1  18F139F3x       Rx   d 8 00 00 00 00 00 00 00 00
 1.197836 1  18F13AF3x       Rx   d 8 00 00 00 00 00 00 00 00
 1.198845 1  18F13BF3x       Rx   d 8 00 00 00 00 00 00 00 00
 1.199717 1  18F13CF3x       Rx   d 8 00 00 00 00 00 00 00 00
 1.200651 1  18F155F3x       Rx   d 8 38 38 39 39 39 3A 39 00
 1.201509 1  18F156F3x       Rx   d 8 00 00 00 00 00 00 00 00
 1.202329 1  18F157F3x       Rx   d 8 00 00 00 00 00 00 00 00
 1.203246 1  18F158F3x       Rx   d 8 00 00 00 00 00 00 00 00
 1.204507 1  18F159F3x       Rx   d 8 00 00 00 00 00 00 00 00
 1.205536 1  18F15AF3x       Rx   d 8 00 00 00 00 00 00 00 00
 1.206220 1  18F15BF3x       Rx   d 7 00 00 00 00 00 00 00
 1.207170 1  18F15CF3x       Rx   d 8 00 00 00 00 00 00 00 00
 1.208078 1  18F15DF3x       Rx   d 8 00 00 00 00 00 00 00 00
 1.208688 1  CFF21CAx        Rx   d 8 22 00 3A 16 3A 36 00 14
 1.209228 1  18F15EF3x       Rx   d 8 00 00 00 00 00 00 00 00
 1.216275 1  18F100D0x       Rx   d 8 0C FF FF FF FF FF FF FF
 1.220513 1  CFF21CAx        Rx   d 8 22 00 39 16 3A 36 00 14
 1.228420 1  18FF2112x       Rx   d 8 01 00 00 00 00 00 00 00
 1.232306 1  CFF21CAx        Rx   d 8 22 00 37 16 3A 36 00 14
 1.240243 1  18F100D0x       Rx   d 8 0C FF FF FF FF FF FF FF
 1.244756 1  CFF21CAx        Rx   d 8 22 00 3A 16 3A 35 00 14
 1.252773 1  18F100F3x       Rx   d 8 03 3F 7E 43 FA FA 14 00
 1.253594 1  18F102F3x       Rx   d 8 10 40 10 38 10 0C 00 08
 1.255186 1  18F106F3x       Rx   d 8 45 E0 FC FF FF FF FF FF
 1.256413 1  18F107F3x       Rx   d 8 38 A4 27 10 01 76 00 00
 1.257034 1  CFF21CAx        Rx   d 8 22 00 36 16 3A 36 00 14
 1.258255 1  18F108F3x       Rx   d 8 10 00 04 00 00 00 00 01
 1.259134 1  18F155F3x       Rx   d 8 38 38 39 39 39 3A 39 00
 1.259960 1  18F156F3x       Rx   d 8 00 00 00 00 00 00 00 00
 1.260873 1  18F157F3x       Rx   d 8 00 00 00 00 00 00 00 00
 1.261692 1  18F158F3x       Rx   d 8 00 00 00 00 00 00 00 00
 1.262667 1  18F159F3x       Rx   d 8 00 00 00 00 00 00 00 00
 1.263562 1  18F15AF3x       Rx   d 8 00 00 00 00 00 00 00 00
 1.264363 1  18F100D0x       Rx   d 8 0C FF FF FF FF FF FF FF
 1.264965 1  18F15BF3x       Rx   d 7 00 00 00 00 00 00 00
 1.265835 1  18F15CF3x       Rx   d 8 00 00 00 00 00 00 00 00
 1.266703 1  18F15DF3x       Rx   d 8 00 00 00 00 00 00 00 00
 1.267658 1  18F15EF3x       Rx   d 8 00 00 00 00 00 00 00 00
 1.268760 1  CFF21CAx        Rx   d 8 22 00 3B 16 3A 36 00 14
 1.280530 1  CFF21CAx        Rx   d 8 22 00 36 16 3A 36 00 14
 1.288563 1  18F100D0x       Rx   d 8 0C FF FF FF FF FF FF FF
 1.293136 1  CFF21CAx        Rx   d 8 22 00 39 16 3A 36 00 14
 1.305972 1  CFF21CAx        Rx   d 8 22 00 37 16 3A 36 00 14
 1.312555 1  18F100D0x       Rx   d 8 0C FF FF FF FF FF FF FF
 1.317023 1  CFF21CAx        Rx   d 8 22 00 3A 16 3A 36 00 14
 1.325726 1  18FF2112x       Rx   d 8 01 00 00 00 00 00 00 00
 1.328558 1  CFF21CAx        Rx   d 8 22 00 3B 16 3A 36 00 14
 1.336624 1  18F100D0x       Rx   d 8 0C FF FF FF FF FF FF FF
 1.341032 1  CFF21CAx        Rx   d 8 22 00 39 16 3A 36 00 14
 1.352643 1  18F100F3x       Rx   d 8 03 3F 7E 45 FA FA 14 00
 1.353171 1  CFF21CAx        Rx   d 8 22 00 3B 16 3A 35 00 14
 1.353726 1  18F102F3x       Rx   d 8 10 3F 10 37 10 0C 00 08
 1.355092 1  18F106F3x       Rx   d 8 45 E0 FC FF FF FF FF FF
 1.356387 1  18F107F3x       Rx   d 8 38 A4 27 10 01 76 00 00
 1.358169 1  18F108F3x       Rx   d 8 10 00 04 00 00 00 00 01
 1.359041 1  18F155F3x       Rx   d 8 38 38 39 39 39 3A 39 00
 1.360054 1  18F156F3x       Rx   d 8 00 00 00 00 00 00 00 00
 1.360690 1  18F100D0x       Rx   d 8 0C FF FF FF FF FF FF FF
 1.361261 1  18F157F3x       Rx   d 8 00 00 00 00 00 00 00 00
 1.362161 1  18F158F3x       Rx   d 8 00 00 00 00 00 00 00 00
 1.363050 1  18F159F3x       Rx   d 8 00 00 00 00 00 00 00 00
 1.363930 1  18F15AF3x       Rx   d 8 00 00 00 00 00 00 00 00
 1.364696 1  18F15BF3x       Rx   d 7 00 00 00 00 00 00 00
 1.365257 1  CFF21CAx        Rx   d 8 22 00 3A 16 3A 36 00 14
 1.365831 1  18F15CF3x       Rx   d 8 00 00 00 00 00 00 00 00
 1.366763 1  18F15DF3x       Rx   d 8 00 00 00 00 00 00 00 00
 1.367546 1  18F15EF3x       Rx   d 8 00 00 00 00 00 00 00 00
 1.376813 1  CFF21CAx        Rx   d 8 22 00 37 16 3A 36 00 14
 1.384865 1  18F100D0x       Rx   d 8 0C FF FF FF FF FF FF FF
 1.389320 1  CFF21CAx        Rx   d 8 22 00 3B 16 3A 36 00 14
 1.400990 1  CFF21CAx        Rx   d 8 22 00 38 16 3A 36 00 14
 1.409085 1  18F100D0x       Rx   d 8 0C FF FF FF FF FF FF FF
 1.413532 1  CFF21CAx        Rx   d 8 22 00 3C 16 3A 36 00 14
 1.422981 1  18FF2112x       Rx   d 8 01 00 00 00 00 00 00 00
 1.425075 1  CFF21CAx        Rx   d 8 22 00 38 16 3A 36 00 14
 1.433138 1  18F100D0x       Rx   d 8 0C FF FF FF FF FF FF FF
 1.437438 1  CFF21CAx        Rx   d 8 22 00 3B 16 3A 35 00 14
 1.449214 1  CFF21CAx        Rx   d 8 22 00 3A 16 3A 36 00 14
 1.452770 1  18F100F3x       Rx   d 8 03 3F 7E 45 FA FA 14 00
 1.453529 1  18F102F3x       Rx   d 8 10 3F 10 37 10 0C 00 08
 1.455196 1  18F106F3x       Rx   d 8 45 E0 FC FF FF FF FF FF
 1.456348 1  18F107F3x       Rx   d 8 38 A4 27 10 01 76 00 00
 1.457666 1  18F100D0x       Rx   d 8 0C FF FF FF FF FF FF FF
 1.458274 1  18F108F3x       Rx   d 8 10 00 04 00 00 00 00 01
 1.459138 1  18F155F3x       Rx   d 8 38 38 39 39 39 3A 39 00
 1.459937 1  18F156F3x       Rx   d 8 00 00 00 00 00 00 00 00
 1.460900 1  18F157F3x       Rx   d 8 00 00 00 00 00 00 00 00
 1.461565 1  CFF21CAx        Rx   d 8 21 00 39 16 3A 36 00 14
 1.462279 1  18F158F3x       Rx   d 8 00 00 00 00 00 00 00 00
 1.463151 1  18F159F3x       Rx   d 8 00 00 00 00 00 00 00 00
 1.464035 1  18F15AF3x       Rx   d 8 00 00 00 00 00 00 00 00
 1.464701 1  18F15BF3x       Rx   d 7 00 00 00 00 00 00 00
 1.465705 1  18F15CF3x       Rx   d 8 00 00 00 00 00 00 00 00
 1.466652 1  18F15DF3x       Rx   d 8 00 00 00 00 00 00 00 00
 1.467508 1  18F15EF3x       Rx   d 8 00 00 00 00 00 00 00 00
 1.473323 1  CFF21CAx        Rx   d 8 21 00 3A 16 3A 36 00 14
 1.481182 1  18F100D0x       Rx   d 8 0C FF FF FF FF FF FF FF
 1.485927 1  CFF21CAx        Rx   d 8 21 00 39 16 3A 36 00 14
 1.497379 1  CFF21CAx        Rx   d 8 21 00 3B 16 3A 36 00 14
 1.505365 1  18F100D0x       Rx   d 8 0C FF FF FF FF FF FF FF
 1.509887 1  CFF21CAx        Rx   d 8 21 00 39 16 3A 36 00 14
 1.523645 1  18FF2112x       Rx   d 8 01 00 00 00 00 00 00 00
 1.523761 1  CFF21CAx        Rx   d 8 22 00 37 16 3A 36 00 14
 1.529404 1  18F100D0x       Rx   d 8 0C FF FF FF FF FF FF FF
 1.533802 1  CFF21CAx        Rx   d 8 22 00 38 16 3A 36 00 14
 1.545439 1  CFF21CAx        Rx   d 8 22 00 37 16 3A 36 00 14
 1.552734 1  18F100F3x       Rx   d 8 03 3F 7E 45 FA FA 14 00
 1.553506 1  18F102F3x       Rx   d 8 10 3F 10 37 10 0C 00 08
 1.555046 1  18F106F3x       Rx   d 8 45 E0 FC FF FF FF FF FF
 1.556345 1  18F107F3x       Rx   d 8 38 A4 27 10 01 76 00 00
 1.558043 1  CFF21CAx        Rx   d 8 21 00 39 16 3A 36 00 14
 1.558616 1  18F100D0x       Rx   d 8 0C FF FF FF FF FF FF FF
 1.559188 1  18F108F3x       Rx   d 8 10 00 04 00 00 00 00 01
 1.560055 1  18F155F3x       Rx   d 8 38 38 39 39 39 3A 39 00
 1.560966 1  18F156F3x       Rx   d 8 00 00 00 00 00 00 00 00
 1.561824 1  18F157F3x       Rx   d 8 00 00 00 00 00 00 00 00
 1.562685 1  18F158F3x       Rx   d 8 00 00 00 00 00 00 00 00
 1.563620 1  18F159F3x       Rx   d 8 00 00 00 00 00 00 00 00
 1.564721 1  18F15AF3x       Rx   d 8 00 00 00 00 00 00 00 00
 1.565578 1  18F15BF3x       Rx   d 7 00 00 00 00 00 00 00
 1.566458 1  18F15CF3x       Rx   d 8 00 00 00 00 00 00 00 00
 1.567399 1  18F15DF3x       Rx   d 8 00 00 00 00 00 00 00 00
 1.568259 1  18F15EF3x       Rx   d 8 00 00 00 00 00 00 00 00
 1.569584 1  CFF21CAx        Rx   d 8 21 00 3A 16 3A 36 00 14
 1.582128 1  CFF21CAx        Rx   d 8 21 00 3C 16 3A 36 00 14
 1.582599 1  18F100D0x       Rx   d 8 0C FF FF FF FF FF FF FF
 1.593623 1  CFF21CAx        Rx   d 8 21 00 3B 16 3A 36 00 14
 1.606271 1  CFF21CAx        Rx   d 8 21 00 3B 16 3A 36 00 14
 1.606747 1  18F100D0x       Rx   d 8 0C FF FF FF FF FF FF FF
 1.617663 1  18FF2112x       Rx   d 8 01 00 00 00 00 00 00 00
 1.618177 1  CFF21CAx        Rx   d 8 22 00 39 16 3A 36 00 14
 1.630320 1  CFF21CAx        Rx   d 8 22 00 38 16 3A 36 00 14
 1.630779 1  18F100D0x       Rx   d 8 0C FF FF FF FF FF FF FF
 1.642003 1  CFF21CAx        Rx   d 8 22 00 38 16 3A 36 00 14
 1.652787 1  18F100F3x       Rx   d 8 03 3F 7E 40 FA FA 14 00
 1.653515 1  18F102F3x       Rx   d 8 10 3F 10 37 10 0C 00 08
 1.654681 1  CFF21CAx        Rx   d 8 21 00 37 16 3A 36 00 14
 1.655172 1  18F100D0x       Rx   d 8 0C FF FF FF FF FF FF FF
 1.655705 1  18F106F3x       Rx   d 8 45 E0 FC FF FF FF FF FF
 1.657272 1  18F107F3x       Rx   d 8 38 A4 27 10 01 76 00 00
 1.658819 1  18F108F3x       Rx   d 8 10 00 04 00 00 00 00 01
 1.659699 1  18F155F3x       Rx   d 8 38 38 39 39 39 3A 39 00
 1.660543 1  18F156F3x       Rx   d 8 00 00 00 00 00 00 00 00
 1.661512 1  18F157F3x       Rx   d 8 00 00 00 00 00 00 00 00
 1.662525 1  18F158F3x       Rx   d 8 00 00 00 00 00 00 00 00
 1.663455 1  18F159F3x       Rx   d 8 00 00 00 00 00 00 00 00
 1.664571 1  18F15AF3x       Rx   d 8 00 00 00 00 00 00 00 00
 1.665640 1  18F15BF3x       Rx   d 7 00 00 00 00 00 00 00
 1.666129 1  CFF21CAx        Rx   d 8 21 00 3A 16 3A 36 00 14
 1.666711 1  18F15CF3x       Rx   d 8 00 00 00 00 00 00 00 00
 1.667653 1  18F15DF3x       Rx   d 8 00 00 00 00 00 00 00 00
 1.668364 1  18F15EF3x       Rx   d 8 00 00 00 00 00 00 00 00
 1.678022 1  CFF21CAx        Rx   d 8 21 00 38 16 3A 36 00 14
 1.682151 1  18F100D0x       Rx   d 8 0C FF FF FF FF FF FF FF
 1.690161 1  CFF21CAx        Rx   d 8 22 00 3A 16 3A 36 00 14
 1.702564 1  CFF21CAx        Rx   d 8 22 00 3A 16 3A 36 00 14
 1.703099 1  18F100D0x       Rx   d 8 0C FF FF FF FF FF FF FF
 1.714156 1  CFF21CAx        Rx   d 8 22 00 3A 16 3A 36 00 14
 1.714955 1  18FF2112x       Rx   d 8 01 00 00 00 00 00 00 00
 1.726241 1  CFF21CAx        Rx   d 8 22 00 3D 16 3A 36 00 14
 1.726724 1  18F100D0x       Rx   d 8 0C FF FF FF FF FF FF FF
 1.740352 1  CFF21CAx        Rx   d 8 22 00 3A 16 3A 36 00 14
 1.750785 1  CFF21CAx        Rx   d 8 22 00 3D 16 3A 36 00 14
 1.751355 1  18F100D0x       Rx   d 8 0C FF FF FF FF FF FF FF
 1.752663 1  18F100F3x       Rx   d 8 03 3F 7E 40 FA FA 14 00
 1.753516 1  18F102F3x       Rx   d 8 10 3D 10 36 10 0C 00 07
 1.755100 1  18F106F3x       Rx   d 8 45 E0 FC FF FF FF FF FF
 1.756363 1  18F107F3x       Rx   d 8 38 A4 27 10 01 76 00 00
 1.758161 1  18F108F3x       Rx   d 8 10 00 04 00 00 00 00 01
 1.759029 1  18F155F3x       Rx   d 8 38 38 39 39 39 3A 39 00
 1.759912 1  18F156F3x       Rx   d 8 00 00 00 00 00 00 00 00
 1.760806 1  18F157F3x       Rx   d 8 00 00 00 00 00 00 00 00
 1.761736 1  18F158F3x       Rx   d 8 00 00 00 00 00 00 00 00
 1.762337 1  CFF21CAx        Rx   d 8 22 00 3A 16 3A 36 00 14
 1.762919 1  18F159F3x       Rx   d 8 00 00 00 00 00 00 00 00
 1.763844 1  18F15AF3x       Rx   d 8 00 00 00 00 00 00 00 00
 1.764641 1  18F15BF3x       Rx   d 7 00 00 00 00 00 00 00
 1.765576 1  18F15CF3x       Rx   d 8 00 00 00 00 00 00 00 00
 1.766465 1  18F15DF3x       Rx   d 8 00 00 00 00 00 00 00 00
 1.767352 1  18F15EF3x       Rx   d 8 00 00 00 00 00 00 00 00
 1.774385 1  CFF21CAx        Rx   d 8 22 00 3D 16 3A 36 00 14
 1.778404 1  18F100D0x       Rx   d 8 0C FF FF FF FF FF FF FF
 1.786433 1  CFF21CAx        Rx   d 8 22 00 38 16 3A 36 00 14
 1.798568 1  CFF21CAx        Rx   d 8 22 00 3D 16 3A 36 00 14
 1.802606 1  18F100D0x       Rx   d 8 0C FF FF FF FF FF FF FF
 1.810573 1  CFF21CAx        Rx   d 8 23 00 38 16 3A 36 00 14
 1.812089 1  18FF2112x       Rx   d 8 01 00 00 00 00 00 00 00
 1.822643 1  CFF21CAx        Rx   d 8 23 00 3A 16 3A 36 00 14
 1.826699 1  18F100D0x       Rx   d 8 0C FF FF FF FF FF FF FF
 1.834749 1  CFF21CAx        Rx   d 8 23 00 38 16 3A 36 00 14
 1.846837 1  CFF21CAx        Rx   d 8 22 00 39 16 3A 36 00 14
 1.850701 1  18F100D0x       Rx   d 8 0C FF FF FF FF FF FF FF
 1.852784 1  18F100F3x       Rx   d 8 03 3F 7E 40 FA FA 14 00
 1.853546 1  18F102F3x       Rx   d 8 10 3D 10 36 10 0C 00 07
 1.855210 1  18F106F3x       Rx   d 8 45 E0 FC FF FF FF FF FF
 1.856382 1  18F107F3x       Rx   d 8 38 A4 27 10 01 76 00 00
 1.858286 1  18F108F3x       Rx   d 8 10 00 04 00 00 00 00 01
 1.859152 1  18F155F3x       Rx   d 8 38 38 39 39 39 3A 39 00
 1.859719 1  CFF21CAx        Rx   d 8 22 00 38 16 3A 36 00 14
 1.860171 1  18F156F3x       Rx   d 8 00 00 00 00 00 00 00 00
 1.861133 1  18F157F3x       Rx   d 8 00 00 00 00 00 00 00 00
 1.862040 1  18F158F3x       Rx   d 8 00 00 00 00 00 00 00 00
 1.862935 1  18F159F3x       Rx   d 8 00 00 00 00 00 00 00 00
 1.863802 1  18F15AF3x       Rx   d 8 00 00 00 00 00 00 00 00
 1.864683 1  18F15BF3x       Rx   d 7 00 00 00 00 00 00 00
 1.865678 1  18F15CF3x       Rx   d 8 00 00 00 00 00 00 00 00
 1.866657 1  18F15DF3x       Rx   d 8 00 00 00 00 00 00 00 00
 1.867461 1  18F15EF3x       Rx   d 8 00 00 00 00 00 00 00 00
 1.870793 1  CFF21CAx        Rx   d 8 22 00 38 16 3A 36 00 14
 1.874942 1  18F100D0x       Rx   d 8 0C FF FF FF FF FF FF FF
 1.882963 1  CFF21CAx        Rx   d 8 22 00 39 16 3A 36 00 14
 1.894859 1  CFF21CAx        Rx   d 8 22 00 3B 16 3A 36 00 14
 1.899024 1  18F100D0x       Rx   d 8 0C FF FF FF FF FF FF FF
 1.906917 1  CFF21CAx        Rx   d 8 21 00 3A 16 3A 36 00 14
 1.909517 1  18FF2112x       Rx   d 8 01 00 00 00 00 00 00 00
 1.915094 1  18FECACAx       Rx   d 8 00 00 00 00 00 00 FF FF
 1.918947 1  CFF21CAx        Rx   d 8 21 00 3A 16 3A 36 00 14
 1.922986 1  18F100D0x       Rx   d 8 0C FF FF FF FF FF FF FF
 1.930975 1  CFF21CAx        Rx   d 8 21 00 3A 16 3A 36 00 14
 1.943200 1  CFF21CAx        Rx   d 8 22 00 38 16 3A 36 00 14
 1.957470 1  18F100D0x       Rx   d 8 0C FF FF FF FF FF FF FF
 1.957589 1  18F100F3x       Rx   d 8 03 3F 7E 40 FA FA 14 00
 1.957690 1  18F102F3x       Rx   d 8 10 3D 10 36 10 0C 00 07
 1.957795 1  18F106F3x       Rx   d 8 45 E0 FC FF FF FF FF FF
 1.957900 1  CFF21CAx        Rx   d 8 22 00 39 16 3A 36 00 14
 1.958037 1  18F107F3x       Rx   d 8 38 A4 27 10 01 76 00 00
 1.958140 1  18F108F3x       Rx   d 8 10 00 04 00 00 00 00 01
 1.959023 1  18F155F3x       Rx   d 8 38 38 39 39 39 3A 39 00
 1.959911 1  18F156F3x       Rx   d 8 00 00 00 00 00 00 00 00
 1.960806 1  18F157F3x       Rx   d 8 00 00 00 00 00 00 00 00
 1.961662 1  18F158F3x       Rx   d 8 00 00 00 00 00 00 00 00
 1.962565 1  18F159F3x       Rx   d 8 00 00 00 00 00 00 00 00
 1.963525 1  18F15AF3x       Rx   d 8 00 00 00 00 00 00 00 00
 1.964573 1  18F15BF3x       Rx   d 7 00 00 00 00 00 00 00
 1.965554 1  18F15CF3x       Rx   d 8 00 00 00 00 00 00 00 00
 1.966419 1  18F15DF3x       Rx   d 8 00 00 00 00 00 00 00 00
 1.967168 1  CFF21CAx        Rx   d 8 22 00 39 16 3A 36 00 14
 1.967751 1  18F15EF3x       Rx   d 8 00 00 00 00 00 00 00 00
 1.975253 1  18F100D0x       Rx   d 8 0C FF FF FF FF FF FF FF
 1.979208 1  CFF21CAx        Rx   d 8 22 00 39 16 3A 36 00 14
 1.991257 1  CFF21CAx        Rx   d 8 22 00 3A 16 3A 36 00 14
 1.999340 1  18F100D0x       Rx   d 8 0C FF FF FF FF FF FF FF
 2.003345 1  CFF21CAx        Rx   d 8 22 00 3A 16 3A 36 00 14
 2.006617 1  18FF2112x       Rx   d 8 01 00 00 00 00 00 00 00
 2.015441 1  CFF21CAx        Rx   d 8 22 00 3A 16 3A 36 00 14
 2.023453 1  18F100D0x       Rx   d 8 0C FF FF FF FF FF FF FF
 2.027390 1  CFF21CAx        Rx   d 8 22 00 3A 16 3A 36 00 14
 2.039596 1  CFF21CAx        Rx   d 8 22 00 3A 16 3A 36 00 14
 2.047522 1  18F100D0x       Rx   d 8 0C FF FF FF FF FF FF FF
 2.051896 1  CFF21CAx        Rx   d 8 22 00 3C 16 3A 36 00 14
 2.052630 1  18F100F3x       Rx   d 8 03 3F 7E 40 FA FA 14 00
 2.053540 1  18F102F3x       Rx   d 8 10 3D 10 36 10 0C 00 07
 2.055222 1  18F106F3x       Rx   d 8 45 E0 FC FF FF FF FF FF
 2.056382 1  18F107F3x       Rx   d 8 38 A4 27 10 01 76 00 00
 2.058293 1  18F108F3x       Rx   d 8 10 00 04 00 00 00 00 01
 2.059150 1  18F155F3x       Rx   d 8 38 38 39 39 39 3A 39 00
 2.059948 1  18F156F3x       Rx   d 8 00 00 00 00 00 00 00 00
 2.060925 1  18F157F3x       Rx   d 8 00 00 00 00 00 00 00 00
 2.061668 1  18F158F3x       Rx   d 8 00 00 00 00 00 00 00 00
 2.062695 1  18F159F3x       Rx   d 8 00 00 00 00 00 00 00 00
 2.063646 1  18F15AF3x       Rx   d 8 00 00 00 00 00 00 00 00
 2.064098 1  CFF21CAx        Rx   d 8 22 00 3A 16 3A 36 00 14
 2.064584 1  18F15BF3x       Rx   d 7 00 00 00 00 00 00 00
 2.065645 1  18F15CF3x       Rx   d 8 00 00 00 00 00 00 00 00
 2.066464 1  18F15DF3x       Rx   d 8 00 00 00 00 00 00 00 00
 2.067280 1  18F15EF3x       Rx   d 8 00 00 00 00 00 00 00 00
 2.071587 1  18F100D0x       Rx   d 8 0C FF FF FF FF FF FF FF
 2.075783 1  CFF21CAx        Rx   d 8 21 00 36 16 3A 36 00 14
 2.087631 1  CFF21CAx        Rx   d 8 21 00 3B 16 3A 36 00 14
 2.095673 1  18F100D0x       Rx   d 8 0C FF FF FF FF FF FF FF
 2.100249 1  CFF21CAx        Rx   d 8 21 00 3B 16 3A 36 00 14
 2.103897 1  18FF2112x       Rx   d 8 01 00 00 00 00 00 00 00
 2.111806 1  CFF21CAx        Rx   d 8 22 00 37 16 3A 36 00 14
 2.119872 1  18F100D0x       Rx   d 8 0C FF FF FF FF FF FF FF
 2.123925 1  CFF21CAx        Rx   d 8 22 00 3A 16 3A 36 00 14
 2.135949 1  CFF21CAx        Rx   d 8 22 00 37 16 3A 36 00 14
 2.143907 1  18F100D0x       Rx   d 8 0C FF FF FF FF FF FF FF
 2.148489 1  CFF21CAx        Rx   d 8 22 00 39 16 3A 36 00 14
 2.152114 1  18F104F3x       Rx   d 8 3A 38 06 01 02 FF FF FF
 2.153048 1  18F100F3x       Rx   d 8 03 3F 7E 3E FA FA 14 00
 2.153983 1  18F102F3x       Rx   d 8 10 3D 10 36 10 0C 00 07
 2.155504 1  18F106F3x       Rx   d 8 45 E0 FC FF FF FF FF FF
 2.156876 1  18F107F3x       Rx   d 8 38 A4 27 10 01 76 00 00
 2.158743 1  18F108F3x       Rx   d 8 10 00 04 00 00 00 00 01
 2.159752 1  18F113F3x       Rx   d 8 10 3A 10 39 10 39 10 3A
 2.160372 1  CFF21CAx        Rx   d 8 22 00 38 16 3A 36 00 14
 2.161064 1  18F114F3x       Rx   d 8 10 38 10 38 10 3B 10 3A
 2.161923 1  18F115F3x       Rx   d 8 10 38 10 37 10 38 10 36
 2.162909 1  18F116F3x       Rx   d 8 10 3C 10 39 10 3C 10 3D
 2.176341 1  18F117F3x       Rx   d 8 10 39 10 39 10 3D 10 3C
 2.176480 1  18F118F3x       Rx   d 8 00 00 00 00 00 00 00 00
 2.176616 1  18F119F3x       Rx   d 8 00 00 00 00 00 00 00 00
 2.176714 1  18F11AF3x       Rx   d 8 00 00 00 00 00 00 00 00
 2.176814 1  18F11BF3x       Rx   d 8 00 00 00 00 00 00 00 00
 2.176909 1  18F11CF3x       Rx   d 8 00 00 00 00 00 00 00 00
 2.177005 1  18F11DF3x       Rx   d 8 00 00 00 00 00 00 00 00
 2.177101 1  18F11EF3x       Rx   d 8 00 00 00 00 00 00 00 00
 2.177218 1  18F11FF3x       Rx   d 8 00 00 00 00 00 00 00 00
 2.177321 1  CFF21CAx        Rx   d 8 21 00 36 16 3A 36 00 14
 2.177417 1  18F100D0x       Rx   d 8 0C FF FF FF FF FF FF FF
 2.177515 1  18F120F3x       Rx   d 8 00 00 00 00 00 00 00 00
 2.177610 1  18F121F3x       Rx   d 8 00 00 00 00 00 00 00 00
 2.177706 1  18F122F3x       Rx   d 8 00 00 00 00 00 00 00 00
 2.177801 1  18F123F3x       Rx   d 8 00 00 00 00 00 00 00 00
 2.177895 1  18F124F3x       Rx   d 8 00 00 00 00 00 00 00 00
 2.178545 1  18F125F3x       Rx   d 8 00 00 00 00 00 00 00 00
 2.179546 1  18F126F3x       Rx   d 8 00 00 00 00 00 00 00 00
 2.180538 1  18F127F3x       Rx   d 8 00 00 00 00 00 00 00 00
 2.181382 1  18F128F3x       Rx   d 8 00 00 00 00 00 00 00 00
 2.182334 1  18F129F3x       Rx   d 8 00 00 00 00 00 00 00 00
 2.183300 1  18F12AF3x       Rx   d 8 00 00 00 00 00 00 00 00
 2.184033 1  CFF21CAx        Rx   d 8 21 00 3A 16 3A 36 00 14
 2.184607 1  18F12BF3x       Rx   d 8 00 00 00 00 00 00 00 00
 2.185556 1  18F12CF3x       Rx   d 8 00 00 00 00 00 00 00 00
 2.186518 1  18F12DF3x       Rx   d 8 00 00 00 00 00 00 00 00
 2.187544 1  18F12EF3x       Rx   d 8 00 00 00 00 00 00 00 00
 2.188403 1  18F12FF3x       Rx   d 8 00 00 00 00 00 00 00 00
 2.189325 1  18F130F3x       Rx   d 8 00 00 00 00 00 00 00 00
 2.190234 1  18F131F3x       Rx   d 8 00 00 00 00 00 00 00 00
 2.191106 1  18F132F3x       Rx   d 8 00 00 00 00 00 00 00 00
 2.191997 1  18F133F3x       Rx   d 8 00 00 00 00 00 00 00 00
 2.192872 1  18F134F3x       Rx   d 8 00 00 00 00 00 00 00 00
 2.193731 1  18F135F3x       Rx   d 8 00 00 00 00 00 00 00 00
 2.194776 1  18F136F3x       Rx   d 8 00 00 00 00 00 00 00 00
 2.195654 1  18F137F3x       Rx   d 8 00 00 00 00 00 00 00 00
 2.196535 1  CFF21CAx        Rx   d 8 22 00 3A 16 3A 36 00 14
 2.197089 1  18F100D0x       Rx   d 8 0C FF FF FF FF FF FF FF
 2.197636 1  18F138F3x       Rx   d 8 00 00 00 00 00 00 00 00
 2.198593 1  18F139F3x       Rx   d 8 00 00 00 00 00 00 00 00
 2.199535 1  18F13AF3x       Rx   d 8 00 00 00 00 00 00 00 00
 2.200397 1  18F13BF3x       Rx   d 8 00 00 00 00 00 00 00 00
 2.201195 1  18FF2112x       Rx   d 8 01 00 00 00 00 00 00 00
 2.201732 1  18F13CF3x       Rx   d 8 00 00 00 00 00 00 00 00
 2.202607 1  18F155F3x       Rx   d 8 38 38 39 39 39 3A 39 00
 2.203553 1  18F156F3x       Rx   d 8 00 00 00 00 00 00 00 00
 2.204738 1  18F157F3x       Rx   d 8 00 00 00 00 00 00 00 00
 2.205634 1  18F158F3x       Rx   d 8 00 00 00 00 00 00 00 00
 2.206585 1  18F159F3x       Rx   d 8 00 00 00 00 00 00 00 00
 2.207544 1  18F15AF3x       Rx   d 8 00 00 00 00 00 00 00 00
 2.208231 1  CFF21CAx        Rx   d 8 22 00 3A 16 3A 36 00 14
 2.208651 1  18F15BF3x       Rx   d 7 00 00 00 00 00 00 00
 2.209503 1  18F15CF3x       Rx   d 8 00 00 00 00 00 00 00 00
 2.210458 1  18F15DF3x       Rx   d 8 00 00 00 00 00 00 00 00
 2.211302 1  18F15EF3x       Rx   d 8 00 00 00 00 00 00 00 00
 2.220256 1  CFF21CAx        Rx   d 8 22 00 36 16 3A 36 00 14
 2.220796 1  18F100D0x       Rx   d 8 0C FF FF FF FF FF FF FF
 2.232284 1  CFF21CAx        Rx   d 8 21 00 3A 16 3A 36 00 14
 2.244770 1  CFF21CAx        Rx   d 8 21 00 3A 16 3A 36 00 14
 2.245269 1  18F100D0x       Rx   d 8 0C FF FF FF FF FF FF FF
 2.252748 1  18F100F3x       Rx   d 8 03 3F 7E 3E FA FA 14 00
 2.253560 1  18F102F3x       Rx   d 8 10 3D 10 36 10 0C 00 07
 2.255095 1  18F106F3x       Rx   d 8 45 E0 FC FF FF FF FF FF
 2.256394 1  18F107F3x       Rx   d 8 38 A4 27 10 01 76 00 00
 2.256939 1  CFF21CAx        Rx   d 8 21 00 38 16 3A 36 00 14
 2.258169 1  18F108F3x       Rx   d 8 10 00 04 00 00 00 00 01
 2.259223 1  18F155F3x       Rx   d 8 38 38 39 39 39 3A 39 00
 2.260082 1  18F156F3x       Rx   d 8 00 00 00 00 00 00 00 00
 2.260836 1  18F157F3x       Rx   d 8 00 00 00 00 00 00 00 00
 2.261726 1  18F158F3x       Rx   d 8 00 00 00 00 00 00 00 00
 2.262586 1  18F159F3x       Rx   d 8 00 00 00 00 00 00 00 00
 2.263541 1  18F15AF3x       Rx   d 8 00 00 00 00 00 00 00 00
 2.264623 1  18F15BF3x       Rx   d 7 00 00 00 00 00 00 00
 2.265559 1  18F15CF3x       Rx   d 8 00 00 00 00 00 00 00 00
 2.266426 1  18F15DF3x       Rx   d 8 00 00 00 00 00 00 00 00
 2.267309 1  18F15EF3x       Rx   d 8 00 00 00 00 00 00 00 00
 2.268786 1  CFF21CAx        Rx   d 8 21 00 39 16 3A 36 00 14
 2.269450 1  18F100D0x       Rx   d 8 0C FF FF FF FF FF FF FF
 2.280520 1  CFF21CAx        Rx   d 8 21 00 38 16 3A 36 00 14
 2.293027 1  CFF21CAx        Rx   d 8 22 00 3A 16 3A 36 00 14
 2.293497 1  18F100D0x       Rx   d 8 0C FF FF FF FF FF FF FF
 2.298612 1  18FF2112x       Rx   d 8 01 00 00 00 00 00 00 00
 2.304541 1  CFF21CAx        Rx   d 8 22 00 39 16 3A 36 00 14
 2.317351 1  CFF21CAx        Rx   d 8 22 00 3B 16 3A 36 00 14
 2.317893 1  18F100D0x       Rx   d 8 0C FF FF FF FF FF FF FF
 2.328753 1  CFF21CAx        Rx   d 8 21 00 39 16 3A 36 00 14
 2.341167 1  CFF21CAx        Rx   d 8 21 00 37 16 3A 36 00 14
 2.341872 1  18F100D0x       Rx   d 8 0C FF FF FF FF FF FF FF
 2.352808 1  18F100F3x       Rx   d 8 03 3F 7E 3E FA FA 14 00
 2.353213 1  CFF21CAx        Rx   d 8 21 00 3A 16 3A 36 00 14
 2.353762 1  18F102F3x       Rx   d 8 10 3D 10 36 10 0C 00 07
 2.355261 1  18F106F3x       Rx   d 8 45 E0 FC FF FF FF FF FF
 2.356410 1  18F107F3x       Rx   d 8 38 A4 27 10 01 76 00 00
 2.358351 1  18F108F3x       Rx   d 8 10 00 04 00 00 00 00 01
 2.359225 1  18F155F3x       Rx   d 8 38 38 39 39 39 3A 39 00
 2.360003 1  18F156F3x       Rx   d 8 00 00 00 00 00 00 00 00
 2.360993 1  18F157F3x       Rx   d 8 00 00 00 00 00 00 00 00
 2.361700 1  18F158F3x       Rx   d 8 00 00 00 00 00 00 00 00
