date Sat May 09 09:52:30.599 2026
base hex  timestamps absolute
internal events logged
Begin Triggerblock Sat May 09 09:52:30.604 2026
 0.000000 Start of measurement
 0.000000 1  18F100D0x       Rx   d 8 0C FF FF FF FF FF FF FF
 0.000149 1  CFF21CAx        Rx   d 8 2B 00 71 17 3F 3C 00 24
 0.000259 1  CFF21CAx        Rx   d 8 2A 00 71 17 3F 3C 00 24
 0.000352 1  18FECACAx       Rx   d 8 00 00 00 00 00 00 FF FF
 0.002061 1  18F100D0x       Rx   d 8 0C FF FF FF FF FF FF FF
 0.006540 1  CFF21CAx        Rx   d 8 2A 00 70 17 3F 3C 00 24
 0.013465 1  18F100F3x       Rx   d 8 03 37 7D D3 F3 FA 14 00
 0.014356 1  18F102F3x       Rx   d 8 10 15 10 0E 10 0C 00 07
 0.015670 1  18F106F3x       Rx   d 8 45 E0 FC FF FF FF FF FF
 0.016916 1  18F107F3x       Rx   d 8 38 A4 27 10 01 72 00 00
 0.018550 1  CFF21CAx        Rx   d 8 29 00 6F 17 3F 3C 00 24
 0.019142 1  18F108F3x       Rx   d 8 00 00 00 00 00 00 00 00
 0.020327 1  18F155F3x       Rx   d 8 38 37 38 38 38 39 38 00
 0.021245 1  18F156F3x       Rx   d 8 00 00 00 00 00 00 00 00
 0.022174 1  18F157F3x       Rx   d 8 00 00 00 00 00 00 00 00
 0.023129 1  18F158F3x       Rx   d 8 00 00 00 00 00 00 00 00
 0.024052 1  18F159F3x       Rx   d 8 00 00 00 00 00 00 00 00
 0.024891 1  18F15AF3x       Rx   d 8 00 00 00 00 00 00 00 00
 0.025710 1  18F15BF3x       Rx   d 7 00 00 00 00 00 00 00
 0.026536 1  18F15CF3x       Rx   d 8 00 00 00 00 00 00 00 00
 0.027381 1  18F15DF3x       Rx   d 8 00 00 00 00 00 00 00 00
 0.028289 1  18F15EF3x       Rx   d 8 00 00 00 00 00 00 00 00
 0.030607 1  CFF21CAx        Rx   d 8 29 00 6D 17 3F 3C 00 24
 0.031176 1  18F100D0x       Rx   d 8 0C FF FF FF FF FF FF FF
 0.042218 1  CFF21CAx        Rx   d 8 29 00 6B 17 3F 3C 00 24
 0.044546 1  18FF2112x       Rx   d 8 01 00 00 00 00 00 00 00
 0.054278 1  CFF21CAx        Rx   d 8 29 00 6A 17 3F 3C 00 24
 0.054812 1  18F100D0x       Rx   d 8 0C FF FF FF FF FF FF FF
 0.066746 1  CFF21CAx        Rx   d 8 29 00 65 17 3F 3C 00 24
 0.079078 1  CFF21CAx        Rx   d 8 29 00 63 17 3F 3C 00 24
 0.082429 1  18F100D0x       Rx   d 8 0C FF FF FF FF FF FF FF
 0.090452 1  CFF21CAx        Rx   d 8 2A 00 60 17 3F 3C 00 24
 0.102512 1  CFF21CAx        Rx   d 8 2A 00 5E 17 3F 3C 00 24
 0.106508 1  18F100D0x       Rx   d 8 0C FF FF FF FF FF FF FF
 0.113535 1  18F100F3x       Rx   d 8 03 37 7D D3 F3 FA 14 00
 0.114404 1  18F102F3x       Rx   d 8 10 15 10 0E 10 0C 00 07
 0.115046 1  CFF21CAx        Rx   d 8 2B 00 5E 17 3F 3C 00 24
 0.115722 1  18F106F3x       Rx   d 8 45 E0 FC FF FF FF FF FF
 0.117009 1  18F107F3x       Rx   d 8 38 A4 27 10 01 72 00 00
 0.118769 1  18F108F3x       Rx   d 8 00 00 00 00 00 00 00 00
 0.119672 1  18F155F3x       Rx   d 8 38 37 38 38 38 39 38 00
 0.120634 1  18F156F3x       Rx   d 8 00 00 00 00 00 00 00 00
 0.121525 1  18F157F3x       Rx   d 8 00 00 00 00 00 00 00 00
 0.122380 1  18F158F3x       Rx   d 8 00 00 00 00 00 00 00 00
 0.123345 1  18F159F3x       Rx   d 8 00 00 00 00 00 00 00 00
 0.124230 1  18F15AF3x       Rx   d 8 00 00 00 00 00 00 00 00
 0.125107 1  18F15BF3x       Rx   d 7 00 00 00 00 00 00 00
 0.125995 1  18F15CF3x       Rx   d 8 00 00 00 00 00 00 00 00
 0.126555 1  CFF21CAx        Rx   d 8 2B 00 5E 17 3F 3C 00 24
 0.127140 1  18F15DF3x       Rx   d 8 00 00 00 00 00 00 00 00
 0.128041 1  18F15EF3x       Rx   d 8 00 00 00 00 00 00 00 00
 0.130616 1  18F100D0x       Rx   d 8 0C FF FF FF FF FF FF FF
 0.138618 1  CFF21CAx        Rx   d 8 2B 00 5D 17 3F 3C 00 24
 0.142113 1  18FF2112x       Rx   d 8 01 00 00 00 00 00 00 00
 0.150700 1  CFF21CAx        Rx   d 8 2C 00 5E 17 3F 3C 00 24
 0.154719 1  18F100D0x       Rx   d 8 0C FF FF FF FF FF FF FF
 0.162819 1  CFF21CAx        Rx   d 8 2C 00 62 17 3F 3C 00 24
 0.174817 1  CFF21CAx        Rx   d 8 2C 00 62 17 3F 3C 00 24
 0.178826 1  18F100D0x       Rx   d 8 0C FF FF FF FF FF FF FF
 0.186826 1  CFF21CAx        Rx   d 8 2D 00 60 17 3F 3C 00 24
 0.198935 1  CFF21CAx        Rx   d 8 2D 00 60 17 3F 3C 00 24
 0.207361 1  18F100D0x       Rx   d 8 0C FF FF FF FF FF FF FF
 0.210975 1  CFF21CAx        Rx   d 8 2D 00 60 17 3F 3C 00 24
 0.213549 1  18F100F3x       Rx   d 8 03 37 7D CE F3 FA 14 00
 0.214407 1  18F102F3x       Rx   d 8 10 15 10 0E 10 0C 00 07
 0.215681 1  18F106F3x       Rx   d 8 45 E0 FC FF FF FF FF FF
 0.216924 1  18F107F3x       Rx   d 8 38 A4 27 10 01 72 00 00
 0.218709 1  18F108F3x       Rx   d 8 00 00 00 00 00 00 00 00
 0.219559 1  18F155F3x       Rx   d 8 38 37 38 38 38 39 38 00
 0.220613 1  18F156F3x       Rx   d 8 00 00 00 00 00 00 00 00
 0.221502 1  18F157F3x       Rx   d 8 00 00 00 00 00 00 00 00
 0.222388 1  18F158F3x       Rx   d 8 00 00 00 00 00 00 00 00
 0.223073 1  CFF21CAx        Rx   d 8 2F 00 60 17 3F 3C 00 24
 0.223521 1  18F159F3x       Rx   d 8 00 00 00 00 00 00 00 00
 0.224404 1  18F15AF3x       Rx   d 8 00 00 00 00 00 00 00 00
 0.225289 1  18F15BF3x       Rx   d 7 00 00 00 00 00 00 00
 0.226194 1  18F15CF3x       Rx   d 8 00 00 00 00 00 00 00 00
 0.227031 1  18F100D0x       Rx   d 8 0C FF FF FF FF FF FF FF
 0.227522 1  18F15DF3x       Rx   d 8 00 00 00 00 00 00 00 00
 0.228408 1  18F15EF3x       Rx   d 8 00 00 00 00 00 00 00 00
 0.235081 1  CFF21CAx        Rx   d 8 2F 00 64 17 3F 3C 00 24
 0.239149 1  18FF2112x       Rx   d 8 01 00 00 00 00 00 00 00
 0.247143 1  CFF21CAx        Rx   d 8 30 00 61 17 3F 3C 00 24
 0.255130 1  18F100D0x       Rx   d 8 0C FF FF FF FF FF FF FF
 0.259505 1  CFF21CAx        Rx   d 8 30 00 62 17 3F 3C 00 24
 0.271218 1  CFF21CAx        Rx   d 8 30 00 62 17 3F 3C 00 24
 0.279249 1  18F100D0x       Rx   d 8 0C FF FF FF FF FF FF FF
 0.283209 1  CFF21CAx        Rx   d 8 2F 00 60 17 3F 3C 00 24
 0.295315 1  CFF21CAx        Rx   d 8 2F 00 65 17 3F 3C 00 24
 0.303376 1  18F100D0x       Rx   d 8 0C FF FF FF FF FF FF FF
 0.307423 1  CFF21CAx        Rx   d 8 2F 00 65 17 3F 3C 00 24
 0.313601 1  18F100F3x       Rx   d 8 03 37 7D CE F3 FA 14 00
 0.314460 1  18F102F3x       Rx   d 8 10 15 10 0E 10 0C 00 07
 0.315724 1  18F106F3x       Rx   d 8 45 E0 FC FF FF FF FF FF
 0.317080 1  18F107F3x       Rx   d 8 38 A4 27 10 01 72 00 00
 0.318728 1  18F108F3x       Rx   d 8 00 00 00 00 00 00 00 00
 0.319616 1  18F155F3x       Rx   d 8 38 37 38 38 38 39 38 00
 0.320147 1  CFF21CAx        Rx   d 8 2F 00 66 17 3F 3C 00 24
 0.320731 1  18F156F3x       Rx   d 8 00 00 00 00 00 00 00 00
 0.321599 1  18F157F3x       Rx   d 8 00 00 00 00 00 00 00 00
 0.322518 1  18F158F3x       Rx   d 8 00 00 00 00 00 00 00 00
 0.323427 1  18F159F3x       Rx   d 8 00 00 00 00 00 00 00 00
 0.324332 1  18F15AF3x       Rx   d 8 00 00 00 00 00 00 00 00
 0.325219 1  18F15BF3x       Rx   d 7 00 00 00 00 00 00 00
 0.326103 1  18F15CF3x       Rx   d 8 00 00 00 00 00 00 00 00
 0.326940 1  18F15DF3x       Rx   d 8 00 00 00 00 00 00 00 00
 0.327528 1  18F100D0x       Rx   d 8 0C FF FF FF FF FF FF FF
 0.328107 1  18F15EF3x       Rx   d 8 00 00 00 00 00 00 00 00
 0.331419 1  CFF21CAx        Rx   d 8 2F 00 66 17 3F 3C 00 24
 0.336418 1  18FF2112x       Rx   d 8 01 00 00 00 00 00 00 00
 0.343503 1  CFF21CAx        Rx   d 8 2D 00 68 17 3F 3C 00 24
 0.355926 1  CFF21CAx        Rx   d 8 2D 00 68 17 3F 3C 00 24
 0.356452 1  18F100D0x       Rx   d 8 0C FF FF FF FF FF FF FF
 0.367608 1  CFF21CAx        Rx   d 8 2D 00 6B 17 3F 3C 00 24
 0.379711 1  CFF21CAx        Rx   d 8 2E 00 69 17 3F 3C 00 24
 0.380364 1  18F100D0x       Rx   d 8 0C FF FF FF FF FF FF FF
 0.391898 1  CFF21CAx        Rx   d 8 2E 00 6B 17 3F 3C 00 24
 0.404206 1  CFF21CAx        Rx   d 8 2D 00 6E 17 3F 3C 00 24
 0.404666 1  18F100D0x       Rx   d 8 0C FF FF FF FF FF FF FF
 0.423758 1  18F100F3x       Rx   d 8 03 37 7D E7 F3 FA 14 00
 0.423905 1  18F102F3x       Rx   d 8 10 15 10 0E 10 0C 00 07
 0.424036 1  18F106F3x       Rx   d 8 45 E0 FC FF FF FF FF FF
 0.424175 1  CFF21CAx        Rx   d 8 2D 00 6A 17 3F 3C 00 24
 0.424303 1  18F107F3x       Rx   d 8 38 A4 27 10 01 72 00 00
 0.424423 1  18F108F3x       Rx   d 8 00 00 00 00 00 00 00 00
 0.424540 1  18F155F3x       Rx   d 8 38 37 38 38 38 39 38 00
 0.424721 1  18F156F3x       Rx   d 8 00 00 00 00 00 00 00 00
 0.424862 1  18F157F3x       Rx   d 8 00 00 00 00 00 00 00 00
 0.424984 1  18F158F3x       Rx   d 8 00 00 00 00 00 00 00 00
 0.425114 1  18F159F3x       Rx   d 8 00 00 00 00 00 00 00 00
 0.425475 1  18F15AF3x       Rx   d 8 00 00 00 00 00 00 00 00
 0.425585 1  18F15BF3x       Rx   d 7 00 00 00 00 00 00 00
 0.426047 1  18F15CF3x       Rx   d 8 00 00 00 00 00 00 00 00
 0.426868 1  18F15DF3x       Rx   d 8 00 00 00 00 00 00 00 00
 0.427703 1  18F15EF3x       Rx   d 8 00 00 00 00 00 00 00 00
 0.428235 1  CFF21CAx        Rx   d 8 2D 00 65 17 3F 3C 00 24
 0.428799 1  18F100D0x       Rx   d 8 0C FF FF FF FF FF FF FF
 0.433723 1  18FF2112x       Rx   d 8 01 00 00 00 00 00 00 00
 0.439869 1  CFF21CAx        Rx   d 8 2E 00 6B 17 3F 3C 00 24
 0.452349 1  CFF21CAx        Rx   d 8 2E 00 66 17 3F 3C 00 24
 0.452888 1  18F100D0x       Rx   d 8 0C FF FF FF FF FF FF FF
 0.463970 1  CFF21CAx        Rx   d 8 2D 00 69 17 3F 3C 00 24
 0.476427 1  CFF21CAx        Rx   d 8 2D 00 69 17 3F 3C 00 24
 0.476950 1  18F100D0x       Rx   d 8 0C FF FF FF FF FF FF FF
 0.488075 1  18F104F3x       Rx   d 8 39 37 06 02 02 FF FF FF
 0.488531 1  CFF21CAx        Rx   d 8 2D 00 69 17 3F 3C 00 24
 0.489075 1  18F113F3x       Rx   d 8 10 11 10 11 10 11 10 12
 0.490301 1  18F114F3x       Rx   d 8 10 10 10 10 10 12 10 12
 0.491313 1  18F115F3x       Rx   d 8 10 10 10 0F 10 10 10 0E
 0.492227 1  18F116F3x       Rx   d 8 10 14 10 11 10 14 10 15
 0.493164 1  18F117F3x       Rx   d 8 10 11 10 12 10 15 10 14
 0.494099 1  18F118F3x       Rx   d 8 00 00 00 00 00 00 00 00
 0.495049 1  18F119F3x       Rx   d 8 00 00 00 00 00 00 00 00
 0.495874 1  18F11AF3x       Rx   d 8 00 00 00 00 00 00 00 00
 0.496794 1  18F11BF3x       Rx   d 8 00 00 00 00 00 00 00 00
 0.497705 1  18F11CF3x       Rx   d 8 00 00 00 00 00 00 00 00
 0.498655 1  18F11DF3x       Rx   d 8 00 00 00 00 00 00 00 00
 0.499568 1  18F11EF3x       Rx   d 8 00 00 00 00 00 00 00 00
 0.500544 1  CFF21CAx        Rx   d 8 2D 00 66 17 3F 3C 00 24
 0.501111 1  18F11FF3x       Rx   d 8 00 00 00 00 00 00 00 00
 0.502012 1  18F120F3x       Rx   d 8 00 00 00 00 00 00 00 00
 0.502922 1  18F121F3x       Rx   d 8 00 00 00 00 00 00 00 00
 0.503809 1  18F122F3x       Rx   d 8 00 00 00 00 00 00 00 00
 0.504375 1  18F100D0x       Rx   d 8 0C FF FF FF FF FF FF FF
 0.505045 1  18F123F3x       Rx   d 8 00 00 00 00 00 00 00 00
 0.505854 1  18F124F3x       Rx   d 8 00 00 00 00 00 00 00 00
 0.506788 1  18F125F3x       Rx   d 8 00 00 00 00 00 00 00 00
 0.507669 1  18F126F3x       Rx   d 8 00 00 00 00 00 00 00 00
 0.508534 1  18F127F3x       Rx   d 8 00 00 00 00 00 00 00 00
 0.509470 1  18F128F3x       Rx   d 8 00 00 00 00 00 00 00 00
 0.510660 1  18F129F3x       Rx   d 8 00 00 00 00 00 00 00 00
 0.511536 1  18F12AF3x       Rx   d 8 00 00 00 00 00 00 00 00
 0.512142 1  CFF21CAx        Rx   d 8 2D 00 66 17 3F 3C 00 24
 0.512676 1  18F12BF3x       Rx   d 8 00 00 00 00 00 00 00 00
 0.513630 1  18F100F3x       Rx   d 8 03 37 7D E7 F3 FA 14 00
 0.514189 1  18F102F3x       Rx   d 8 10 15 10 0E 10 0C 00 07
 0.515518 1  18F106F3x       Rx   d 8 45 E0 FC FF FF FF FF FF
 0.516857 1  18F107F3x       Rx   d 8 38 A4 27 10 01 72 00 00
 0.518651 1  18F108F3x       Rx   d 8 00 00 00 00 00 00 00 00
 0.519570 1  18F12CF3x       Rx   d 8 00 00 00 00 00 00 00 00
 0.520649 1  18F12DF3x       Rx   d 8 00 00 00 00 00 00 00 00
 0.521548 1  18F12EF3x       Rx   d 8 00 00 00 00 00 00 00 00
 0.522436 1  18F12FF3x       Rx   d 8 00 00 00 00 00 00 00 00
 0.523362 1  18F130F3x       Rx   d 8 00 00 00 00 00 00 00 00
 0.524353 1  18F131F3x       Rx   d 8 00 00 00 00 00 00 00 00
 0.524841 1  CFF21CAx        Rx   d 8 2D 00 64 17 3F 3C 00 24
 0.525442 1  18F132F3x       Rx   d 8 00 00 00 00 00 00 00 00
 0.526414 1  18F133F3x       Rx   d 8 00 00 00 00 00 00 00 00
 0.527328 1  18F134F3x       Rx   d 8 00 00 00 00 00 00 00 00
 0.528238 1  18F100D0x       Rx   d 8 0C FF FF FF FF FF FF FF
 0.528779 1  18F135F3x       Rx   d 8 00 00 00 00 00 00 00 00
 0.529657 1  18F136F3x       Rx   d 8 00 00 00 00 00 00 00 00
 0.530623 1  18F137F3x       Rx   d 8 00 00 00 00 00 00 00 00
 0.531208 1  18FF2112x       Rx   d 8 01 00 00 00 00 00 00 00
 0.531787 1  18F138F3x       Rx   d 8 00 00 00 00 00 00 00 00
 0.532662 1  18F139F3x       Rx   d 8 00 00 00 00 00 00 00 00
 0.533525 1  18F13AF3x       Rx   d 8 00 00 00 00 00 00 00 00
 0.534418 1  18F13BF3x       Rx   d 8 00 00 00 00 00 00 00 00
 0.535348 1  18F13CF3x       Rx   d 8 00 00 00 00 00 00 00 00
 0.536246 1  CFF21CAx        Rx   d 8 2E 00 66 17 3F 3C 00 24
 0.536775 1  18F155F3x       Rx   d 8 38 37 38 38 38 39 38 00
 0.537668 1  18F156F3x       Rx   d 8 00 00 00 00 00 00 00 00
 0.538570 1  18F157F3x       Rx   d 8 00 00 00 00 00 00 00 00
 0.539460 1  18F158F3x       Rx   d 8 00 00 00 00 00 00 00 00
 0.540642 1  18F159F3x       Rx   d 8 00 00 00 00 00 00 00 00
 0.541527 1  18F15AF3x       Rx   d 8 00 00 00 00 00 00 00 00
 0.542382 1  18F15BF3x       Rx   d 7 00 00 00 00 00 00 00
 0.543289 1  18F15CF3x       Rx   d 8 00 00 00 00 00 00 00 00
 0.544311 1  18F15DF3x       Rx   d 8 00 00 00 00 00 00 00 00
 0.545099 1  18F15EF3x       Rx   d 8 00 00 00 00 00 00 00 00
 0.548948 1  CFF21CAx        Rx   d 8 2E 00 64 17 3F 3C 00 24
 0.552330 1  18F100D0x       Rx   d 8 0C FF FF FF FF FF FF FF
 0.560374 1  CFF21CAx        Rx   d 8 2E 00 64 17 3F 3C 00 24
 0.572890 1  CFF21CAx        Rx   d 8 2D 00 65 17 3F 3C 00 24
 0.576454 1  18F100D0x       Rx   d 8 0C FF FF FF FF FF FF FF
 0.584503 1  CFF21CAx        Rx   d 8 2D 00 65 17 3F 3C 00 24
 0.597116 1  CFF21CAx        Rx   d 8 2D 00 68 17 3F 3C 00 24
 0.604760 1  18F100D0x       Rx   d 8 0C FF FF FF FF FF FF FF
 0.608617 1  CFF21CAx        Rx   d 8 2D 00 64 17 3F 3C 00 24
 0.613607 1  18F100F3x       Rx   d 8 03 37 7D E7 F3 FA 14 00
 0.614456 1  18F102F3x       Rx   d 8 10 15 10 0E 10 0C 00 07
 0.615808 1  18F106F3x       Rx   d 8 45 E0 FC FF FF FF FF FF
 0.617073 1  18F107F3x       Rx   d 8 38 A4 27 10 01 72 00 00
 0.618815 1  18F108F3x       Rx   d 8 00 00 00 00 00 00 00 00
 0.619697 1  18F155F3x       Rx   d 8 38 37 38 38 38 39 38 00
 0.620669 1  18F156F3x       Rx   d 8 00 00 00 00 00 00 00 00
 0.621231 1  CFF21CAx        Rx   d 8 2D 00 6B 17 3F 3C 00 24
 0.621793 1  18F157F3x       Rx   d 8 00 00 00 00 00 00 00 00
 0.622666 1  18F158F3x       Rx   d 8 00 00 00 00 00 00 00 00
 0.623554 1  18F159F3x       Rx   d 8 00 00 00 00 00 00 00 00
 0.624405 1  18F15AF3x       Rx   d 8 00 00 00 00 00 00 00 00
 0.625270 1  18F15BF3x       Rx   d 7 00 00 00 00 00 00 00
 0.626394 1  18F15CF3x       Rx   d 8 00 00 00 00 00 00 00 00
 0.627199 1  18F15DF3x       Rx   d 8 00 00 00 00 00 00 00 00
 0.627956 1  18F15EF3x       Rx   d 8 00 00 00 00 00 00 00 00
 0.628499 1  18FF2112x       Rx   d 8 01 00 00 00 00 00 00 00
 0.629041 1  18F100D0x       Rx   d 8 0C FF FF FF FF FF FF FF
 0.641954 1  CFF21CAx        Rx   d 8 2D 00 69 17 3F 3C 00 24
 0.645192 1  CFF21CAx        Rx   d 8 2D 00 6E 17 3F 3C 00 24
 0.652768 1  18F100D0x       Rx   d 8 0C FF FF FF FF FF FF FF
 0.656751 1  CFF21CAx        Rx   d 8 2D 00 6F 17 3F 3C 00 24
 0.669363 1  CFF21CAx        Rx   d 8 2C 00 71 17 3F 3C 00 24
 0.677485 1  18F100D0x       Rx   d 8 0C FF FF FF FF FF FF FF
 0.680889 1  CFF21CAx        Rx   d 8 2C 00 6F 17 3F 3C 00 24
 0.693406 1  CFF21CAx        Rx   d 8 2C 00 6E 17 3F 3C 00 24
 0.701424 1  18F100D0x       Rx   d 8 0C FF FF FF FF FF FF FF
 0.704972 1  CFF21CAx        Rx   d 8 2C 00 70 17 3F 3C 00 24
 0.713618 1  18F100F3x       Rx   d 8 03 37 7D DE F3 FA 14 00
 0.714448 1  18F102F3x       Rx   d 8 10 15 10 0E 10 0C 00 07
 0.715721 1  18F106F3x       Rx   d 8 45 E0 FC FF FF FF FF FF
 0.716972 1  18F107F3x       Rx   d 8 38 A4 27 10 01 72 00 00
 0.717560 1  CFF21CAx        Rx   d 8 2C 00 6F 17 3F 3C 00 24
 0.718740 1  18F108F3x       Rx   d 8 00 00 00 00 00 00 00 00
 0.719805 1  18F155F3x       Rx   d 8 38 37 38 38 38 39 38 00
 0.720647 1  18F156F3x       Rx   d 8 00 00 00 00 00 00 00 00
 0.721554 1  18F157F3x       Rx   d 8 00 00 00 00 00 00 00 00
 0.722401 1  18F158F3x       Rx   d 8 00 00 00 00 00 00 00 00
 0.723434 1  18F159F3x       Rx   d 8 00 00 00 00 00 00 00 00
 0.724236 1  18F15AF3x       Rx   d 8 00 00 00 00 00 00 00 00
 0.725113 1  18F15BF3x       Rx   d 7 00 00 00 00 00 00 00
 0.725703 1  18FF2112x       Rx   d 8 01 00 00 00 00 00 00 00
 0.726284 1  18F15CF3x       Rx   d 8 00 00 00 00 00 00 00 00
 0.727240 1  18F15DF3x       Rx   d 8 00 00 00 00 00 00 00 00
 0.728087 1  18F15EF3x       Rx   d 8 00 00 00 00 00 00 00 00
 0.729035 1  CFF21CAx        Rx   d 8 2B 00 6F 17 3F 3C 00 24
 0.729570 1  18F100D0x       Rx   d 8 0C FF FF FF FF FF FF FF
 0.741678 1  CFF21CAx        Rx   d 8 2B 00 6E 17 3F 3C 00 24
 0.753171 1  CFF21CAx        Rx   d 8 2B 00 6F 17 3F 3C 00 24
 0.753667 1  18F100D0x       Rx   d 8 0C FF FF FF FF FF FF FF
 0.765665 1  CFF21CAx        Rx   d 8 2B 00 6D 17 3F 3C 00 24
 0.777276 1  CFF21CAx        Rx   d 8 2B 00 6E 17 3F 3C 00 24
 0.777772 1  18F100D0x       Rx   d 8 0C FF FF FF FF FF FF FF
 0.789810 1  CFF21CAx        Rx   d 8 2A 00 6F 17 3F 3C 00 24
 0.801428 1  CFF21CAx        Rx   d 8 2A 00 6B 17 3F 3C 00 24
 0.801876 1  18F100D0x       Rx   d 8 0C FF FF FF FF FF FF FF
 0.813625 1  18F100F3x       Rx   d 8 03 37 7D DE F3 FA 14 00
 0.814133 1  CFF21CAx        Rx   d 8 2A 00 6A 17 3F 3C 00 24
 0.814703 1  18F102F3x       Rx   d 8 10 15 10 0E 10 0C 00 07
 0.815950 1  18F106F3x       Rx   d 8 45 E0 FC FF FF FF FF FF
 0.817277 1  18F107F3x       Rx   d 8 38 A4 27 10 01 72 00 00
 0.819073 1  18F108F3x       Rx   d 8 00 00 00 00 00 00 00 00
 0.819948 1  18F155F3x       Rx   d 8 38 37 38 38 38 39 38 00
 0.820762 1  18F156F3x       Rx   d 8 00 00 00 00 00 00 00 00
 0.821701 1  18F157F3x       Rx   d 8 00 00 00 00 00 00 00 00
 0.822590 1  18F158F3x       Rx   d 8 00 00 00 00 00 00 00 00
 0.823150 1  18FF2112x       Rx   d 8 01 00 00 00 00 00 00 00
 0.823863 1  18F159F3x       Rx   d 8 00 00 00 00 00 00 00 00
 0.824599 1  18F15AF3x       Rx   d 8 00 00 00 00 00 00 00 00
 0.825480 1  CFF21CAx        Rx   d 8 2A 00 6C 17 3F 3C 00 24
 0.826046 1  18F15BF3x       Rx   d 7 00 00 00 00 00 00 00
 0.826999 1  18F15CF3x       Rx   d 8 00 00 00 00 00 00 00 00
 0.827826 1  18F15DF3x       Rx   d 8 00 00 00 00 00 00 00 00
 0.828642 1  18F15EF3x       Rx   d 8 00 00 00 00 00 00 00 00
 0.829930 1  18F100D0x       Rx   d 8 0C FF FF FF FF FF FF FF
 0.837949 1  CFF21CAx        Rx   d 8 2A 00 66 17 3F 3C 00 24
 0.861208 1  CFF21CAx        Rx   d 8 2B 00 69 17 3F 3C 00 24
 0.861347 1  18F100D0x       Rx   d 8 0C FF FF FF FF FF FF FF
 0.862095 1  CFF21CAx        Rx   d 8 2B 00 65 17 3F 3C 00 24
 0.873772 1  CFF21CAx        Rx   d 8 2B 00 6C 17 3F 3C 00 24
 0.878131 1  18F100D0x       Rx   d 8 0C FF FF FF FF FF FF FF
 0.886098 1  CFF21CAx        Rx   d 8 2B 00 66 17 3F 3C 00 24
 0.897723 1  CFF21CAx        Rx   d 8 2B 00 66 17 3F 3C 00 24
 0.902175 1  18F100D0x       Rx   d 8 0C FF FF FF FF FF FF FF
 0.910207 1  CFF21CAx        Rx   d 8 2B 00 63 17 3F 3C 00 24
 0.913554 1  18F100F3x       Rx   d 8 03 37 7D CB F3 FA 14 00
 0.914417 1  18F102F3x       Rx   d 8 10 15 10 0E 10 0C 00 07
 0.915731 1  18F106F3x       Rx   d 8 45 E0 FC FF FF FF FF FF
 0.917034 1  18F107F3x       Rx   d 8 38 A4 27 10 01 72 00 00
 0.918746 1  18F108F3x       Rx   d 8 00 00 00 00 00 00 00 00
 0.919617 1  18F155F3x       Rx   d 8 38 37 38 38 38 39 38 00
 0.920213 1  18FF2112x       Rx   d 8 01 00 00 00 00 00 00 00
 0.920786 1  18F156F3x       Rx   d 8 00 00 00 00 00 00 00 00
 0.921669 1  18F157F3x       Rx   d 8 00 00 00 00 00 00 00 00
 0.922207 1  CFF21CAx        Rx   d 8 2B 00 63 17 3F 3C 00 24
 0.922773 1  18F158F3x       Rx   d 8 00 00 00 00 00 00 00 00
 0.923677 1  18F159F3x       Rx   d 8 00 00 00 00 00 00 00 00
 0.924542 1  18F15AF3x       Rx   d 8 00 00 00 00 00 00 00 00
 0.925392 1  18F15BF3x       Rx   d 7 00 00 00 00 00 00 00
 0.926279 1  18F100D0x       Rx   d 8 0C FF FF FF FF FF FF FF
 0.926831 1  18F15CF3x       Rx   d 8 00 00 00 00 00 00 00 00
 0.927671 1  18F15DF3x       Rx   d 8 00 00 00 00 00 00 00 00
 0.928533 1  18F15EF3x       Rx   d 8 00 00 00 00 00 00 00 00
 0.934458 1  CFF21CAx        Rx   d 8 2B 00 63 17 3F 3C 00 24
 0.946006 1  CFF21CAx        Rx   d 8 2B 00 66 17 3F 3C 00 24
 0.953943 1  18F100D0x       Rx   d 8 0C FF FF FF FF FF FF FF
 0.958448 1  CFF21CAx        Rx   d 8 2C 00 64 17 3F 3C 00 24
 0.970111 1  CFF21CAx        Rx   d 8 2C 00 67 17 3F 3C 00 24
 0.978093 1  18F100D0x       Rx   d 8 0C FF FF FF FF FF FF FF
 0.982504 1  CFF21CAx        Rx   d 8 2C 00 68 17 3F 3C 00 24
 0.994304 1  CFF21CAx        Rx   d 8 2C 00 69 17 3F 3C 00 24
 1.002244 1  18F100D0x       Rx   d 8 0C FF FF FF FF FF FF FF
 1.002737 1  18FECACAx       Rx   d 8 00 00 00 00 00 00 FF FF
 1.006607 1  CFF21CAx        Rx   d 8 2C 00 6E 17 3F 3C 00 24
 1.013591 1  18F100F3x       Rx   d 8 03 37 7D CB F3 FA 14 00
 1.014524 1  18F102F3x       Rx   d 8 10 15 10 0E 10 0C 00 07
 1.015767 1  18F106F3x       Rx   d 8 45 E0 FC FF FF FF FF FF
 1.017056 1  18F107F3x       Rx   d 8 38 A4 27 10 01 72 00 00
 1.018071 1  18FF2112x       Rx   d 8 01 00 00 00 00 00 00 00
 1.018652 1  CFF21CAx        Rx   d 8 2C 00 70 17 3F 3C 00 24
 1.019210 1  18F108F3x       Rx   d 8 00 00 00 00 00 00 00 00
 1.020414 1  18F155F3x       Rx   d 8 38 37 38 38 38 39 38 00
 1.021408 1  18F156F3x       Rx   d 8 00 00 00 00 00 00 00 00
 1.022318 1  18F157F3x       Rx   d 8 00 00 00 00 00 00 00 00
 1.023332 1  18F158F3x       Rx   d 8 00 00 00 00 00 00 00 00
 1.024071 1  18F159F3x       Rx   d 8 00 00 00 00 00 00 00 00
 1.025076 1  18F15AF3x       Rx   d 8 00 00 00 00 00 00 00 00
 1.025775 1  18F15BF3x       Rx   d 7 00 00 00 00 00 00 00
 1.026626 1  18F15CF3x       Rx   d 8 00 00 00 00 00 00 00 00
 1.027468 1  18F15DF3x       Rx   d 8 00 00 00 00 00 00 00 00
 1.028348 1  18F15EF3x       Rx   d 8 00 00 00 00 00 00 00 00
 1.030714 1  CFF21CAx        Rx   d 8 2C 00 70 17 3F 3C 00 24
 1.031247 1  18F100D0x       Rx   d 8 0C FF FF FF FF FF FF FF
 1.042352 1  CFF21CAx        Rx   d 8 2C 00 70 17 3F 3C 00 24
 1.054881 1  CFF21CAx        Rx   d 8 2C 00 6F 17 3F 3C 00 24
 1.055354 1  18F100D0x       Rx   d 8 0C FF FF FF FF FF FF FF
 1.066487 1  CFF21CAx        Rx   d 8 2C 00 6B 17 3F 3C 00 24
 1.080100 1  CFF21CAx        Rx   d 8 2B 00 69 17 3F 3C 00 24
 1.080234 1  18F100D0x       Rx   d 8 0C FF FF FF FF FF FF FF
 1.090518 1  CFF21CAx        Rx   d 8 2B 00 64 17 3F 3C 00 24
 1.103128 1  CFF21CAx        Rx   d 8 2B 00 64 17 3F 3C 00 24
 1.103607 1  18F100D0x       Rx   d 8 0C FF FF FF FF FF FF FF
 1.113612 1  18F100F3x       Rx   d 8 03 37 7D CB F3 FA 14 00
 1.114469 1  18F102F3x       Rx   d 8 10 15 10 0E 10 0C 00 07
 1.115032 1  18FF2112x       Rx   d 8 01 00 00 00 00 00 00 00
 1.115612 1  CFF21CAx        Rx   d 8 2B 00 63 17 3F 3C 00 24
 1.116189 1  18F106F3x       Rx   d 8 45 E0 FC FF FF FF FF FF
 1.117453 1  18F107F3x       Rx   d 8 38 A4 27 10 01 72 00 00
 1.119264 1  18F108F3x       Rx   d 8 00 00 00 00 00 00 00 00
 1.120453 1  18F155F3x       Rx   d 8 38 37 38 38 38 39 38 00
 1.121423 1  18F156F3x       Rx   d 8 00 00 00 00 00 00 00 00
 1.122347 1  18F157F3x       Rx   d 8 00 00 00 00 00 00 00 00
 1.123298 1  18F158F3x       Rx   d 8 00 00 00 00 00 00 00 00
 1.124193 1  18F159F3x       Rx   d 8 00 00 00 00 00 00 00 00
 1.125051 1  18F15AF3x       Rx   d 8 00 00 00 00 00 00 00 00
 1.125856 1  18F15BF3x       Rx   d 7 00 00 00 00 00 00 00
 1.126635 1  CFF21CAx        Rx   d 8 2B 00 60 17 3F 3C 00 24
 1.127212 1  18F15CF3x       Rx   d 8 00 00 00 00 00 00 00 00
 1.128108 1  18F15DF3x       Rx   d 8 00 00 00 00 00 00 00 00
 1.128933 1  18F15EF3x       Rx   d 8 00 00 00 00 00 00 00 00
 1.130616 1  18F100D0x       Rx   d 8 0C FF FF FF FF FF FF FF
 1.138684 1  CFF21CAx        Rx   d 8 2C 00 60 17 3F 3C 00 24
 1.150792 1  CFF21CAx        Rx   d 8 2C 00 5D 17 3F 3C 00 24
 1.154775 1  18F100D0x       Rx   d 8 0C FF FF FF FF FF FF FF
 1.162777 1  CFF21CAx        Rx   d 8 2C 00 5F 17 3F 3C 00 24
 1.174855 1  CFF21CAx        Rx   d 8 2D 00 60 17 3F 3C 00 24
 1.178851 1  18F100D0x       Rx   d 8 0C FF FF FF FF FF FF FF
 1.186906 1  CFF21CAx        Rx   d 8 2D 00 5C 17 3F 3C 00 24
 1.199011 1  CFF21CAx        Rx   d 8 2D 00 5D 17 3F 3C 00 24
 1.203013 1  18F100D0x       Rx   d 8 0C FF FF FF FF FF FF FF
 1.210982 1  CFF21CAx        Rx   d 8 2E 00 5B 17 3F 3C 00 24
 1.211942 1  18FF2112x       Rx   d 8 01 00 00 00 00 00 00 00
 1.213560 1  18F100F3x       Rx   d 8 03 37 7D D2 F3 FA 14 00
 1.214454 1  18F102F3x       Rx   d 8 10 15 10 0E 10 0C 00 07
 1.215753 1  18F106F3x       Rx   d 8 45 E0 FC FF FF FF FF FF
 1.217075 1  18F107F3x       Rx   d 8 38 A4 27 10 01 72 00 00
 1.218752 1  18F108F3x       Rx   d 8 00 00 00 00 00 00 00 00
 1.219631 1  18F155F3x       Rx   d 8 38 37 38 38 38 39 38 00
 1.220667 1  18F156F3x       Rx   d 8 00 00 00 00 00 00 00 00
 1.221550 1  18F157F3x       Rx   d 8 00 00 00 00 00 00 00 00
 1.222656 1  18F158F3x       Rx   d 8 00 00 00 00 00 00 00 00
 1.223033 1  CFF21CAx        Rx   d 8 2E 00 5B 17 3F 3C 00 24
 1.223602 1  18F159F3x       Rx   d 8 00 00 00 00 00 00 00 00
 1.224522 1  18F15AF3x       Rx   d 8 00 00 00 00 00 00 00 00
 1.225328 1  18F15BF3x       Rx   d 7 00 00 00 00 00 00 00
 1.226287 1  18F15CF3x       Rx   d 8 00 00 00 00 00 00 00 00
 1.227017 1  18F100D0x       Rx   d 8 0C FF FF FF FF FF FF FF
 1.227586 1  18F15DF3x       Rx   d 8 00 00 00 00 00 00 00 00
 1.228495 1  18F15EF3x       Rx   d 8 00 00 00 00 00 00 00 00
 1.235087 1  CFF21CAx        Rx   d 8 2E 00 5B 17 3F 3C 00 24
 1.247130 1  CFF21CAx        Rx   d 8 2F 00 5F 17 3F 3C 00 24
 1.251207 1  18F100D0x       Rx   d 8 0C FF FF FF FF FF FF FF
 1.259297 1  CFF21CAx        Rx   d 8 2F 00 5F 17 3F 3C 00 24
 1.271404 1  CFF21CAx        Rx   d 8 2F 00 65 17 3F 3C 00 24
 1.279385 1  18F100D0x       Rx   d 8 0C FF FF FF FF FF FF FF
 1.283287 1  CFF21CAx        Rx   d 8 2E 00 63 17 3F 3C 00 24
 1.296896 1  CFF21CAx        Rx   d 8 2E 00 65 17 3F 3C 00 24
 1.303377 1  18F100D0x       Rx   d 8 0C FF FF FF FF FF FF FF
 1.307388 1  CFF21CAx        Rx   d 8 2E 00 68 17 3F 3C 00 24
 1.309174 1  18FF2112x       Rx   d 8 01 00 00 00 00 00 00 00
 1.313566 1  18F100F3x       Rx   d 8 03 37 7D D2 F3 FA 14 00
 1.314451 1  18F102F3x       Rx   d 8 10 15 10 0E 10 0C 00 07
 1.315765 1  18F106F3x       Rx   d 8 45 E0 FC FF FF FF FF FF
 1.317037 1  18F107F3x       Rx   d 8 38 A4 27 10 01 72 00 00
 1.318761 1  18F108F3x       Rx   d 8 00 00 00 00 00 00 00 00
 1.319672 1  18F155F3x       Rx   d 8 38 37 38 38 38 39 38 00
 1.320202 1  CFF21CAx        Rx   d 8 2E 00 63 17 3F 3C 00 24
 1.320799 1  18F156F3x       Rx   d 8 00 00 00 00 00 00 00 00
 1.321660 1  18F157F3x       Rx   d 8 00 00 00 00 00 00 00 00
 1.322567 1  18F158F3x       Rx   d 8 00 00 00 00 00 00 00 00
 1.323519 1  18F159F3x       Rx   d 8 00 00 00 00 00 00 00 00
 1.324390 1  18F15AF3x       Rx   d 8 00 00 00 00 00 00 00 00
 1.325269 1  18F15BF3x       Rx   d 7 00 00 00 00 00 00 00
 1.326114 1  18F15CF3x       Rx   d 8 00 00 00 00 00 00 00 00
 1.327047 1  18F15DF3x       Rx   d 8 00 00 00 00 00 00 00 00
 1.327523 1  18F100D0x       Rx   d 8 0C FF FF FF FF FF FF FF
 1.328109 1  18F15EF3x       Rx   d 8 00 00 00 00 00 00 00 00
 1.331484 1  CFF21CAx        Rx   d 8 2E 00 67 17 3F 3C 00 24
 1.343592 1  CFF21CAx        Rx   d 8 2E 00 62 17 3F 3C 00 24
 1.351584 1  18F100D0x       Rx   d 8 0C FF FF FF FF FF FF FF
 1.355591 1  CFF21CAx        Rx   d 8 2E 00 66 17 3F 3C 00 24
 1.367689 1  CFF21CAx        Rx   d 8 2E 00 63 17 3F 3C 00 24
 1.375682 1  18F100D0x       Rx   d 8 0C FF FF FF FF FF FF FF
 1.379720 1  CFF21CAx        Rx   d 8 2F 00 60 17 3F 3C 00 24
 1.391701 1  CFF21CAx        Rx   d 8 2F 00 65 17 3F 3C 00 24
 1.404220 1  CFF21CAx        Rx   d 8 2F 00 61 17 3F 3C 00 24
 1.404720 1  18F100D0x       Rx   d 8 0C FF FF FF FF FF FF FF
 1.406431 1  18FF2112x       Rx   d 8 01 00 00 00 00 00 00 00
 1.413608 1  18F100F3x       Rx   d 8 03 37 7D EA F3 FA 14 00
 1.414481 1  18F102F3x       Rx   d 8 10 15 10 0E 10 0C 00 07
 1.415783 1  18F106F3x       Rx   d 8 45 E0 FC FF FF FF FF FF
 1.416516 1  CFF21CAx        Rx   d 8 2F 00 67 17 3F 3C 00 24
 1.417045 1  18F107F3x       Rx   d 8 38 A4 27 10 01 72 00 00
 1.418760 1  18F108F3x       Rx   d 8 00 00 00 00 00 00 00 00
 1.419686 1  18F155F3x       Rx   d 8 38 37 38 38 38 39 38 00
 1.420697 1  18F156F3x       Rx   d 8 00 00 00 00 00 00 00 00
 1.421551 1  18F157F3x       Rx   d 8 00 00 00 00 00 00 00 00
 1.422459 1  18F158F3x       Rx   d 8 00 00 00 00 00 00 00 00
 1.423390 1  18F159F3x       Rx   d 8 00 00 00 00 00 00 00 00
 1.424336 1  18F15AF3x       Rx   d 8 00 00 00 00 00 00 00 00
 1.425209 1  18F15BF3x       Rx   d 7 00 00 00 00 00 00 00
 1.426042 1  18F15CF3x       Rx   d 8 00 00 00 00 00 00 00 00
 1.426887 1  18F15DF3x       Rx   d 8 00 00 00 00 00 00 00 00
 1.428341 1  18F15EF3x       Rx   d 8 00 00 00 00 00 00 00 00
 1.428489 1  CFF21CAx        Rx   d 8 2F 00 67 17 3F 3C 00 24
 1.428862 1  18F100D0x       Rx   d 8 0C FF FF FF FF FF FF FF
 1.439955 1  CFF21CAx        Rx   d 8 2E 00 6A 17 3F 3C 00 24
 1.452338 1  CFF21CAx        Rx   d 8 2E 00 6C 17 3F 3C 00 24
 1.452890 1  18F100D0x       Rx   d 8 0C FF FF FF FF FF FF FF
 1.464098 1  CFF21CAx        Rx   d 8 2D 00 6F 17 3F 3C 00 24
 1.476463 1  CFF21CAx        Rx   d 8 2D 00 6F 17 3F 3C 00 24
 1.477067 1  18F100D0x       Rx   d 8 0C FF FF FF FF FF FF FF
 1.488073 1  18F104F3x       Rx   d 8 39 37 06 02 02 FF FF FF
 1.488591 1  CFF21CAx        Rx   d 8 2D 00 6F 17 3F 3C 00 24
 1.489174 1  18F113F3x       Rx   d 8 10 10 10 11 10 11 10 12
 1.490359 1  18F114F3x       Rx   d 8 10 10 10 0F 10 12 10 12
 1.491330 1  18F115F3x       Rx   d 8 10 10 10 0F 10 0F 10 0E
 1.492284 1  18F116F3x       Rx   d 8 10 14 10 11 10 13 10 15
 1.493171 1  18F117F3x       Rx   d 8 10 11 10 12 10 15 10 14
 1.494150 1  18F118F3x       Rx   d 8 00 00 00 00 00 00 00 00
 1.495093 1  18F119F3x       Rx   d 8 00 00 00 00 00 00 00 00
 1.496889 1  18F11AF3x       Rx   d 8 00 00 00 00 00 00 00 00
 1.497035 1  18F11BF3x       Rx   d 8 00 00 00 00 00 00 00 00
 1.497763 1  18F11CF3x       Rx   d 8 00 00 00 00 00 00 00 00
 1.498707 1  18F11DF3x       Rx   d 8 00 00 00 00 00 00 00 00
 1.499617 1  18F11EF3x       Rx   d 8 00 00 00 00 00 00 00 00
 1.500599 1  CFF21CAx        Rx   d 8 2C 00 74 17 3F 3C 00 24
 1.501131 1  18F100D0x       Rx   d 8 0C FF FF FF FF FF FF FF
 1.501712 1  18F11FF3x       Rx   d 8 00 00 00 00 00 00 00 00
 1.502689 1  18F120F3x       Rx   d 8 00 00 00 00 00 00 00 00
 1.516052 1  18F121F3x       Rx   d 8 00 00 00 00 00 00 00 00
 1.516179 1  18FF2112x       Rx   d 8 01 00 00 00 00 00 00 00
 1.516281 1  18F122F3x       Rx   d 8 00 00 00 00 00 00 00 00
 1.516383 1  18F123F3x       Rx   d 8 00 00 00 00 00 00 00 00
 1.516483 1  18F124F3x       Rx   d 8 00 00 00 00 00 00 00 00
 1.516583 1  18F125F3x       Rx   d 8 00 00 00 00 00 00 00 00
 1.516693 1  18F126F3x       Rx   d 8 00 00 00 00 00 00 00 00
 1.516793 1  18F127F3x       Rx   d 8 00 00 00 00 00 00 00 00
 1.516893 1  18F128F3x       Rx   d 8 00 00 00 00 00 00 00 00
 1.517081 1  18F129F3x       Rx   d 8 00 00 00 00 00 00 00 00
 1.517200 1  18F12AF3x       Rx   d 8 00 00 00 00 00 00 00 00
 1.517302 1  CFF21CAx        Rx   d 8 2C 00 71 17 3F 3C 00 24
 1.517403 1  18F12BF3x       Rx   d 8 00 00 00 00 00 00 00 00
 1.517503 1  18F100F3x       Rx   d 8 03 37 7D EA F3 FA 14 00
 1.517608 1  18F102F3x       Rx   d 8 10 15 10 0E 10 0C 00 07
 1.517710 1  18F106F3x       Rx   d 8 45 E0 FC FF FF FF FF FF
 1.518088 1  18F107F3x       Rx   d 8 38 A4 27 10 01 72 00 00
 1.519870 1  18F108F3x       Rx   d 8 00 00 00 00 00 00 00 00
 1.520789 1  18F12CF3x       Rx   d 8 00 00 00 00 00 00 00 00
 1.521690 1  18F12DF3x       Rx   d 8 00 00 00 00 00 00 00 00
 1.522569 1  18F12EF3x       Rx   d 8 00 00 00 00 00 00 00 00
 1.523513 1  18F12FF3x       Rx   d 8 00 00 00 00 00 00 00 00
 1.524417 1  18F130F3x       Rx   d 8 00 00 00 00 00 00 00 00
 1.525028 1  CFF21CAx        Rx   d 8 2C 00 71 17 3F 3C 00 24
 1.525564 1  18F131F3x       Rx   d 8 00 00 00 00 00 00 00 00
 1.526483 1  18F132F3x       Rx   d 8 00 00 00 00 00 00 00 00
 1.527451 1  18F133F3x       Rx   d 8 00 00 00 00 00 00 00 00
 1.528263 1  18F100D0x       Rx   d 8 0C FF FF FF FF FF FF FF
 1.528788 1  18F134F3x       Rx   d 8 00 00 00 00 00 00 00 00
 1.529691 1  18F135F3x       Rx   d 8 00 00 00 00 00 00 00 00
 1.530669 1  18F136F3x       Rx   d 8 00 00 00 00 00 00 00 00
 1.531549 1  18F137F3x       Rx   d 8 00 00 00 00 00 00 00 00
 1.532459 1  18F138F3x       Rx   d 8 00 00 00 00 00 00 00 00
 1.533402 1  18F139F3x       Rx   d 8 00 00 00 00 00 00 00 00
 1.534329 1  18F13AF3x       Rx   d 8 00 00 00 00 00 00 00 00
 1.535215 1  18F13BF3x       Rx   d 8 00 00 00 00 00 00 00 00
 1.536074 1  18F13CF3x       Rx   d 8 00 00 00 00 00 00 00 00
 1.536635 1  CFF21CAx        Rx   d 8 2C 00 70 17 3F 3C 00 24
 1.537170 1  18F155F3x       Rx   d 8 38 37 38 38 38 39 38 00
 1.538086 1  18F156F3x       Rx   d 8 00 00 00 00 00 00 00 00
 1.538964 1  18F157F3x       Rx   d 8 00 00 00 00 00 00 00 00
 1.539845 1  18F158F3x       Rx   d 8 00 00 00 00 00 00 00 00
 1.540746 1  18F159F3x       Rx   d 8 00 00 00 00 00 00 00 00
 1.541608 1  18F15AF3x       Rx   d 8 00 00 00 00 00 00 00 00
 1.542444 1  18F15BF3x       Rx   d 7 00 00 00 00 00 00 00
 1.543349 1  18F15CF3x       Rx   d 8 00 00 00 00 00 00 00 00
 1.544246 1  18F15DF3x       Rx   d 8 00 00 00 00 00 00 00 00
 1.545079 1  18F15EF3x       Rx   d 8 00 00 00 00 00 00 00 00
 1.548751 1  CFF21CAx        Rx   d 8 2C 00 70 17 3F 3C 00 24
 1.552369 1  18F100D0x       Rx   d 8 0C FF FF FF FF FF FF FF
 1.560433 1  CFF21CAx        Rx   d 8 2B 00 72 17 3F 3C 00 24
 1.573066 1  CFF21CAx        Rx   d 8 2B 00 6E 17 3F 3C 00 24
 1.576481 1  18F100D0x       Rx   d 8 0C FF FF FF FF FF FF FF
 1.584477 1  CFF21CAx        Rx   d 8 2B 00 75 17 3F 3C 00 24
 1.596930 1  CFF21CAx        Rx   d 8 2B 00 75 17 3F 3C 00 24
 1.600552 1  18F100D0x       Rx   d 8 0C FF FF FF FF FF FF FF
 1.601122 1  18FF2112x       Rx   d 8 01 00 00 00 00 00 00 00
 1.609077 1  CFF21CAx        Rx   d 8 2B 00 77 17 3F 3C 00 24
 1.613597 1  18F100F3x       Rx   d 8 03 37 7D EA F3 FA 14 00
 1.614471 1  18F102F3x       Rx   d 8 10 15 10 0E 10 0C 00 07
 1.615937 1  18F106F3x       Rx   d 8 45 E0 FC FF FF FF FF FF
 1.617133 1  18F107F3x       Rx   d 8 38 A4 27 10 01 72 00 00
 1.618892 1  18F108F3x       Rx   d 8 00 00 00 00 00 00 00 00
 1.619713 1  18F155F3x       Rx   d 8 38 37 38 38 38 39 38 00
 1.620713 1  18F156F3x       Rx   d 8 00 00 00 00 00 00 00 00
 1.621288 1  CFF21CAx        Rx   d 8 2B 00 79 17 3F 3C 00 24
 1.621792 1  18F157F3x       Rx   d 8 00 00 00 00 00 00 00 00
 1.622726 1  18F158F3x       Rx   d 8 00 00 00 00 00 00 00 00
 1.623583 1  18F159F3x       Rx   d 8 00 00 00 00 00 00 00 00
 1.624512 1  18F15AF3x       Rx   d 8 00 00 00 00 00 00 00 00
 1.625403 1  18F15BF3x       Rx   d 7 00 00 00 00 00 00 00
 1.626308 1  18F15CF3x       Rx   d 8 00 00 00 00 00 00 00 00
 1.627162 1  18F15DF3x       Rx   d 8 00 00 00 00 00 00 00 00
 1.627992 1  18F15EF3x       Rx   d 8 00 00 00 00 00 00 00 00
 1.629116 1  18F100D0x       Rx   d 8 0C FF FF FF FF FF FF FF
 1.632715 1  CFF21CAx        Rx   d 8 2A 00 7C 17 3F 3C 00 24
 1.645196 1  CFF21CAx        Rx   d 8 2A 00 78 17 3F 3C 00 24
 1.653296 1  18F100D0x       Rx   d 8 0C FF FF FF FF FF FF FF
 1.656892 1  CFF21CAx        Rx   d 8 2A 00 7B 17 3F 3C 00 24
 1.669383 1  CFF21CAx        Rx   d 8 28 00 78 17 3F 3C 00 24
 1.677377 1  18F100D0x       Rx   d 8 0C FF FF FF FF FF FF FF
 1.680867 1  CFF21CAx        Rx   d 8 28 00 78 17 3F 3C 00 24
 1.693469 1  CFF21CAx        Rx   d 8 27 00 70 17 3F 3C 00 24
 1.698299 1  18FF2112x       Rx   d 8 01 00 00 00 00 00 00 00
 1.705070 1  CFF21CAx        Rx   d 8 27 00 71 17 3F 3C 00 24
 1.705634 1  18F100D0x       Rx   d 8 0C FF FF FF FF FF FF FF
 1.713609 1  18F100F3x       Rx   d 8 03 37 7D D3 F3 FA 14 00
 1.714438 1  18F102F3x       Rx   d 8 10 15 10 0D 10 0C 00 08
 1.715744 1  18F106F3x       Rx   d 8 45 E0 FC FF FF FF FF FF
 1.717036 1  18F107F3x       Rx   d 8 38 A4 27 10 01 72 00 00
 1.717569 1  CFF21CAx        Rx   d 8 27 00 6E 17 3F 3C 00 24
 1.719276 1  18F108F3x       Rx   d 8 00 00 00 00 00 00 00 00
 1.719651 1  18F155F3x       Rx   d 8 38 37 38 38 38 39 38 00
 1.720738 1  18F156F3x       Rx   d 8 00 00 00 00 00 00 00 00
 1.721574 1  18F157F3x       Rx   d 8 00 00 00 00 00 00 00 00
 1.733399 1  18F158F3x       Rx   d 8 00 00 00 00 00 00 00 00
 1.733527 1  18F159F3x       Rx   d 8 00 00 00 00 00 00 00 00
 1.733630 1  18F15AF3x       Rx   d 8 00 00 00 00 00 00 00 00
 1.733728 1  18F15BF3x       Rx   d 7 00 00 00 00 00 00 00
 1.733832 1  18F15CF3x       Rx   d 8 00 00 00 00 00 00 00 00
 1.733984 1  18F15DF3x       Rx   d 8 00 00 00 00 00 00 00 00
 1.734098 1  18F15EF3x       Rx   d 8 00 00 00 00 00 00 00 00
 1.734200 1  CFF21CAx        Rx   d 8 27 00 6B 17 3F 3C 00 24
 1.734301 1  18F100D0x       Rx   d 8 0C FF FF FF FF FF FF FF
 1.741647 1  CFF21CAx        Rx   d 8 27 00 6B 17 3F 3C 00 24
 1.753187 1  CFF21CAx        Rx   d 8 27 00 6A 17 3F 3C 00 24
 1.753743 1  18F100D0x       Rx   d 8 0C FF FF FF FF FF FF FF
 1.765907 1  CFF21CAx        Rx   d 8 27 00 6A 17 3F 3C 00 24
 1.777325 1  CFF21CAx        Rx   d 8 27 00 69 17 3F 3C 00 24
 1.777819 1  18F100D0x       Rx   d 8 0C FF FF FF FF FF FF FF
 1.789874 1  CFF21CAx        Rx   d 8 27 00 6A 17 3F 3C 00 24
 1.795582 1  18FF2112x       Rx   d 8 01 00 00 00 00 00 00 00
 1.801782 1  CFF21CAx        Rx   d 8 27 00 69 17 3F 3C 00 24
 1.802325 1  18F100D0x       Rx   d 8 0C FF FF FF FF FF FF FF
 1.813645 1  18F100F3x       Rx   d 8 03 37 7D D3 F3 FA 14 00
 1.814181 1  CFF21CAx        Rx   d 8 27 00 6B 17 3F 3C 00 24
 1.814795 1  18F102F3x       Rx   d 8 10 15 10 0D 10 0C 00 08
 1.816010 1  18F106F3x       Rx   d 8 45 E0 FC FF FF FF FF FF
 1.817287 1  18F107F3x       Rx   d 8 38 A4 27 10 01 72 00 00
 1.819073 1  18F108F3x       Rx   d 8 00 00 00 00 00 00 00 00
 1.819871 1  18F155F3x       Rx   d 8 38 37 38 38 38 39 38 00
 1.820830 1  18F156F3x       Rx   d 8 00 00 00 00 00 00 00 00
 1.821640 1  18F157F3x       Rx   d 8 00 00 00 00 00 00 00 00
 1.822526 1  18F158F3x       Rx   d 8 00 00 00 00 00 00 00 00
 1.823491 1  18F159F3x       Rx   d 8 00 00 00 00 00 00 00 00
 1.824356 1  18F15AF3x       Rx   d 8 00 00 00 00 00 00 00 00
 1.825320 1  18F15BF3x       Rx   d 7 00 00 00 00 00 00 00
 1.825867 1  CFF21CAx        Rx   d 8 26 00 69 17 3F 3C 00 24
 1.826440 1  18F100D0x       Rx   d 8 0C FF FF FF FF FF FF FF
 1.827069 1  18F15CF3x       Rx   d 8 00 00 00 00 00 00 00 00
 1.827858 1  18F15DF3x       Rx   d 8 00 00 00 00 00 00 00 00
 1.828684 1  18F15EF3x       Rx   d 8 00 00 00 00 00 00 00 00
 1.838054 1  CFF21CAx        Rx   d 8 26 00 66 17 3F 3C 00 24
 1.849605 1  CFF21CAx        Rx   d 8 27 00 65 17 3F 3C 00 24
 1.854079 1  18F100D0x       Rx   d 8 0C FF FF FF FF FF FF FF
 1.862092 1  CFF21CAx        Rx   d 8 27 00 60 17 3F 3C 00 24
 1.873658 1  CFF21CAx        Rx   d 8 27 00 61 17 3F 3C 00 24
 1.874184 1  18F100D0x       Rx   d 8 0C FF FF FF FF FF FF FF
 1.886196 1  CFF21CAx        Rx   d 8 29 00 5D 17 3F 3C 00 24
 1.892884 1  18FF2112x       Rx   d 8 01 00 00 00 00 00 00 00
 1.897952 1  CFF21CAx        Rx   d 8 29 00 5B 17 3F 3C 00 24
 1.902442 1  18F100D0x       Rx   d 8 0C FF FF FF FF FF FF FF
 1.910305 1  CFF21CAx        Rx   d 8 29 00 5B 17 3F 3C 00 24
 1.913598 1  18F100F3x       Rx   d 8 03 37 7D BD F3 FA 14 00
 1.914527 1  18F102F3x       Rx   d 8 10 15 10 0D 10 0C 00 08
 1.915843 1  18F106F3x       Rx   d 8 45 E0 FC FF FF FF FF FF
 1.917084 1  18F107F3x       Rx   d 8 38 A4 27 10 01 72 00 00
 1.918880 1  18F108F3x       Rx   d 8 00 00 00 00 00 00 00 00
 1.919791 1  18F155F3x       Rx   d 8 38 37 38 38 38 39 38 00
 1.920766 1  18F156F3x       Rx   d 8 00 00 00 00 00 00 00 00
 1.921580 1  18F157F3x       Rx   d 8 00 00 00 00 00 00 00 00
 1.922228 1  CFF21CAx        Rx   d 8 2A 00 59 17 3F 3C 00 24
 1.922822 1  18F158F3x       Rx   d 8 00 00 00 00 00 00 00 00
 1.923781 1  18F159F3x       Rx   d 8 00 00 00 00 00 00 00 00
 1.924513 1  18F15AF3x       Rx   d 8 00 00 00 00 00 00 00 00
 1.925372 1  18F15BF3x       Rx   d 7 00 00 00 00 00 00 00
 1.926288 1  18F15CF3x       Rx   d 8 00 00 00 00 00 00 00 00
 1.926875 1  18F100D0x       Rx   d 8 0C FF FF FF FF FF FF FF
 1.927496 1  18F15DF3x       Rx   d 8 00 00 00 00 00 00 00 00
 1.928471 1  18F15EF3x       Rx   d 8 00 00 00 00 00 00 00 00
 1.934415 1  CFF21CAx        Rx   d 8 2A 00 59 17 3F 3C 00 24
 1.951127 1  CFF21CAx        Rx   d 8 2A 00 5B 17 3F 3C 00 24
 1.954094 1  18F100D0x       Rx   d 8 0C FF FF FF FF FF FF FF
 1.958563 1  CFF21CAx        Rx   d 8 2C 00 5B 17 3F 3C 00 24
 1.970150 1  CFF21CAx        Rx   d 8 2C 00 5B 17 3F 3C 00 24
 1.978107 1  18F100D0x       Rx   d 8 0C FF FF FF FF FF FF FF
 1.982573 1  CFF21CAx        Rx   d 8 2C 00 5B 17 3F 3C 00 24
 1.990391 1  18FF2112x       Rx   d 8 01 00 00 00 00 00 00 00
 1.994241 1  CFF21CAx        Rx   d 8 2C 00 5C 17 3F 3C 00 24
 2.002212 1  18F100D0x       Rx   d 8 0C FF FF FF FF FF FF FF
 2.006217 1  CFF21CAx        Rx   d 8 2C 00 5D 17 3F 3C 00 24
 2.013671 1  18F100F3x       Rx   d 8 03 37 7D BD F3 FA 14 00
 2.014486 1  18F102F3x       Rx   d 8 10 15 10 0D 10 0C 00 08
 2.015083 1  18FECACAx       Rx   d 8 00 00 00 00 00 00 FF FF
 2.015778 1  18F106F3x       Rx   d 8 45 E0 FC FF FF FF FF FF
 2.017041 1  18F107F3x       Rx   d 8 38 A4 27 10 01 72 00 00
 2.018685 1  CFF21CAx        Rx   d 8 2D 00 5E 17 3F 3C 00 24
 2.019209 1  18F108F3x       Rx   d 8 00 00 00 00 00 00 00 00
 2.020430 1  18F155F3x       Rx   d 8 38 37 38 38 38 39 38 00
 2.021336 1  18F156F3x       Rx   d 8 00 00 00 00 00 00 00 00
 2.022292 1  18F157F3x       Rx   d 8 00 00 00 00 00 00 00 00
 2.023194 1  18F158F3x       Rx   d 8 00 00 00 00 00 00 00 00
 2.024059 1  18F159F3x       Rx   d 8 00 00 00 00 00 00 00 00
 2.024948 1  18F15AF3x       Rx   d 8 00 00 00 00 00 00 00 00
 2.025737 1  18F15BF3x       Rx   d 7 00 00 00 00 00 00 00
 2.026324 1  18F100D0x       Rx   d 8 0C FF FF FF FF FF FF FF
 2.026893 1  18F15CF3x       Rx   d 8 00 00 00 00 00 00 00 00
 2.027734 1  18F15DF3x       Rx   d 8 00 00 00 00 00 00 00 00
 2.028617 1  18F15EF3x       Rx   d 8 00 00 00 00 00 00 00 00
 2.030742 1  CFF21CAx        Rx   d 8 2D 00 5E 17 3F 3C 00 24
 2.042454 1  CFF21CAx        Rx   d 8 2D 00 60 17 3F 3C 00 24
 2.052615 1  18F100D0x       Rx   d 8 0C FF FF FF FF FF FF FF
 2.054861 1  CFF21CAx        Rx   d 8 2D 00 60 17 3F 3C 00 24
 2.066778 1  CFF21CAx        Rx   d 8 2D 00 62 17 3F 3C 00 24
 2.078983 1  CFF21CAx        Rx   d 8 2E 00 63 17 3F 3C 00 24
 2.079511 1  18F100D0x       Rx   d 8 0C FF FF FF FF FF FF FF
 2.087441 1  18FF2112x       Rx   d 8 01 00 00 00 00 00 00 00
 2.090547 1  CFF21CAx        Rx   d 8 2E 00 65 17 3F 3C 00 24
 2.102715 1  CFF21CAx        Rx   d 8 2E 00 67 17 3F 3C 00 24
 2.103154 1  18F100D0x       Rx   d 8 0C FF FF FF FF FF FF FF
 2.113571 1  18F100F3x       Rx   d 8 03 37 7D BD F3 FA 14 00
 2.114482 1  18F102F3x       Rx   d 8 10 15 10 0D 10 0C 00 08
 2.115027 1  CFF21CAx        Rx   d 8 2F 00 68 17 3F 3C 00 24
 2.115851 1  18F106F3x       Rx   d 8 45 E0 FC FF FF FF FF FF
 2.117039 1  18F107F3x       Rx   d 8 38 A4 27 10 01 72 00 00
 2.118898 1  18F108F3x       Rx   d 8 00 00 00 00 00 00 00 00
 2.119780 1  18F155F3x       Rx   d 8 38 37 38 38 38 39 38 00
 2.120677 1  18F156F3x       Rx   d 8 00 00 00 00 00 00 00 00
 2.121582 1  18F157F3x       Rx   d 8 00 00 00 00 00 00 00 00
 2.122451 1  18F158F3x       Rx   d 8 00 00 00 00 00 00 00 00
 2.123385 1  18F159F3x       Rx   d 8 00 00 00 00 00 00 00 00
 2.124314 1  18F15AF3x       Rx   d 8 00 00 00 00 00 00 00 00
 2.125202 1  18F15BF3x       Rx   d 7 00 00 00 00 00 00 00
 2.126046 1  18F15CF3x       Rx   d 8 00 00 00 00 00 00 00 00
 2.126894 1  18F15DF3x       Rx   d 8 00 00 00 00 00 00 00 00
 2.127498 1  CFF21CAx        Rx   d 8 2F 00 68 17 3F 3C 00 24
 2.128046 1  18F100D0x       Rx   d 8 0C FF FF FF FF FF FF FF
 2.128603 1  18F15EF3x       Rx   d 8 00 00 00 00 00 00 00 00
 2.138724 1  CFF21CAx        Rx   d 8 2F 00 65 17 3F 3C 00 24
 2.150773 1  CFF21CAx        Rx   d 8 2F 00 67 17 3F 3C 00 24
 2.164460 1  18F100D0x       Rx   d 8 0C FF FF FF FF FF FF FF
 2.164568 1  CFF21CAx        Rx   d 8 2F 00 66 17 3F 3C 00 24
 2.174882 1  CFF21CAx        Rx   d 8 2F 00 65 17 3F 3C 00 24
 2.178860 1  18F100D0x       Rx   d 8 0C FF FF FF FF FF FF FF
 2.184652 1  18FF2112x       Rx   d 8 01 00 00 00 00 00 00 00
 2.186928 1  CFF21CAx        Rx   d 8 2F 00 65 17 3F 3C 00 24
 2.199002 1  CFF21CAx        Rx   d 8 2E 00 60 17 3F 3C 00 24
 2.203080 1  18F100D0x       Rx   d 8 0C FF FF FF FF FF FF FF
 2.211095 1  CFF21CAx        Rx   d 8 2E 00 64 17 3F 3C 00 24
 2.213582 1  18F100F3x       Rx   d 8 03 37 7D E2 F3 FA 14 00
 2.214487 1  18F102F3x       Rx   d 8 10 15 10 0D 10 0C 00 08
 2.215783 1  18F106F3x       Rx   d 8 45 E0 FC FF FF FF FF FF
 2.217040 1  18F107F3x       Rx   d 8 38 A4 27 10 01 72 00 00
 2.218817 1  18F108F3x       Rx   d 8 00 00 00 00 00 00 00 00
 2.219718 1  18F155F3x       Rx   d 8 38 37 38 38 38 39 38 00
 2.220723 1  18F156F3x       Rx   d 8 00 00 00 00 00 00 00 00
 2.221588 1  18F157F3x       Rx   d 8 00 00 00 00 00 00 00 00
 2.222509 1  18F158F3x       Rx   d 8 00 00 00 00 00 00 00 00
 2.223074 1  CFF21CAx        Rx   d 8 2E 00 63 17 3F 3C 00 24
 2.223651 1  18F159F3x       Rx   d 8 00 00 00 00 00 00 00 00
 2.224518 1  18F15AF3x       Rx   d 8 00 00 00 00 00 00 00 00
 2.225383 1  18F15BF3x       Rx   d 7 00 00 00 00 00 00 00
 2.226341 1  18F15CF3x       Rx   d 8 00 00 00 00 00 00 00 00
 2.227115 1  18F100D0x       Rx   d 8 0C FF FF FF FF FF FF FF
 2.227665 1  18F15DF3x       Rx   d 8 00 00 00 00 00 00 00 00
 2.228485 1  18F15EF3x       Rx   d 8 00 00 00 00 00 00 00 00
 2.235211 1  CFF21CAx        Rx   d 8 2E 00 65 17 3F 3C 00 24
 2.247187 1  CFF21CAx        Rx   d 8 2F 00 65 17 3F 3C 00 24
 2.251251 1  18F100D0x       Rx   d 8 0C FF FF FF FF FF FF FF
 2.259236 1  CFF21CAx        Rx   d 8 2F 00 66 17 3F 3C 00 24
 2.271303 1  CFF21CAx        Rx   d 8 2F 00 66 17 3F 3C 00 24
 2.275329 1  18F100D0x       Rx   d 8 0C FF FF FF FF FF FF FF
 2.281983 1  18FF2112x       Rx   d 8 01 00 00 00 00 00 00 00
 2.283340 1  CFF21CAx        Rx   d 8 2F 00 69 17 3F 3C 00 24
 2.295580 1  CFF21CAx        Rx   d 8 2F 00 6A 17 3F 3C 00 24
 2.303500 1  18F100D0x       Rx   d 8 0C FF FF FF FF FF FF FF
 2.307529 1  CFF21CAx        Rx   d 8 2E 00 6F 17 3F 3C 00 24
 2.313745 1  18F100F3x       Rx   d 8 03 37 7D E2 F3 FA 14 00
 2.314550 1  18F102F3x       Rx   d 8 10 15 10 0D 10 0C 00 08
 2.315873 1  18F106F3x       Rx   d 8 45 E0 FC FF FF FF FF FF
 2.317124 1  18F107F3x       Rx   d 8 38 A4 27 10 01 72 00 00
 2.318853 1  18F108F3x       Rx   d 8 00 00 00 00 00 00 00 00
 2.319743 1  18F155F3x       Rx   d 8 38 37 38 38 38 39 38 00
 2.320249 1  CFF21CAx        Rx   d 8 2E 00 6D 17 3F 3C 00 24
 2.320835 1  18F156F3x       Rx   d 8 00 00 00 00 00 00 00 00
 2.321743 1  18F157F3x       Rx   d 8 00 00 00 00 00 00 00 00
 2.322616 1  18F158F3x       Rx   d 8 00 00 00 00 00 00 00 00
 2.323631 1  18F159F3x       Rx   d 8 00 00 00 00 00 00 00 00
 2.324479 1  18F15AF3x       Rx   d 8 00 00 00 00 00 00 00 00
 2.325341 1  18F15BF3x       Rx   d 7 00 00 00 00 00 00 00
 2.326227 1  18F15CF3x       Rx   d 8 00 00 00 00 00 00 00 00
 2.327154 1  18F15DF3x       Rx   d 8 00 00 00 00 00 00 00 00
 2.327710 1  18F100D0x       Rx   d 8 0C FF FF FF FF FF FF FF
 2.328160 1  18F15EF3x       Rx   d 8 00 00 00 00 00 00 00 00
 2.331608 1  CFF21CAx        Rx   d 8 2E 00 6D 17 3F 3C 00 24
 2.343584 1  CFF21CAx        Rx   d 8 2D 00 6F 17 3F 3C 00 24
 2.351818 1  18F100D0x       Rx   d 8 0C FF FF FF FF FF FF FF
 2.355743 1  CFF21CAx        Rx   d 8 2D 00 6C 17 3F 3C 00 24
 2.367810 1  CFF21CAx        Rx   d 8 2C 00 6F 17 3F 3C 00 24
 2.381612 1  18F100D0x       Rx   d 8 0C FF FF FF FF FF FF FF
 2.381754 1  18FF2112x       Rx   d 8 01 00 00 00 00 00 00 00
 2.381887 1  CFF21CAx        Rx   d 8 2C 00 6F 17 3F 3C 00 24
 2.391757 1  CFF21CAx        Rx   d 8 2C 00 6F 17 3F 3C 00 24
 2.404210 1  CFF21CAx        Rx   d 8 2C 00 6F 17 3F 3C 00 24
 2.404738 1  18F100D0x       Rx   d 8 0C FF FF FF FF FF FF FF
 2.413635 1  18F100F3x       Rx   d 8 03 37 7D DA F3 FA 14 00
 2.414543 1  18F102F3x       Rx   d 8 10 15 10 0D 10 0C 00 08
 2.415830 1  18F106F3x       Rx   d 8 45 E0 FC FF FF FF FF FF
 2.416378 1  CFF21CAx        Rx   d 8 2C 00 71 17 3F 3C 00 24
 2.417090 1  18F107F3x       Rx   d 8 38 A4 27 10 01 72 00 00
 2.418857 1  18F108F3x       Rx   d 8 00 00 00 00 00 00 00 00
 2.419704 1  18F155F3x       Rx   d 8 38 37 38 38 38 39 38 00
 2.420741 1  18F156F3x       Rx   d 8 00 00 00 00 00 00 00 00
 2.421604 1  18F157F3x       Rx   d 8 00 00 00 00 00 00 00 00
 2.422528 1  18F158F3x       Rx   d 8 00 00 00 00 00 00 00 00
 2.423466 1  18F159F3x       Rx   d 8 00 00 00 00 00 00 00 00
 2.424367 1  18F15AF3x       Rx   d 8 00 00 00 00 00 00 00 00
 2.425259 1  18F15BF3x       Rx   d 7 00 00 00 00 00 00 00
 2.426128 1  18F15CF3x       Rx   d 8 00 00 00 00 00 00 00 00
 2.426970 1  18F15DF3x       Rx   d 8 00 00 00 00 00 00 00 00
 2.427815 1  18F15EF3x       Rx   d 8 00 00 00 00 00 00 00 00
 2.428358 1  CFF21CAx        Rx   d 8 2B 00 71 17 3F 3C 00 24
 2.428912 1  18F100D0x       Rx   d 8 0C FF FF FF FF FF FF FF
 2.440059 1  CFF21CAx        Rx   d 8 2B 00 6D 17 3F 3C 00 24
 2.452111 1  CFF21CAx        Rx   d 8 2B 00 72 17 3F 3C 00 24
 2.452632 1  18F100D0x       Rx   d 8 0C FF FF FF FF FF FF FF
 2.464138 1  CFF21CAx        Rx   d 8 2B 00 70 17 3F 3C 00 24
 2.476529 1  18FF2112x       Rx   d 8 01 00 00 00 00 00 00 00
 2.477086 1  CFF21CAx        Rx   d 8 2B 00 6B 17 3F 3C 00 24
 2.477647 1  18F100D0x       Rx   d 8 0C FF FF FF FF FF FF FF
 2.488119 1  18F104F3x       Rx   d 8 39 37 06 02 02 FF FF FF
 2.488753 1  CFF21CAx        Rx   d 8 2B 00 6E 17 3F 3C 00 24
 2.489198 1  18F113F3x       Rx   d 8 10 10 10 11 10 11 10 11
 2.490422 1  18F114F3x       Rx   d 8 10 10 10 0F 10 12 10 12
 2.491374 1  18F115F3x       Rx   d 8 10 0F 10 0F 10 0F 10 0D
 2.492357 1  18F116F3x       Rx   d 8 10 14 10 11 10 13 10 15
 2.493283 1  18F117F3x       Rx   d 8 10 11 10 12 10 14 10 14
 2.494197 1  18F118F3x       Rx   d 8 00 00 00 00 00 00 00 00
 2.495089 1  18F119F3x       Rx   d 8 00 00 00 00 00 00 00 00
 2.496174 1  18F11AF3x       Rx   d 8 00 00 00 00 00 00 00 00
 2.496903 1  18F11BF3x       Rx   d 8 00 00 00 00 00 00 00 00
 2.497810 1  18F11CF3x       Rx   d 8 00 00 00 00 00 00 00 00
 2.498704 1  18F11DF3x       Rx   d 8 00 00 00 00 00 00 00 00
 2.499682 1  18F11EF3x       Rx   d 8 00 00 00 00 00 00 00 00
 2.500551 1  CFF21CAx        Rx   d 8 2A 00 69 17 3F 3C 00 24
 2.501107 1  18F100D0x       Rx   d 8 0C FF FF FF FF FF FF FF
 2.501682 1  18F11FF3x       Rx   d 8 00 00 00 00 00 00 00 00
 2.502590 1  18F120F3x       Rx   d 8 00 00 00 00 00 00 00 00
 2.503597 1  18F121F3x       Rx   d 8 00 00 00 00 00 00 00 00
 2.504532 1  18F122F3x       Rx   d 8 00 00 00 00 00 00 00 00
 2.505456 1  18F123F3x       Rx   d 8 00 00 00 00 00 00 00 00
 2.506403 1  18F124F3x       Rx   d 8 00 00 00 00 00 00 00 00
 2.507336 1  18F125F3x       Rx   d 8 00 00 00 00 00 00 00 00
 2.508275 1  18F126F3x       Rx   d 8 00 00 00 00 00 00 00 00
 2.509224 1  18F127F3x       Rx   d 8 00 00 00 00 00 00 00 00
 2.510113 1  18F128F3x       Rx   d 8 00 00 00 00 00 00 00 00
 2.510991 1  18F129F3x       Rx   d 8 00 00 00 00 00 00 00 00
 2.511829 1  18F12AF3x       Rx   d 8 00 00 00 00 00 00 00 00
 2.512375 1  CFF21CAx        Rx   d 8 2A 00 67 17 3F 3C 00 24
 2.513057 1  18F12BF3x       Rx   d 8 00 00 00 00 00 00 00 00
 2.513854 1  18F100F3x       Rx   d 8 03 37 7D DA F3 FA 14 00
 2.514738 1  18F102F3x       Rx   d 8 10 15 10 0D 10 0C 00 08
 2.516080 1  18F106F3x       Rx   d 8 45 E0 FC FF FF FF FF FF
 2.517333 1  18F107F3x       Rx   d 8 38 A4 27 10 01 72 00 00
 2.519124 1  18F108F3x       Rx   d 8 00 00 00 00 00 00 00 00
 2.520037 1  18F12CF3x       Rx   d 8 00 00 00 00 00 00 00 00
 2.520932 1  18F12DF3x       Rx   d 8 00 00 00 00 00 00 00 00
 2.521848 1  18F12EF3x       Rx   d 8 00 00 00 00 00 00 00 00
 2.522766 1  18F12FF3x       Rx   d 8 00 00 00 00 00 00 00 00
 2.523599 1  18F130F3x       Rx   d 8 00 00 00 00 00 00 00 00
 2.524527 1  18F131F3x       Rx   d 8 00 00 00 00 00 00 00 00
 2.525077 1  CFF21CAx        Rx   d 8 2B 00 62 17 3F 3C 00 24
 2.525654 1  18F100D0x       Rx   d 8 0C FF FF FF FF FF FF FF
 2.526227 1  18F132F3x       Rx   d 8 00 00 00 00 00 00 00 00
 2.527120 1  18F133F3x       Rx   d 8 00 00 00 00 00 00 00 00
 2.528077 1  18F134F3x       Rx   d 8 00 00 00 00 00 00 00 00
 2.528900 1  18F135F3x       Rx   d 8 00 00 00 00 00 00 00 00
 2.529773 1  18F136F3x       Rx   d 8 00 00 00 00 00 00 00 00
 2.530716 1  18F137F3x       Rx   d 8 00 00 00 00 00 00 00 00
 2.531732 1  18F138F3x       Rx   d 8 00 00 00 00 00 00 00 00
 2.532518 1  18F139F3x       Rx   d 8 00 00 00 00 00 00 00 00
 2.533485 1  18F13AF3x       Rx   d 8 00 00 00 00 00 00 00 00
 2.534378 1  18F13BF3x       Rx   d 8 00 00 00 00 00 00 00 00
 2.535216 1  18F13CF3x       Rx   d 8 00 00 00 00 00 00 00 00
 2.536092 1  18F155F3x       Rx   d 8 38 37 38 38 38 39 38 00
 2.536661 1  CFF21CAx        Rx   d 8 2B 00 62 17 3F 3C 00 24
 2.537250 1  18F156F3x       Rx   d 8 00 00 00 00 00 00 00 00
 2.538126 1  18F157F3x       Rx   d 8 00 00 00 00 00 00 00 00
 2.539065 1  18F158F3x       Rx   d 8 00 00 00 00 00 00 00 00
 2.539935 1  18F159F3x       Rx   d 8 00 00 00 00 00 00 00 00
 2.540806 1  18F15AF3x       Rx   d 8 00 00 00 00 00 00 00 00
 2.541630 1  18F15BF3x       Rx   d 7 00 00 00 00 00 00 00
 2.542531 1  18F15CF3x       Rx   d 8 00 00 00 00 00 00 00 00
 2.543439 1  18F15DF3x       Rx   d 8 00 00 00 00 00 00 00 00
 2.544326 1  18F15EF3x       Rx   d 8 00 00 00 00 00 00 00 00
 2.548836 1  CFF21CAx        Rx   d 8 2B 00 5E 17 3F 3C 00 24
 2.552400 1  18F100D0x       Rx   d 8 0C FF FF FF FF FF FF FF
 2.560393 1  CFF21CAx        Rx   d 8 2C 00 5D 17 3F 3C 00 24
 2.573050 1  CFF21CAx        Rx   d 8 2C 00 5C 17 3F 3C 00 24
 2.573850 1  18FF2112x       Rx   d 8 01 00 00 00 00 00 00 00
 2.576500 1  18F100D0x       Rx   d 8 0C FF FF FF FF FF FF FF
 2.584580 1  CFF21CAx        Rx   d 8 2C 00 5F 17 3F 3C 00 24
 2.600699 1  CFF21CAx        Rx   d 8 2C 00 5C 17 3F 3C 00 24
 2.600814 1  18F100D0x       Rx   d 8 0C FF FF FF FF FF FF FF
 2.608628 1  CFF21CAx        Rx   d 8 2C 00 5F 17 3F 3C 00 24
 2.613619 1  18F100F3x       Rx   d 8 03 37 7D DA F3 FA 14 00
 2.614536 1  18F102F3x       Rx   d 8 10 15 10 0D 10 0C 00 08
 2.615872 1  18F106F3x       Rx   d 8 45 E0 FC FF FF FF FF FF
 2.617157 1  18F107F3x       Rx   d 8 38 A4 27 10 01 72 00 00
 2.618953 1  18F108F3x       Rx   d 8 00 00 00 00 00 00 00 00
 2.619822 1  18F155F3x       Rx   d 8 38 37 38 38 38 39 38 00
 2.620813 1  18F156F3x       Rx   d 8 00 00 00 00 00 00 00 00
 2.621359 1  CFF21CAx        Rx   d 8 2D 00 60 17 3F 3C 00 24
 2.621940 1  18F157F3x       Rx   d 8 00 00 00 00 00 00 00 00
 2.622828 1  18F158F3x       Rx   d 8 00 00 00 00 00 00 00 00
 2.623708 1  18F159F3x       Rx   d 8 00 00 00 00 00 00 00 00
 2.624554 1  18F15AF3x       Rx   d 8 00 00 00 00 00 00 00 00
 2.625140 1  18F100D0x       Rx   d 8 0C FF FF FF FF FF FF FF
 2.625666 1  18F15BF3x       Rx   d 7 00 00 00 00 00 00 00
 2.626549 1  18F15CF3x       Rx   d 8 00 00 00 00 00 00 00 00
 2.627442 1  18F15DF3x       Rx   d 8 00 00 00 00 00 00 00 00
 2.628358 1  18F15EF3x       Rx   d 8 00 00 00 00 00 00 00 00
 2.632798 1  CFF21CAx        Rx   d 8 2D 00 60 17 3F 3C 00 24
 2.645332 1  CFF21CAx        Rx   d 8 2D 00 62 17 3F 3C 00 24
 2.653256 1  18F100D0x       Rx   d 8 0C FF FF FF FF FF FF FF
 2.656827 1  CFF21CAx        Rx   d 8 2D 00 62 17 3F 3C 00 24
 2.669259 1  CFF21CAx        Rx   d 8 2D 00 5D 17 3F 3C 00 24
 2.671109 1  18FF2112x       Rx   d 8 01 00 00 00 00 00 00 00
 2.677285 1  18F100D0x       Rx   d 8 0C FF FF FF FF FF FF FF
 2.680889 1  CFF21CAx        Rx   d 8 2D 00 60 17 3F 3C 00 24
 2.693503 1  CFF21CAx        Rx   d 8 2E 00 60 17 3F 3C 00 24
 2.701591 1  18F100D0x       Rx   d 8 0C FF FF FF FF FF FF FF
 2.705074 1  CFF21CAx        Rx   d 8 2E 00 62 17 3F 3C 00 24
 2.713733 1  18F100F3x       Rx   d 8 03 37 7D D1 F3 FA 14 00
 2.714528 1  18F102F3x       Rx   d 8 10 15 10 0E 10 0C 00 07
 2.715846 1  18F106F3x       Rx   d 8 45 E0 FC FF FF FF FF FF
 2.717088 1  18F107F3x       Rx   d 8 38 A4 27 10 01 72 00 00
 2.717630 1  CFF21CAx        Rx   d 8 2E 00 68 17 3F 3C 00 24
 2.718881 1  18F108F3x       Rx   d 8 00 00 00 00 00 00 00 00
 2.719741 1  18F155F3x       Rx   d 8 38 37 38 38 38 39 38 00
 2.720776 1  18F156F3x       Rx   d 8 00 00 00 00 00 00 00 00
 2.721616 1  18F157F3x       Rx   d 8 00 00 00 00 00 00 00 00
 2.722630 1  18F158F3x       Rx   d 8 00 00 00 00 00 00 00 00
 2.723550 1  18F159F3x       Rx   d 8 00 00 00 00 00 00 00 00
 2.724364 1  18F15AF3x       Rx   d 8 00 00 00 00 00 00 00 00
 2.725324 1  18F15BF3x       Rx   d 7 00 00 00 00 00 00 00
 2.725912 1  18F100D0x       Rx   d 8 0C FF FF FF FF FF FF FF
 2.726531 1  18F15CF3x       Rx   d 8 00 00 00 00 00 00 00 00
 2.727433 1  18F15DF3x       Rx   d 8 00 00 00 00 00 00 00 00
 2.728169 1  18F15EF3x       Rx   d 8 00 00 00 00 00 00 00 00
 2.729071 1  CFF21CAx        Rx   d 8 2F 00 66 17 3F 3C 00 24
 2.741616 1  CFF21CAx        Rx   d 8 2F 00 68 17 3F 3C 00 24
 2.749691 1  18F100D0x       Rx   d 8 0C FF FF FF FF FF FF FF
 2.753266 1  CFF21CAx        Rx   d 8 2D 00 6D 17 3F 3C 00 24
 2.765961 1  CFF21CAx        Rx   d 8 2D 00 6F 17 3F 3C 00 24
 2.768492 1  18FF2112x       Rx   d 8 01 00 00 00 00 00 00 00
 2.774098 1  18F100D0x       Rx   d 8 0C FF FF FF FF FF FF FF
 2.777323 1  CFF21CAx        Rx   d 8 2D 00 71 17 3F 3C 00 24
 2.790126 1  CFF21CAx        Rx   d 8 2D 00 73 17 3F 3C 00 24
 2.801562 1  CFF21CAx        Rx   d 8 2D 00 73 17 3F 3C 00 24
 2.802095 1  18F100D0x       Rx   d 8 0C FF FF FF FF FF FF FF
 2.819252 1  18F100F3x       Rx   d 8 03 37 7D D1 F3 FA 14 00
 2.819391 1  CFF21CAx        Rx   d 8 2B 00 73 17 3F 3C 00 24
 2.819499 1  18F102F3x       Rx   d 8 10 15 10 0E 10 0C 00 07
 2.819606 1  18F106F3x       Rx   d 8 45 E0 FC FF FF FF FF FF
 2.819710 1  18F107F3x       Rx   d 8 38 A4 27 10 01 72 00 00
 2.819813 1  18F108F3x       Rx   d 8 00 00 00 00 00 00 00 00
 2.819962 1  18F155F3x       Rx   d 8 38 37 38 38 38 39 38 00
 2.820861 1  18F156F3x       Rx   d 8 00 00 00 00 00 00 00 00
 2.821736 1  18F157F3x       Rx   d 8 00 00 00 00 00 00 00 00
 2.822628 1  18F158F3x       Rx   d 8 00 00 00 00 00 00 00 00
 2.823605 1  18F159F3x       Rx   d 8 00 00 00 00 00 00 00 00
 2.824488 1  18F15AF3x       Rx   d 8 00 00 00 00 00 00 00 00
 2.825356 1  18F15BF3x       Rx   d 7 00 00 00 00 00 00 00
 2.825886 1  CFF21CAx        Rx   d 8 2B 00 6E 17 3F 3C 00 24
 2.826475 1  18F100D0x       Rx   d 8 0C FF FF FF FF FF FF FF
 2.827056 1  18F15CF3x       Rx   d 8 00 00 00 00 00 00 00 00
 2.827907 1  18F15DF3x       Rx   d 8 00 00 00 00 00 00 00 00
 2.828772 1  18F15EF3x       Rx   d 8 00 00 00 00 00 00 00 00
 2.838019 1  CFF21CAx        Rx   d 8 2B 00 70 17 3F 3C 00 24
 2.849640 1  CFF21CAx        Rx   d 8 2A 00 69 17 3F 3C 00 24
 2.850196 1  18F100D0x       Rx   d 8 0C FF FF FF FF FF FF FF
 2.862240 1  CFF21CAx        Rx   d 8 2A 00 6B 17 3F 3C 00 24
 2.865670 1  18FF2112x       Rx   d 8 01 00 00 00 00 00 00 00
 2.873770 1  CFF21CAx        Rx   d 8 2A 00 6A 17 3F 3C 00 24
 2.874302 1  18F100D0x       Rx   d 8 0C FF FF FF FF FF FF FF
 2.886252 1  CFF21CAx        Rx   d 8 29 00 69 17 3F 3C 00 24
 2.897830 1  CFF21CAx        Rx   d 8 29 00 69 17 3F 3C 00 24
 2.898341 1  18F100D0x       Rx   d 8 0C FF FF FF FF FF FF FF
 2.910386 1  CFF21CAx        Rx   d 8 2A 00 6C 17 3F 3C 00 24
 2.913668 1  18F100F3x       Rx   d 8 03 37 7D D6 F3 FA 14 00
 2.914546 1  18F102F3x       Rx   d 8 10 15 10 0E 10 0C 00 07
 2.915866 1  18F106F3x       Rx   d 8 45 E0 FC FF FF FF FF FF
 2.917102 1  18F107F3x       Rx   d 8 38 A4 27 10 01 72 00 00
 2.918877 1  18F108F3x       Rx   d 8 00 00 00 00 00 00 00 00
 2.919767 1  18F155F3x       Rx   d 8 38 37 38 38 38 39 38 00
 2.920777 1  18F156F3x       Rx   d 8 00 00 00 00 00 00 00 00
 2.921636 1  18F157F3x       Rx   d 8 00 00 00 00 00 00 00 00
 2.922231 1  CFF21CAx        Rx   d 8 2A 00 6C 17 3F 3C 00 24
 2.922800 1  18F158F3x       Rx   d 8 00 00 00 00 00 00 00 00
 2.923706 1  18F159F3x       Rx   d 8 00 00 00 00 00 00 00 00
 2.924560 1  18F15AF3x       Rx   d 8 00 00 00 00 00 00 00 00
 2.925445 1  18F15BF3x       Rx   d 7 00 00 00 00 00 00 00
 2.926364 1  18F15CF3x       Rx   d 8 00 00 00 00 00 00 00 00
 2.927092 1  18F100D0x       Rx   d 8 0C FF FF FF FF FF FF FF
 2.927513 1  18F15DF3x       Rx   d 8 00 00 00 00 00 00 00 00
 2.928440 1  18F15EF3x       Rx   d 8 00 00 00 00 00 00 00 00
 2.934335 1  CFF21CAx        Rx   d 8 2A 00 6D 17 3F 3C 00 24
 2.946117 1  CFF21CAx        Rx   d 8 2A 00 73 17 3F 3C 00 24
 2.950456 1  18F100D0x       Rx   d 8 0C FF FF FF FF FF FF FF
 2.958598 1  CFF21CAx        Rx   d 8 2A 00 6F 17 3F 3C 00 24
 2.962935 1  18FF2112x       Rx   d 8 01 00 00 00 00 00 00 00
 2.970131 1  CFF21CAx        Rx   d 8 2A 00 6F 17 3F 3C 00 24
 2.974628 1  18F100D0x       Rx   d 8 0C FF FF FF FF FF FF FF
 2.982768 1  CFF21CAx        Rx   d 8 29 00 70 17 3F 3C 00 24
 2.994350 1  CFF21CAx        Rx   d 8 29 00 70 17 3F 3C 00 24
 2.998643 1  18F100D0x       Rx   d 8 0C FF FF FF FF FF FF FF
 3.006708 1  CFF21CAx        Rx   d 8 29 00 6E 17 3F 3C 00 24
 3.013694 1  18F100F3x       Rx   d 8 03 37 7D D6 F3 FA 14 00
 3.014538 1  18F102F3x       Rx   d 8 10 15 10 0E 10 0C 00 07
 3.015879 1  18F106F3x       Rx   d 8 45 E0 FC FF FF FF FF FF
 3.017193 1  18F107F3x       Rx   d 8 38 A4 27 10 01 72 00 00
 3.018774 1  CFF21CAx        Rx   d 8 29 00 72 17 3F 3C 00 24
 3.019309 1  18F108F3x       Rx   d 8 00 00 00 00 00 00 00 00
 3.020525 1  18F155F3x       Rx   d 8 38 37 38 38 38 39 38 00
 3.021384 1  18F156F3x       Rx   d 8 00 00 00 00 00 00 00 00
 3.022370 1  18F157F3x       Rx   d 8 00 00 00 00 00 00 00 00
 3.022886 1  18F100D0x       Rx   d 8 0C FF FF FF FF FF FF FF
 3.023465 1  18F158F3x       Rx   d 8 00 00 00 00 00 00 00 00
 3.024431 1  18F159F3x       Rx   d 8 00 00 00 00 00 00 00 00
 3.036315 1  18F15AF3x       Rx   d 8 00 00 00 00 00 00 00 00
 3.036429 1  18F15BF3x       Rx   d 7 00 00 00 00 00 00 00
 3.036537 1  18FECACAx       Rx   d 8 00 00 00 00 00 00 FF FF
 3.036637 1  18F15CF3x       Rx   d 8 00 00 00 00 00 00 00 00
 3.036753 1  18F15DF3x       Rx   d 8 00 00 00 00 00 00 00 00
 3.036856 1  18F15EF3x       Rx   d 8 00 00 00 00 00 00 00 00
 3.037027 1  CFF21CAx        Rx   d 8 29 00 6D 17 3F 3C 00 24
 3.042412 1  CFF21CAx        Rx   d 8 29 00 6E 17 3F 3C 00 24
 3.050454 1  18F100D0x       Rx   d 8 0C FF FF FF FF FF FF FF
 3.054925 1  CFF21CAx        Rx   d 8 29 00 6E 17 3F 3C 00 24
 3.060187 1  18FF2112x       Rx   d 8 01 00 00 00 00 00 00 00
 3.066453 1  CFF21CAx        Rx   d 8 29 00 6D 17 3F 3C 00 24
 3.074562 1  18F100D0x       Rx   d 8 0C FF FF FF FF FF FF FF
 3.078530 1  CFF21CAx        Rx   d 8 28 00 6F 17 3F 3C 00 24
 3.090647 1  CFF21CAx        Rx   d 8 28 00 6A 17 3F 3C 00 24
 3.103161 1  CFF21CAx        Rx   d 8 28 00 69 17 3F 3C 00 24
 3.103669 1  18F100D0x       Rx   d 8 0C FF FF FF FF FF FF FF
 3.113744 1  18F100F3x       Rx   d 8 03 37 7D D6 F3 FA 14 00
 3.114551 1  18F102F3x       Rx   d 8 10 15 10 0E 10 0C 00 07
 3.115113 1  CFF21CAx        Rx   d 8 28 00 68 17 3F 3C 00 24
 3.115902 1  18F106F3x       Rx   d 8 45 E0 FC FF FF FF FF FF
 3.117153 1  18F107F3x       Rx   d 8 38 A4 27 10 01 72 00 00
 3.118935 1  18F108F3x       Rx   d 8 00 00 00 00 00 00 00 00
 3.119812 1  18F155F3x       Rx   d 8 38 37 38 38 38 39 38 00
 3.120794 1  18F156F3x       Rx   d 8 00 00 00 00 00 00 00 00
 3.121644 1  18F157F3x       Rx   d 8 00 00 00 00 00 00 00 00
 3.122588 1  18F158F3x       Rx   d 8 00 00 00 00 00 00 00 00
 3.123582 1  18F159F3x       Rx   d 8 00 00 00 00 00 00 00 00
 3.124458 1  18F15AF3x       Rx   d 8 00 00 00 00 00 00 00 00
 3.125366 1  18F15BF3x       Rx   d 7 00 00 00 00 00 00 00
 3.126119 1  18F15CF3x       Rx   d 8 00 00 00 00 00 00 00 00
 3.126694 1  CFF21CAx        Rx   d 8 28 00 67 17 3F 3C 00 24
 3.127272 1  18F100D0x       Rx   d 8 0C FF FF FF FF FF FF FF
 3.127839 1  18F15DF3x       Rx   d 8 00 00 00 00 00 00 00 00
 3.128680 1  18F15EF3x       Rx   d 8 00 00 00 00 00 00 00 00
 3.138833 1  CFF21CAx        Rx   d 8 28 00 64 17 3F 3C 00 24
 3.151401 1  CFF21CAx        Rx   d 8 28 00 63 17 3F 3C 00 24
 3.151878 1  18F100D0x       Rx   d 8 0C FF FF FF FF FF FF FF
 3.157437 1  18FF2112x       Rx   d 8 01 00 00 00 00 00 00 00
 3.162895 1  CFF21CAx        Rx   d 8 28 00 66 17 3F 3C 00 24
 3.174964 1  CFF21CAx        Rx   d 8 29 00 66 17 3F 3C 00 24
 3.175556 1  18F100D0x       Rx   d 8 0C FF FF FF FF FF FF FF
 3.187070 1  CFF21CAx        Rx   d 8 29 00 64 17 3F 3C 00 24
 3.199181 1  CFF21CAx        Rx   d 8 2A 00 63 17 3F 3C 00 24
 3.199610 1  18F100D0x       Rx   d 8 0C FF FF FF FF FF FF FF
 3.211139 1  CFF21CAx        Rx   d 8 2A 00 65 17 3F 3C 00 24
 3.213658 1  18F100F3x       Rx   d 8 03 37 7D C8 F3 FA 14 00
 3.214624 1  18F102F3x       Rx   d 8 10 15 10 0E 10 0C 00 07
 3.215897 1  18F106F3x       Rx   d 8 45 E0 FC FF FF FF FF FF
 3.217168 1  18F107F3x       Rx   d 8 38 A4 27 10 01 72 00 00
 3.218891 1  18F108F3x       Rx   d 8 00 00 00 00 00 00 00 00
 3.219828 1  18F155F3x       Rx   d 8 38 37 38 38 38 39 38 00
 3.220840 1  18F156F3x       Rx   d 8 00 00 00 00 00 00 00 00
 3.221644 1  18F157F3x       Rx   d 8 00 00 00 00 00 00 00 00
 3.222593 1  18F158F3x       Rx   d 8 00 00 00 00 00 00 00 00
 3.223173 1  CFF21CAx        Rx   d 8 2A 00 64 17 3F 3C 00 24
 3.223798 1  18F159F3x       Rx   d 8 00 00 00 00 00 00 00 00
 3.224614 1  18F15AF3x       Rx   d 8 00 00 00 00 00 00 00 00
 3.225488 1  18F15BF3x       Rx   d 7 00 00 00 00 00 00 00
 3.226447 1  18F15CF3x       Rx   d 8 00 00 00 00 00 00 00 00
 3.227208 1  18F100D0x       Rx   d 8 0C FF FF FF FF FF FF FF
 3.227764 1  18F15DF3x       Rx   d 8 00 00 00 00 00 00 00 00
 3.228625 1  18F15EF3x       Rx   d 8 00 00 00 00 00 00 00 00
 3.235191 1  CFF21CAx        Rx   d 8 2B 00 66 17 3F 3C 00 24
 3.254915 1  CFF21CAx        Rx   d 8 2B 00 6B 17 3F 3C 00 24
 3.255066 1  18F100D0x       Rx   d 8 0C FF FF FF FF FF FF FF
 3.255168 1  18FF2112x       Rx   d 8 01 00 00 00 00 00 00 00
 3.259236 1  CFF21CAx        Rx   d 8 2A 00 68 17 3F 3C 00 24
 3.271327 1  CFF21CAx        Rx   d 8 2A 00 6A 17 3F 3C 00 24
 3.275332 1  18F100D0x       Rx   d 8 0C FF FF FF FF FF FF FF
 3.283403 1  CFF21CAx        Rx   d 8 2A 00 6A 17 3F 3C 00 24
 3.295431 1  CFF21CAx        Rx   d 8 2A 00 6C 17 3F 3C 00 24
 3.299449 1  18F100D0x       Rx   d 8 0C FF FF FF FF FF FF FF
 3.307591 1  CFF21CAx        Rx   d 8 2A 00 6C 17 3F 3C 00 24
 3.313675 1  18F100F3x       Rx   d 8 03 37 7D C8 F3 FA 14 00
 3.314620 1  18F102F3x       Rx   d 8 10 15 10 0E 10 0C 00 07
 3.315908 1  18F106F3x       Rx   d 8 45 E0 FC FF FF FF FF FF
 3.317122 1  18F107F3x       Rx   d 8 38 A4 27 10 01 72 00 00
 3.318923 1  18F108F3x       Rx   d 8 00 00 00 00 00 00 00 00
 3.319800 1  18F155F3x       Rx   d 8 38 37 38 38 38 39 38 00
 3.320325 1  CFF21CAx        Rx   d 8 2A 00 6B 17 3F 3C 00 24
 3.320895 1  18F156F3x       Rx   d 8 00 00 00 00 00 00 00 00
 3.321780 1  18F157F3x       Rx   d 8 00 00 00 00 00 00 00 00
 3.322671 1  18F158F3x       Rx   d 8 00 00 00 00 00 00 00 00
 3.323610 1  18F159F3x       Rx   d 8 00 00 00 00 00 00 00 00
 3.324528 1  18F15AF3x       Rx   d 8 00 00 00 00 00 00 00 00
 3.325342 1  18F15BF3x       Rx   d 7 00 00 00 00 00 00 00
 3.326251 1  18F15CF3x       Rx   d 8 00 00 00 00 00 00 00 00
 3.327120 1  18F15DF3x       Rx   d 8 00 00 00 00 00 00 00 00
 3.327658 1  18F100D0x       Rx   d 8 0C FF FF FF FF FF FF FF
 3.328264 1  18F15EF3x       Rx   d 8 00 00 00 00 00 00 00 00
 3.331608 1  CFF21CAx        Rx   d 8 2A 00 6B 17 3F 3C 00 24
 3.343730 1  CFF21CAx        Rx   d 8 29 00 6A 17 3F 3C 00 24
 3.351694 1  18F100D0x       Rx   d 8 0C FF FF FF FF FF FF FF
 3.352217 1  18FF2112x       Rx   d 8 01 00 00 00 00 00 00 00
 3.355703 1  CFF21CAx        Rx   d 8 29 00 68 17 3F 3C 00 24
 3.367781 1  CFF21CAx        Rx   d 8 28 00 67 17 3F 3C 00 24
 3.375821 1  18F100D0x       Rx   d 8 0C FF FF FF FF FF FF FF
 3.379865 1  CFF21CAx        Rx   d 8 28 00 64 17 3F 3C 00 24
 3.391856 1  CFF21CAx        Rx   d 8 28 00 67 17 3F 3C 00 24
 3.399850 1  18F100D0x       Rx   d 8 0C FF FF FF FF FF FF FF
 3.403896 1  CFF21CAx        Rx   d 8 29 00 66 17 3F 3C 00 24
 3.413725 1  18F100F3x       Rx   d 8 03 37 7D CD F3 FA 14 00
 3.414584 1  18F102F3x       Rx   d 8 10 15 10 0E 10 0C 00 07
 3.415863 1  18F106F3x       Rx   d 8 45 E0 FC FF FF FF FF FF
 3.416416 1  CFF21CAx        Rx   d 8 29 00 68 17 3F 3C 00 24
 3.417141 1  18F107F3x       Rx   d 8 38 A4 27 10 01 72 00 00
 3.418871 1  18F108F3x       Rx   d 8 00 00 00 00 00 00 00 00
 3.419799 1  18F155F3x       Rx   d 8 38 37 38 38 38 39 38 00
 3.420784 1  18F156F3x       Rx   d 8 00 00 00 00 00 00 00 00
 3.421685 1  18F157F3x       Rx   d 8 00 00 00 00 00 00 00 00
 3.422612 1  18F158F3x       Rx   d 8 00 00 00 00 00 00 00 00
 3.423485 1  18F159F3x       Rx   d 8 00 00 00 00 00 00 00 00
 3.424131 1  18F100D0x       Rx   d 8 0C FF FF FF FF FF FF FF
 3.424647 1  18F15AF3x       Rx   d 8 00 00 00 00 00 00 00 00
 3.425564 1  18F15BF3x       Rx   d 7 00 00 00 00 00 00 00
 3.426465 1  18F15CF3x       Rx   d 8 00 00 00 00 00 00 00 00
 3.427321 1  18F15DF3x       Rx   d 8 00 00 00 00 00 00 00 00
 3.427950 1  CFF21CAx        Rx   d 8 28 00 69 17 3F 3C 00 24
 3.428530 1  18F15EF3x       Rx   d 8 00 00 00 00 00 00 00 00
 3.440247 1  CFF21CAx        Rx   d 8 28 00 68 17 3F 3C 00 24
 3.448237 1  18F100D0x       Rx   d 8 0C FF FF FF FF FF FF FF
 3.449256 1  18FF2112x       Rx   d 8 01 00 00 00 00 00 00 00
 3.452560 1  CFF21CAx        Rx   d 8 28 00 66 17 3F 3C 00 24
 3.473839 1  CFF21CAx        Rx   d 8 29 00 6C 17 3F 3C 00 24
 3.476531 1  CFF21CAx        Rx   d 8 29 00 67 17 3F 3C 00 24
 3.477111 1  18F100D0x       Rx   d 8 0C FF FF FF FF FF FF FF
 3.488178 1  18F104F3x       Rx   d 8 39 37 06 02 02 FF FF FF
 3.488728 1  CFF21CAx        Rx   d 8 29 00 69 17 3F 3C 00 24
 3.489273 1  18F113F3x       Rx   d 8 10 11 10 11 10 11 10 12
 3.490459 1  18F114F3x       Rx   d 8 10 10 10 0F 10 12 10 12
 3.491439 1  18F115F3x       Rx   d 8 10 0F 10 0F 10 10 10 0E
 3.492388 1  18F116F3x       Rx   d 8 10 14 10 11 10 13 10 15
 3.493321 1  18F117F3x       Rx   d 8 10 11 10 12 10 15 10 14
 3.494247 1  18F118F3x       Rx   d 8 00 00 00 00 00 00 00 00
 3.495139 1  18F119F3x       Rx   d 8 00 00 00 00 00 00 00 00
 3.496066 1  18F11AF3x       Rx   d 8 00 00 00 00 00 00 00 00
 3.497039 1  18F11BF3x       Rx   d 8 00 00 00 00 00 00 00 00
 3.497881 1  18F11CF3x       Rx   d 8 00 00 00 00 00 00 00 00
 3.498781 1  18F11DF3x       Rx   d 8 00 00 00 00 00 00 00 00
 3.499714 1  18F11EF3x       Rx   d 8 00 00 00 00 00 00 00 00
 3.500600 1  CFF21CAx        Rx   d 8 29 00 69 17 3F 3C 00 24
 3.501197 1  18F100D0x       Rx   d 8 0C FF FF FF FF FF FF FF
 3.501779 1  18F11FF3x       Rx   d 8 00 00 00 00 00 00 00 00
 3.502698 1  18F120F3x       Rx   d 8 00 00 00 00 00 00 00 00
 3.503637 1  18F121F3x       Rx   d 8 00 00 00 00 00 00 00 00
 3.504581 1  18F122F3x       Rx   d 8 00 00 00 00 00 00 00 00
 3.505511 1  18F123F3x       Rx   d 8 00 00 00 00 00 00 00 00
 3.506476 1  18F124F3x       Rx   d 8 00 00 00 00 00 00 00 00
 3.507419 1  18F125F3x       Rx   d 8 00 00 00 00 00 00 00 00
 3.508320 1  18F126F3x       Rx   d 8 00 00 00 00 00 00 00 00
 3.509304 1  18F127F3x       Rx   d 8 00 00 00 00 00 00 00 00
 3.510516 1  18F128F3x       Rx   d 8 00 00 00 00 00 00 00 00
 3.511440 1  18F129F3x       Rx   d 8 00 00 00 00 00 00 00 00
 3.512234 1  CFF21CAx        Rx   d 8 29 00 68 17 3F 3C 00 24
 3.512827 1  18F12AF3x       Rx   d 8 00 00 00 00 00 00 00 00
 3.513782 1  18F100F3x       Rx   d 8 03 37 7D CD F3 FA 14 00
 3.514337 1  18F102F3x       Rx   d 8 10 15 10 0E 10 0C 00 07
 3.515711 1  18F106F3x       Rx   d 8 45 E0 FC FF FF FF FF FF
 3.517054 1  18F107F3x       Rx   d 8 38 A4 27 10 01 72 00 00
 3.518819 1  18F108F3x       Rx   d 8 00 00 00 00 00 00 00 00
 3.519704 1  18F12BF3x       Rx   d 8 00 00 00 00 00 00 00 00
 3.520787 1  18F12CF3x       Rx   d 8 00 00 00 00 00 00 00 00
 3.521696 1  18F12DF3x       Rx   d 8 00 00 00 00 00 00 00 00
 3.522588 1  18F12EF3x       Rx   d 8 00 00 00 00 00 00 00 00
 3.523551 1  18F12FF3x       Rx   d 8 00 00 00 00 00 00 00 00
 3.524473 1  18F130F3x       Rx   d 8 00 00 00 00 00 00 00 00
 3.525029 1  CFF21CAx        Rx   d 8 2A 00 67 17 3F 3C 00 24
 3.525611 1  18F100D0x       Rx   d 8 0C FF FF FF FF FF FF FF
 3.526195 1  18F131F3x       Rx   d 8 00 00 00 00 00 00 00 00
 3.527077 1  18F132F3x       Rx   d 8 00 00 00 00 00 00 00 00
 3.528076 1  18F133F3x       Rx   d 8 00 00 00 00 00 00 00 00
 3.528845 1  18F134F3x       Rx   d 8 00 00 00 00 00 00 00 00
 3.529722 1  18F135F3x       Rx   d 8 00 00 00 00 00 00 00 00
 3.530785 1  18F136F3x       Rx   d 8 00 00 00 00 00 00 00 00
 3.531676 1  18F137F3x       Rx   d 8 00 00 00 00 00 00 00 00
 3.532578 1  18F138F3x       Rx   d 8 00 00 00 00 00 00 00 00
 3.533507 1  18F139F3x       Rx   d 8 00 00 00 00 00 00 00 00
 3.534427 1  18F13AF3x       Rx   d 8 00 00 00 00 00 00 00 00
 3.535351 1  18F13BF3x       Rx   d 8 00 00 00 00 00 00 00 00
 3.536188 1  18F13CF3x       Rx   d 8 00 00 00 00 00 00 00 00
 3.536767 1  CFF21CAx        Rx   d 8 2A 00 67 17 3F 3C 00 24
 3.537283 1  18F155F3x       Rx   d 8 38 37 38 38 38 39 38 00
 3.538200 1  18F156F3x       Rx   d 8 00 00 00 00 00 00 00 00
 3.539108 1  18F157F3x       Rx   d 8 00 00 00 00 00 00 00 00
 3.539946 1  18F158F3x       Rx   d 8 00 00 00 00 00 00 00 00
 3.540854 1  18F159F3x       Rx   d 8 00 00 00 00 00 00 00 00
 3.541734 1  18F15AF3x       Rx   d 8 00 00 00 00 00 00 00 00
 3.542550 1  18F15BF3x       Rx   d 7 00 00 00 00 00 00 00
 3.543473 1  18F15CF3x       Rx   d 8 00 00 00 00 00 00 00 00
 3.544359 1  18F15DF3x       Rx   d 8 00 00 00 00 00 00 00 00
 3.545179 1  18F15EF3x       Rx   d 8 00 00 00 00 00 00 00 00
 3.546533 1  18FF2112x       Rx   d 8 01 00 00 00 00 00 00 00
 3.548839 1  CFF21CAx        Rx   d 8 2A 00 68 17 3F 3C 00 24
 3.549382 1  18F100D0x       Rx   d 8 0C FF FF FF FF FF FF FF
 3.560502 1  CFF21CAx        Rx   d 8 2A 00 67 17 3F 3C 00 24
 3.573087 1  CFF21CAx        Rx   d 8 2A 00 6A 17 3F 3C 00 24
 3.573543 1  18F100D0x       Rx   d 8 0C FF FF FF FF FF FF FF
 3.584608 1  CFF21CAx        Rx   d 8 2A 00 68 17 3F 3C 00 24
 3.597111 1  CFF21CAx        Rx   d 8 2A 00 65 17 3F 3C 00 24
 3.600673 1  18F100D0x       Rx   d 8 0C FF FF FF FF FF FF FF
 3.608710 1  CFF21CAx        Rx   d 8 2A 00 67 17 3F 3C 00 24
 3.613775 1  18F100F3x       Rx   d 8 03 37 7D CD F3 FA 14 00
 3.614743 1  18F102F3x       Rx   d 8 10 15 10 0E 10 0C 00 07
 3.615926 1  18F106F3x       Rx   d 8 45 E0 FC FF FF FF FF FF
 3.617241 1  18F107F3x       Rx   d 8 38 A4 27 10 01 72 00 00
 3.618996 1  18F108F3x       Rx   d 8 00 00 00 00 00 00 00 00
 3.620025 1  18F155F3x       Rx   d 8 38 37 38 38 38 39 38 00
 3.620876 1  18F156F3x       Rx   d 8 00 00 00 00 00 00 00 00
 3.621370 1  CFF21CAx        Rx   d 8 2A 00 63 17 3F 3C 00 24
 3.621954 1  18F157F3x       Rx   d 8 00 00 00 00 00 00 00 00
 3.622824 1  18F158F3x       Rx   d 8 00 00 00 00 00 00 00 00
 3.623775 1  18F159F3x       Rx   d 8 00 00 00 00 00 00 00 00
 3.624585 1  18F15AF3x       Rx   d 8 00 00 00 00 00 00 00 00
 3.625160 1  18F100D0x       Rx   d 8 0C FF FF FF FF FF FF FF
 3.625739 1  18F15BF3x       Rx   d 7 00 00 00 00 00 00 00
 3.626652 1  18F15CF3x       Rx   d 8 00 00 00 00 00 00 00 00
 3.627477 1  18F15DF3x       Rx   d 8 00 00 00 00 00 00 00 00
 3.628414 1  18F15EF3x       Rx   d 8 00 00 00 00 00 00 00 00
 3.632794 1  CFF21CAx        Rx   d 8 2A 00 67 17 3F 3C 00 24
 3.643939 1  18FF2112x       Rx   d 8 01 00 00 00 00 00 00 00
 3.645258 1  CFF21CAx        Rx   d 8 2C 00 60 17 3F 3C 00 24
 3.648866 1  18F100D0x       Rx   d 8 0C FF FF FF FF FF FF FF
 3.657036 1  CFF21CAx        Rx   d 8 2C 00 60 17 3F 3C 00 24
 3.669478 1  CFF21CAx        Rx   d 8 2C 00 5E 17 3F 3C 00 24
 3.673112 1  18F100D0x       Rx   d 8 0C FF FF FF FF FF FF FF
 3.692269 1  CFF21CAx        Rx   d 8 2C 00 5E 17 3F 3C 00 24
 3.693545 1  CFF21CAx        Rx   d 8 2C 00 5B 17 3F 3C 00 24
 3.697086 1  18F100D0x       Rx   d 8 0C FF FF FF FF FF FF FF
 3.705084 1  CFF21CAx        Rx   d 8 2C 00 60 17 3F 3C 00 24
 3.713740 1  18F100F3x       Rx   d 8 03 37 7D CB F3 FA 14 00
 3.714581 1  18F102F3x       Rx   d 8 10 15 10 0E 10 0C 00 07
 3.715912 1  18F106F3x       Rx   d 8 45 E0 FC FF FF FF FF FF
 3.717140 1  18F107F3x       Rx   d 8 38 A4 27 10 01 72 00 00
 3.717700 1  CFF21CAx        Rx   d 8 2D 00 5E 17 3F 3C 00 24
 3.718929 1  18F108F3x       Rx   d 8 00 00 00 00 00 00 00 00
 3.719829 1  18F155F3x       Rx   d 8 38 37 38 38 38 39 38 00
 3.720840 1  18F156F3x       Rx   d 8 00 00 00 00 00 00 00 00
 3.721699 1  18F157F3x       Rx   d 8 00 00 00 00 00 00 00 00
 3.722622 1  18F158F3x       Rx   d 8 00 00 00 00 00 00 00 00
 3.723570 1  18F159F3x       Rx   d 8 00 00 00 00 00 00 00 00
 3.724475 1  18F15AF3x       Rx   d 8 00 00 00 00 00 00 00 00
 3.725357 1  18F15BF3x       Rx   d 7 00 00 00 00 00 00 00
 3.725931 1  18F100D0x       Rx   d 8 0C FF FF FF FF FF FF FF
 3.726495 1  18F15CF3x       Rx   d 8 00 00 00 00 00 00 00 00
 3.727404 1  18F15DF3x       Rx   d 8 00 00 00 00 00 00 00 00
 3.728237 1  18F15EF3x       Rx   d 8 00 00 00 00 00 00 00 00
 3.729213 1  CFF21CAx        Rx   d 8 2D 00 60 17 3F 3C 00 24
 3.741381 1  18FF2112x       Rx   d 8 01 00 00 00 00 00 00 00
 3.741732 1  CFF21CAx        Rx   d 8 2D 00 60 17 3F 3C 00 24
 3.749914 1  18F100D0x       Rx   d 8 0C FF FF FF FF FF FF FF
 3.753280 1  CFF21CAx        Rx   d 8 2D 00 64 17 3F 3C 00 24
 3.765817 1  CFF21CAx        Rx   d 8 2D 00 66 17 3F 3C 00 24
 3.773891 1  18F100D0x       Rx   d 8 0C FF FF FF FF FF FF FF
 3.777358 1  CFF21CAx        Rx   d 8 2D 00 68 17 3F 3C 00 24
 3.789972 1  CFF21CAx        Rx   d 8 2D 00 68 17 3F 3C 00 24
 3.797903 1  18F100D0x       Rx   d 8 0C FF FF FF FF FF FF FF
 3.801576 1  CFF21CAx        Rx   d 8 2D 00 67 17 3F 3C 00 24
 3.813743 1  18F100F3x       Rx   d 8 03 37 7D CB F3 FA 14 00
 3.814263 1  CFF21CAx        Rx   d 8 2C 00 6E 17 3F 3C 00 24
 3.814815 1  18F102F3x       Rx   d 8 10 15 10 0E 10 0C 00 07
 3.816088 1  18F106F3x       Rx   d 8 45 E0 FC FF FF FF FF FF
 3.817385 1  18F107F3x       Rx   d 8 38 A4 27 10 01 72 00 00
 3.819132 1  18F108F3x       Rx   d 8 00 00 00 00 00 00 00 00
 3.820104 1  18F155F3x       Rx   d 8 38 37 38 38 38 39 38 00
 3.820895 1  18F156F3x       Rx   d 8 00 00 00 00 00 00 00 00
 3.821762 1  18F157F3x       Rx   d 8 00 00 00 00 00 00 00 00
 3.822355 1  18F100D0x       Rx   d 8 0C FF FF FF FF FF FF FF
 3.822923 1  18F158F3x       Rx   d 8 00 00 00 00 00 00 00 00
 3.823893 1  18F159F3x       Rx   d 8 00 00 00 00 00 00 00 00
 3.824738 1  18F15AF3x       Rx   d 8 00 00 00 00 00 00 00 00
 3.825580 1  18F15BF3x       Rx   d 7 00 00 00 00 00 00 00
 3.826137 1  CFF21CAx        Rx   d 8 2C 00 68 17 3F 3C 00 24
 3.826724 1  18F15CF3x       Rx   d 8 00 00 00 00 00 00 00 00
 3.827586 1  18F15DF3x       Rx   d 8 00 00 00 00 00 00 00 00
 3.828503 1  18F15EF3x       Rx   d 8 00 00 00 00 00 00 00 00
 3.838082 1  CFF21CAx        Rx   d 8 2C 00 6A 17 3F 3C 00 24
 3.838622 1  18FF2112x       Rx   d 8 01 00 00 00 00 00 00 00
 3.849655 1  CFF21CAx        Rx   d 8 2D 00 6B 17 3F 3C 00 24
 3.850191 1  18F100D0x       Rx   d 8 0C FF FF FF FF FF FF FF
 3.862169 1  CFF21CAx        Rx   d 8 2D 00 66 17 3F 3C 00 24
 3.874002 1  CFF21CAx        Rx   d 8 2B 00 6C 17 3F 3C 00 24
 3.874493 1  18F100D0x       Rx   d 8 0C FF FF FF FF FF FF FF
 3.886350 1  CFF21CAx        Rx   d 8 2B 00 6A 17 3F 3C 00 24
 3.897856 1  CFF21CAx        Rx   d 8 2B 00 6A 17 3F 3C 00 24
 3.909422 1  18F100D0x       Rx   d 8 0C FF FF FF FF FF FF FF
 3.910396 1  CFF21CAx        Rx   d 8 2B 00 6A 17 3F 3C 00 24
 3.913709 1  18F100F3x       Rx   d 8 03 37 7D D4 F3 FA 14 00
 3.914590 1  18F102F3x       Rx   d 8 10 15 10 0E 10 0C 00 07
 3.915932 1  18F106F3x       Rx   d 8 45 E0 FC FF FF FF FF FF
 3.917180 1  18F107F3x       Rx   d 8 38 A4 27 10 01 72 00 00
 3.918980 1  18F108F3x       Rx   d 8 00 00 00 00 00 00 00 00
 3.919823 1  18F155F3x       Rx   d 8 38 37 38 38 38 39 38 00
 3.920830 1  18F156F3x       Rx   d 8 00 00 00 00 00 00 00 00
 3.921713 1  18F157F3x       Rx   d 8 00 00 00 00 00 00 00 00
 3.922276 1  CFF21CAx        Rx   d 8 2B 00 6D 17 3F 3C 00 24
 3.922852 1  18F100D0x       Rx   d 8 0C FF FF FF FF FF FF FF
 3.923515 1  18F158F3x       Rx   d 8 00 00 00 00 00 00 00 00
 3.924358 1  18F159F3x       Rx   d 8 00 00 00 00 00 00 00 00
 3.925225 1  18F15AF3x       Rx   d 8 00 00 00 00 00 00 00 00
 3.926056 1  18F15BF3x       Rx   d 7 00 00 00 00 00 00 00
 3.926918 1  18F15CF3x       Rx   d 8 00 00 00 00 00 00 00 00
 3.927760 1  18F15DF3x       Rx   d 8 00 00 00 00 00 00 00 00
 3.928627 1  18F15EF3x       Rx   d 8 00 00 00 00 00 00 00 00
 3.934466 1  CFF21CAx        Rx   d 8 2B 00 6B 17 3F 3C 00 24
 3.935665 1  18FF2112x       Rx   d 8 01 00 00 00 00 00 00 00
 3.946120 1  CFF21CAx        Rx   d 8 2A 00 68 17 3F 3C 00 24
 3.946599 1  18F100D0x       Rx   d 8 0C FF FF FF FF FF FF FF
 3.958610 1  CFF21CAx        Rx   d 8 2A 00 6D 17 3F 3C 00 24
 3.970220 1  CFF21CAx        Rx   d 8 2A 00 6B 17 3F 3C 00 24
 3.974579 1  18F100D0x       Rx   d 8 0C FF FF FF FF FF FF FF
 3.982706 1  CFF21CAx        Rx   d 8 2A 00 6D 17 3F 3C 00 24
 3.994279 1  CFF21CAx        Rx   d 8 2A 00 6B 17 3F 3C 00 24
 3.994868 1  18F100D0x       Rx   d 8 0C FF FF FF FF FF FF FF
 4.007026 1  CFF21CAx        Rx   d 8 29 00 69 17 3F 3C 00 24
 4.013789 1  18F100F3x       Rx   d 8 03 37 7D D4 F3 FA 14 00
 4.014640 1  18F102F3x       Rx   d 8 10 15 10 0E 10 0C 00 07
 4.015966 1  18F106F3x       Rx   d 8 45 E0 FC FF FF FF FF FF
 4.017176 1  18F107F3x       Rx   d 8 38 A4 27 10 01 72 00 00
 4.018859 1  CFF21CAx        Rx   d 8 29 00 6B 17 3F 3C 00 24
 4.019342 1  18F108F3x       Rx   d 8 00 00 00 00 00 00 00 00
 4.020525 1  18F155F3x       Rx   d 8 38 37 38 38 38 39 38 00
 4.021450 1  18F156F3x       Rx   d 8 00 00 00 00 00 00 00 00
 4.022391 1  18F157F3x       Rx   d 8 00 00 00 00 00 00 00 00
 4.023044 1  18F100D0x       Rx   d 8 0C FF FF FF FF FF FF FF
 4.023607 1  18F158F3x       Rx   d 8 00 00 00 00 00 00 00 00
 4.024450 1  18F159F3x       Rx   d 8 00 00 00 00 00 00 00 00
 4.025445 1  18F15AF3x       Rx   d 8 00 00 00 00 00 00 00 00
 4.026217 1  18F15BF3x       Rx   d 7 00 00 00 00 00 00 00
 4.027113 1  18F15CF3x       Rx   d 8 00 00 00 00 00 00 00 00
 4.027973 1  18F15DF3x       Rx   d 8 00 00 00 00 00 00 00 00
 4.028777 1  18F15EF3x       Rx   d 8 00 00 00 00 00 00 00 00
 4.030809 1  CFF21CAx        Rx   d 8 29 00 6F 17 3F 3C 00 24
 4.032983 1  18FF2112x       Rx   d 8 01 00 00 00 00 00 00 00
 4.034459 1  18FECACAx       Rx   d 8 00 00 00 00 00 00 FF FF
 4.042458 1  CFF21CAx        Rx   d 8 29 00 6D 17 3F 3C 00 24
 4.046941 1  18F100D0x       Rx   d 8 0C FF FF FF FF FF FF FF
 4.054536 1  CFF21CAx        Rx   d 8 29 00 6D 17 3F 3C 00 24
 4.066576 1  CFF21CAx        Rx   d 8 29 00 6F 17 3F 3C 00 24
 4.074615 1  18F100D0x       Rx   d 8 0C FF FF FF FF FF FF FF
 4.079084 1  CFF21CAx        Rx   d 8 28 00 71 17 3F 3C 00 24
 4.090771 1  CFF21CAx        Rx   d 8 28 00 72 17 3F 3C 00 24
 4.098986 1  18F100D0x       Rx   d 8 0C FF FF FF FF FF FF FF
 4.102939 1  CFF21CAx        Rx   d 8 28 00 6D 17 3F 3C 00 24
 4.124086 1  18F100F3x       Rx   d 8 03 37 7D D4 F3 FA 14 00
 4.124217 1  18F102F3x       Rx   d 8 10 15 10 0E 10 0C 00 07
 4.124323 1  CFF21CAx        Rx   d 8 28 00 73 17 3F 3C 00 24
 4.124425 1  18F106F3x       Rx   d 8 45 E0 FC FF FF FF FF FF
 4.124528 1  18F107F3x       Rx   d 8 38 A4 27 10 01 72 00 00
 4.124630 1  18F108F3x       Rx   d 8 00 00 00 00 00 00 00 00
 4.124731 1  18F155F3x       Rx   d 8 38 37 38 38 38 39 38 00
 4.124836 1  18F156F3x       Rx   d 8 00 00 00 00 00 00 00 00
 4.124939 1  18F157F3x       Rx   d 8 00 00 00 00 00 00 00 00
 4.125090 1  18F158F3x       Rx   d 8 00 00 00 00 00 00 00 00
 4.125209 1  18F100D0x       Rx   d 8 0C FF FF FF FF FF FF FF
 4.125311 1  18F159F3x       Rx   d 8 00 00 00 00 00 00 00 00
 4.125413 1  18F15AF3x       Rx   d 8 00 00 00 00 00 00 00 00
 4.125506 1  18F15BF3x       Rx   d 7 00 00 00 00 00 00 00
 4.126439 1  18F15CF3x       Rx   d 8 00 00 00 00 00 00 00 00
 4.127214 1  CFF21CAx        Rx   d 8 28 00 6D 17 3F 3C 00 24
 4.127773 1  18F15DF3x       Rx   d 8 00 00 00 00 00 00 00 00
 4.128646 1  18F15EF3x       Rx   d 8 00 00 00 00 00 00 00 00
 4.130178 1  18FF2112x       Rx   d 8 01 00 00 00 00 00 00 00
 4.138814 1  CFF21CAx        Rx   d 8 27 00 6B 17 3F 3C 00 24
 4.146874 1  18F100D0x       Rx   d 8 0C FF FF FF FF FF FF FF
 4.150855 1  CFF21CAx        Rx   d 8 27 00 68 17 3F 3C 00 24
 4.162889 1  CFF21CAx        Rx   d 8 28 00 61 17 3F 3C 00 24
 4.170954 1  18F100D0x       Rx   d 8 0C FF FF FF FF FF FF FF
 4.175464 1  CFF21CAx        Rx   d 8 28 00 64 17 3F 3C 00 24
 4.187099 1  CFF21CAx        Rx   d 8 28 00 5E 17 3F 3C 00 24
 4.199117 1  CFF21CAx        Rx   d 8 28 00 63 17 3F 3C 00 24
 4.199649 1  18F100D0x       Rx   d 8 0C FF FF FF FF FF FF FF
 4.211222 1  CFF21CAx        Rx   d 8 28 00 60 17 3F 3C 00 24
 4.213768 1  18F100F3x       Rx   d 8 03 37 7D C3 F3 FA 14 00
 4.214741 1  18F102F3x       Rx   d 8 10 15 10 0E 10 0C 00 07
 4.215945 1  18F106F3x       Rx   d 8 45 E0 FC FF FF FF FF FF
 4.217216 1  18F107F3x       Rx   d 8 38 A4 27 10 01 72 00 00
 4.218977 1  18F108F3x       Rx   d 8 00 00 00 00 00 00 00 00
 4.219850 1  18F155F3x       Rx   d 8 38 37 38 38 38 39 38 00
 4.220895 1  18F156F3x       Rx   d 8 00 00 00 00 00 00 00 00
 4.221736 1  18F157F3x       Rx   d 8 00 00 00 00 00 00 00 00
 4.222656 1  18F158F3x       Rx   d 8 00 00 00 00 00 00 00 00
 4.223225 1  CFF21CAx        Rx   d 8 28 00 66 17 3F 3C 00 24
 4.223825 1  18F100D0x       Rx   d 8 0C FF FF FF FF FF FF FF
 4.224365 1  18F159F3x       Rx   d 8 00 00 00 00 00 00 00 00
 4.225222 1  18F15AF3x       Rx   d 8 00 00 00 00 00 00 00 00
 4.226071 1  18F15BF3x       Rx   d 7 00 00 00 00 00 00 00
 4.226922 1  18F15CF3x       Rx   d 8 00 00 00 00 00 00 00 00
 4.227493 1  18FF2112x       Rx   d 8 01 00 00 00 00 00 00 00
 4.228188 1  18F15DF3x       Rx   d 8 00 00 00 00 00 00 00 00
 4.228896 1  18F15EF3x       Rx   d 8 00 00 00 00 00 00 00 00
 4.235213 1  CFF21CAx        Rx   d 8 29 00 64 17 3F 3C 00 24
 4.247308 1  CFF21CAx        Rx   d 8 29 00 67 17 3F 3C 00 24
 4.247836 1  18F100D0x       Rx   d 8 0C FF FF FF FF FF FF FF
 4.259422 1  CFF21CAx        Rx   d 8 2A 00 6A 17 3F 3C 00 24
 4.271384 1  CFF21CAx        Rx   d 8 2A 00 6C 17 3F 3C 00 24
 4.275415 1  18F100D0x       Rx   d 8 0C FF FF FF FF FF FF FF
 4.283447 1  CFF21CAx        Rx   d 8 2A 00 70 17 3F 3C 00 24
 4.295677 1  CFF21CAx        Rx   d 8 2A 00 6B 17 3F 3C 00 24
 4.299650 1  18F100D0x       Rx   d 8 0C FF FF FF FF FF FF FF
 4.308421 1  CFF21CAx        Rx   d 8 2A 00 6A 17 3F 3C 00 24
 4.313808 1  18F100F3x       Rx   d 8 03 37 7D C3 F3 FA 14 00
 4.314671 1  18F102F3x       Rx   d 8 10 15 10 0E 10 0C 00 07
 4.315898 1  18F106F3x       Rx   d 8 45 E0 FC FF FF FF FF FF
 4.317146 1  18F107F3x       Rx   d 8 38 A4 27 10 01 72 00 00
 4.318927 1  18F108F3x       Rx   d 8 00 00 00 00 00 00 00 00
 4.319805 1  18F155F3x       Rx   d 8 38 37 38 38 38 39 38 00
 4.320356 1  CFF21CAx        Rx   d 8 2A 00 68 17 3F 3C 00 24
 4.320940 1  18F156F3x       Rx   d 8 00 00 00 00 00 00 00 00
 4.321816 1  18F157F3x       Rx   d 8 00 00 00 00 00 00 00 00
 4.322691 1  18F158F3x       Rx   d 8 00 00 00 00 00 00 00 00
 4.323540 1  18F100D0x       Rx   d 8 0C FF FF FF FF FF FF FF
 4.324115 1  18F159F3x       Rx   d 8 00 00 00 00 00 00 00 00
 4.324734 1  18FF2112x       Rx   d 8 01 00 00 00 00 00 00 00
 4.325316 1  18F15AF3x       Rx   d 8 00 00 00 00 00 00 00 00
 4.326260 1  18F15BF3x       Rx   d 7 00 00 00 00 00 00 00
 4.327140 1  18F15CF3x       Rx   d 8 00 00 00 00 00 00 00 00
 4.327899 1  18F15DF3x       Rx   d 8 00 00 00 00 00 00 00 00
 4.328684 1  18F15EF3x       Rx   d 8 00 00 00 00 00 00 00 00
 4.342620 1  CFF21CAx        Rx   d 8 2A 00 66 17 3F 3C 00 24
 4.343761 1  CFF21CAx        Rx   d 8 2A 00 64 17 3F 3C 00 24
 4.347678 1  18F100D0x       Rx   d 8 0C FF FF FF FF FF FF FF
 4.355693 1  CFF21CAx        Rx   d 8 2A 00 62 17 3F 3C 00 24
 4.367799 1  CFF21CAx        Rx   d 8 2A 00 61 17 3F 3C 00 24
 4.371779 1  18F100D0x       Rx   d 8 0C FF FF FF FF FF FF FF
 4.379782 1  CFF21CAx        Rx   d 8 2A 00 5F 17 3F 3C 00 24
 4.391864 1  CFF21CAx        Rx   d 8 2A 00 5F 17 3F 3C 00 24
 4.395852 1  18F100D0x       Rx   d 8 0C FF FF FF FF FF FF FF
 4.404290 1  CFF21CAx        Rx   d 8 2B 00 61 17 3F 3C 00 24
 4.413783 1  18F100F3x       Rx   d 8 03 37 7D CA F3 FA 14 00
 4.414671 1  18F102F3x       Rx   d 8 10 15 10 0E 10 0C 00 07
 4.415942 1  18F106F3x       Rx   d 8 45 E0 FC FF FF FF FF FF
 4.416509 1  CFF21CAx        Rx   d 8 2B 00 61 17 3F 3C 00 24
 4.417218 1  18F107F3x       Rx   d 8 38 A4 27 10 01 72 00 00
 4.418971 1  18F108F3x       Rx   d 8 00 00 00 00 00 00 00 00
 4.419851 1  18F155F3x       Rx   d 8 38 37 38 38 38 39 38 00
 4.420405 1  18F100D0x       Rx   d 8 0C FF FF FF FF FF FF FF
 4.421088 1  18F156F3x       Rx   d 8 00 00 00 00 00 00 00 00
 4.421890 1  18F157F3x       Rx   d 8 00 00 00 00 00 00 00 00
 4.422463 1  18FF2112x       Rx   d 8 01 00 00 00 00 00 00 00
 4.423071 1  18F158F3x       Rx   d 8 00 00 00 00 00 00 00 00
 4.423934 1  18F159F3x       Rx   d 8 00 00 00 00 00 00 00 00
 4.424809 1  18F15AF3x       Rx   d 8 00 00 00 00 00 00 00 00
 4.425624 1  18F15BF3x       Rx   d 7 00 00 00 00 00 00 00
 4.426563 1  18F15CF3x       Rx   d 8 00 00 00 00 00 00 00 00
 4.427458 1  18F15DF3x       Rx   d 8 00 00 00 00 00 00 00 00
 4.427996 1  CFF21CAx        Rx   d 8 2B 00 5E 17 3F 3C 00 24
 4.428547 1  18F15EF3x       Rx   d 8 00 00 00 00 00 00 00 00
 4.440134 1  CFF21CAx        Rx   d 8 2B 00 66 17 3F 3C 00 24
 4.444070 1  18F100D0x       Rx   d 8 0C FF FF FF FF FF FF FF
 4.452515 1  CFF21CAx        Rx   d 8 2B 00 66 17 3F 3C 00 24
 4.464149 1  CFF21CAx        Rx   d 8 2C 00 6B 17 3F 3C 00 24
 4.472198 1  18F100D0x       Rx   d 8 0C FF FF FF FF FF FF FF
 4.476229 1  CFF21CAx        Rx   d 8 2C 00 68 17 3F 3C 00 24
 4.488265 1  18F104F3x       Rx   d 8 39 37 06 02 02 FF FF FF
 4.488772 1  CFF21CAx        Rx   d 8 2C 00 69 17 3F 3C 00 24
 4.489335 1  18F113F3x       Rx   d 8 10 11 10 11 10 11 10 11
 4.490587 1  18F114F3x       Rx   d 8 10 0F 10 0F 10 12 10 12
 4.491482 1  18F115F3x       Rx   d 8 10 0F 10 0F 10 0F 10 0E
 4.492436 1  18F116F3x       Rx   d 8 10 14 10 11 10 13 10 15
 4.493354 1  18F117F3x       Rx   d 8 10 11 10 12 10 14 10 14
 4.494250 1  18F118F3x       Rx   d 8 00 00 00 00 00 00 00 00
 4.495207 1  18F119F3x       Rx   d 8 00 00 00 00 00 00 00 00
 4.496167 1  18F11AF3x       Rx   d 8 00 00 00 00 00 00 00 00
 4.496678 1  18F100D0x       Rx   d 8 0C FF FF FF FF FF FF FF
 4.497257 1  18F11BF3x       Rx   d 8 00 00 00 00 00 00 00 00
 4.498189 1  18F11CF3x       Rx   d 8 00 00 00 00 00 00 00 00
 4.499097 1  18F11DF3x       Rx   d 8 00 00 00 00 00 00 00 00
 4.500130 1  18F11EF3x       Rx   d 8 00 00 00 00 00 00 00 00
 4.500658 1  CFF21CAx        Rx   d 8 2C 00 69 17 3F 3C 00 24
 4.501233 1  18F11FF3x       Rx   d 8 00 00 00 00 00 00 00 00
 4.502187 1  18F120F3x       Rx   d 8 00 00 00 00 00 00 00 00
 4.503125 1  18F121F3x       Rx   d 8 00 00 00 00 00 00 00 00
 4.503963 1  18F122F3x       Rx   d 8 00 00 00 00 00 00 00 00
 4.504875 1  18F123F3x       Rx   d 8 00 00 00 00 00 00 00 00
 4.505702 1  18F124F3x       Rx   d 8 00 00 00 00 00 00 00 00
 4.506636 1  18F125F3x       Rx   d 8 00 00 00 00 00 00 00 00
 4.507621 1  18F126F3x       Rx   d 8 00 00 00 00 00 00 00 00
 4.508564 1  18F127F3x       Rx   d 8 00 00 00 00 00 00 00 00
 4.509614 1  18F128F3x       Rx   d 8 00 00 00 00 00 00 00 00
 4.510751 1  18F129F3x       Rx   d 8 00 00 00 00 00 00 00 00
 4.511694 1  18F12AF3x       Rx   d 8 00 00 00 00 00 00 00 00
 4.512276 1  CFF21CAx        Rx   d 8 2C 00 67 17 3F 3C 00 24
 4.512867 1  18F12BF3x       Rx   d 8 00 00 00 00 00 00 00 00
 4.513822 1  18F100F3x       Rx   d 8 03 37 7D CA F3 FA 14 00
 4.514382 1  18F102F3x       Rx   d 8 10 15 10 0E 10 0C 00 07
 4.515756 1  18F106F3x       Rx   d 8 45 E0 FC FF FF FF FF FF
 4.517079 1  18F107F3x       Rx   d 8 38 A4 27 10 01 72 00 00
 4.518832 1  18F108F3x       Rx   d 8 00 00 00 00 00 00 00 00
 4.519434 1  18FF2112x       Rx   d 8 01 00 00 00 00 00 00 00
 4.520054 1  18F12CF3x       Rx   d 8 00 00 00 00 00 00 00 00
 4.520795 1  18F100D0x       Rx   d 8 0C FF FF FF FF FF FF FF
 4.521350 1  18F12DF3x       Rx   d 8 00 00 00 00 00 00 00 00
 4.522275 1  18F12EF3x       Rx   d 8 00 00 00 00 00 00 00 00
 4.523173 1  18F12FF3x       Rx   d 8 00 00 00 00 00 00 00 00
 4.524107 1  18F130F3x       Rx   d 8 00 00 00 00 00 00 00 00
 4.524792 1  CFF21CAx        Rx   d 8 2C 00 6D 17 3F 3C 00 24
 4.525370 1  18F131F3x       Rx   d 8 00 00 00 00 00 00 00 00
 4.526295 1  18F132F3x       Rx   d 8 00 00 00 00 00 00 00 00
 4.527160 1  18F133F3x       Rx   d 8 00 00 00 00 00 00 00 00
 4.528112 1  18F134F3x       Rx   d 8 00 00 00 00 00 00 00 00
 4.528926 1  18F135F3x       Rx   d 8 00 00 00 00 00 00 00 00
 4.529801 1  18F136F3x       Rx   d 8 00 00 00 00 00 00 00 00
 4.530889 1  18F137F3x       Rx   d 8 00 00 00 00 00 00 00 00
 4.531730 1  18F138F3x       Rx   d 8 00 00 00 00 00 00 00 00
 4.532723 1  18F139F3x       Rx   d 8 00 00 00 00 00 00 00 00
 4.533615 1  18F13AF3x       Rx   d 8 00 00 00 00 00 00 00 00
 4.534541 1  18F13BF3x       Rx   d 8 00 00 00 00 00 00 00 00
 4.535429 1  18F13CF3x       Rx   d 8 00 00 00 00 00 00 00 00
 4.536300 1  18F155F3x       Rx   d 8 38 37 38 38 38 39 38 00
 4.536787 1  CFF21CAx        Rx   d 8 2C 00 6C 17 3F 3C 00 24
 4.537369 1  18F156F3x       Rx   d 8 00 00 00 00 00 00 00 00
 4.538259 1  18F157F3x       Rx   d 8 00 00 00 00 00 00 00 00
 4.539219 1  18F158F3x       Rx   d 8 00 00 00 00 00 00 00 00
 4.540109 1  18F159F3x       Rx   d 8 00 00 00 00 00 00 00 00
 4.540890 1  18F15AF3x       Rx   d 8 00 00 00 00 00 00 00 00
 4.541842 1  18F15BF3x       Rx   d 7 00 00 00 00 00 00 00
 4.542768 1  18F15CF3x       Rx   d 8 00 00 00 00 00 00 00 00
 4.543658 1  18F15DF3x       Rx   d 8 00 00 00 00 00 00 00 00
 4.544550 1  18F15EF3x       Rx   d 8 00 00 00 00 00 00 00 00
 4.561191 1  CFF21CAx        Rx   d 8 2A 00 6D 17 3F 3C 00 24
 4.561308 1  18F100D0x       Rx   d 8 0C FF FF FF FF FF FF FF
 4.561409 1  CFF21CAx        Rx   d 8 2A 00 6D 17 3F 3C 00 24
 4.572992 1  CFF21CAx        Rx   d 8 2A 00 6E 17 3F 3C 00 24
 4.573551 1  18F100D0x       Rx   d 8 0C FF FF FF FF FF FF FF
 4.584693 1  CFF21CAx        Rx   d 8 2A 00 6B 17 3F 3C 00 24
 4.597200 1  CFF21CAx        Rx   d 8 2A 00 6D 17 3F 3C 00 24
 4.597688 1  18F100D0x       Rx   d 8 0C FF FF FF FF FF FF FF
 4.608817 1  CFF21CAx        Rx   d 8 2A 00 6D 17 3F 3C 00 24
 4.613785 1  18F100F3x       Rx   d 8 03 37 7D CA F3 FA 14 00
 4.614642 1  18F102F3x       Rx   d 8 10 15 10 0E 10 0C 00 07
 4.616049 1  18F106F3x       Rx   d 8 45 E0 FC FF FF FF FF FF
 4.616580 1  18FF2112x       Rx   d 8 01 00 00 00 00 00 00 00
 4.617370 1  18F107F3x       Rx   d 8 38 A4 27 10 01 72 00 00
 4.619141 1  18F108F3x       Rx   d 8 00 00 00 00 00 00 00 00
 4.619993 1  18F155F3x       Rx   d 8 38 37 38 38 38 39 38 00
 4.620856 1  18F156F3x       Rx   d 8 00 00 00 00 00 00 00 00
 4.621491 1  CFF21CAx        Rx   d 8 29 00 69 17 3F 3C 00 24
 4.622072 1  18F100D0x       Rx   d 8 0C FF FF FF FF FF FF FF
 4.622648 1  18F157F3x       Rx   d 8 00 00 00 00 00 00 00 00
 4.623570 1  18F158F3x       Rx   d 8 00 00 00 00 00 00 00 00
 4.624451 1  18F159F3x       Rx   d 8 00 00 00 00 00 00 00 00
 4.625414 1  18F15AF3x       Rx   d 8 00 00 00 00 00 00 00 00
 4.626213 1  18F15BF3x       Rx   d 7 00 00 00 00 00 00 00
 4.627084 1  18F15CF3x       Rx   d 8 00 00 00 00 00 00 00 00
 4.627905 1  18F15DF3x       Rx   d 8 00 00 00 00 00 00 00 00
 4.628739 1  18F15EF3x       Rx   d 8 00 00 00 00 00 00 00 00
 4.632826 1  CFF21CAx        Rx   d 8 29 00 66 17 3F 3C 00 24
 4.645633 1  CFF21CAx        Rx   d 8 2A 00 63 17 3F 3C 00 24
 4.646080 1  18F100D0x       Rx   d 8 0C FF FF FF FF FF FF FF
 4.656971 1  CFF21CAx        Rx   d 8 2A 00 61 17 3F 3C 00 24
 4.669556 1  CFF21CAx        Rx   d 8 2A 00 5D 17 3F 3C 00 24
 4.670170 1  18F100D0x       Rx   d 8 0C FF FF FF FF FF FF FF
 4.681118 1  CFF21CAx        Rx   d 8 2B 00 5D 17 3F 3C 00 24
 4.693596 1  CFF21CAx        Rx   d 8 2B 00 61 17 3F 3C 00 24
 4.694125 1  18F100D0x       Rx   d 8 0C FF FF FF FF FF FF FF
 4.705090 1  CFF21CAx        Rx   d 8 2D 00 5E 17 3F 3C 00 24
 4.719417 1  18F100F3x       Rx   d 8 03 37 7D CC F3 FA 14 00
 4.719566 1  18FF2112x       Rx   d 8 01 00 00 00 00 00 00 00
 4.719675 1  18F102F3x       Rx   d 8 10 15 10 0D 10 0C 00 08
 4.719786 1  18F106F3x       Rx   d 8 45 E0 FC FF FF FF FF FF
 4.719887 1  18F107F3x       Rx   d 8 38 A4 27 10 01 72 00 00
 4.720014 1  CFF21CAx        Rx   d 8 2D 00 62 17 3F 3C 00 24
 4.720116 1  18F108F3x       Rx   d 8 00 00 00 00 00 00 00 00
 4.720227 1  18F155F3x       Rx   d 8 38 37 38 38 38 39 38 00
 4.721048 1  18F156F3x       Rx   d 8 00 00 00 00 00 00 00 00
 4.721526 1  18F100D0x       Rx   d 8 0C FF FF FF FF FF FF FF
 4.722114 1  18F157F3x       Rx   d 8 00 00 00 00 00 00 00 00
 4.723076 1  18F158F3x       Rx   d 8 00 00 00 00 00 00 00 00
 4.723889 1  18F159F3x       Rx   d 8 00 00 00 00 00 00 00 00
 4.724769 1  18F15AF3x       Rx   d 8 00 00 00 00 00 00 00 00
 4.725668 1  18F15BF3x       Rx   d 7 00 00 00 00 00 00 00
 4.726525 1  18F15CF3x       Rx   d 8 00 00 00 00 00 00 00 00
 4.727430 1  18F15DF3x       Rx   d 8 00 00 00 00 00 00 00 00
 4.728331 1  18F15EF3x       Rx   d 8 00 00 00 00 00 00 00 00
 4.729194 1  CFF21CAx        Rx   d 8 2D 00 64 17 3F 3C 00 24
 4.741697 1  CFF21CAx        Rx   d 8 2D 00 67 17 3F 3C 00 24
 4.745311 1  18F100D0x       Rx   d 8 0C FF FF FF FF FF FF FF
 4.753317 1  CFF21CAx        Rx   d 8 2D 00 67 17 3F 3C 00 24
 4.765874 1  CFF21CAx        Rx   d 8 2D 00 6B 17 3F 3C 00 24
 4.778218 1  18F100D0x       Rx   d 8 0C FF FF FF FF FF FF FF
 4.778352 1  CFF21CAx        Rx   d 8 2D 00 6B 17 3F 3C 00 24
 4.789904 1  CFF21CAx        Rx   d 8 2B 00 6A 17 3F 3C 00 24
 4.793450 1  18F100D0x       Rx   d 8 0C FF FF FF FF FF FF FF
 4.801512 1  CFF21CAx        Rx   d 8 2B 00 69 17 3F 3C 00 24
 4.811221 1  18FF2112x       Rx   d 8 01 00 00 00 00 00 00 00
 4.813793 1  18F100F3x       Rx   d 8 03 37 7D CC F3 FA 14 00
 4.814330 1  CFF21CAx        Rx   d 8 2B 00 68 17 3F 3C 00 24
 4.814939 1  18F102F3x       Rx   d 8 10 15 10 0D 10 0C 00 08
 4.816134 1  18F106F3x       Rx   d 8 45 E0 FC FF FF FF FF FF
 4.817426 1  18F107F3x       Rx   d 8 38 A4 27 10 01 72 00 00
 4.819205 1  18F108F3x       Rx   d 8 00 00 00 00 00 00 00 00
 4.820105 1  18F155F3x       Rx   d 8 38 37 38 38 38 39 38 00
 4.820968 1  18F156F3x       Rx   d 8 00 00 00 00 00 00 00 00
 4.821827 1  18F157F3x       Rx   d 8 00 00 00 00 00 00 00 00
 4.822438 1  18F100D0x       Rx   d 8 0C FF FF FF FF FF FF FF
 4.823069 1  18F158F3x       Rx   d 8 00 00 00 00 00 00 00 00
 4.823892 1  18F159F3x       Rx   d 8 00 00 00 00 00 00 00 00
 4.824747 1  18F15AF3x       Rx   d 8 00 00 00 00 00 00 00 00
 4.825579 1  CFF21CAx        Rx   d 8 2B 00 64 17 3F 3C 00 24
 4.826100 1  18F15BF3x       Rx   d 7 00 00 00 00 00 00 00
 4.827081 1  18F15CF3x       Rx   d 8 00 00 00 00 00 00 00 00
 4.827834 1  18F15DF3x       Rx   d 8 00 00 00 00 00 00 00 00
 4.828685 1  18F15EF3x       Rx   d 8 00 00 00 00 00 00 00 00
 4.838272 1  CFF21CAx        Rx   d 8 2B 00 66 17 3F 3C 00 24
 4.846170 1  18F100D0x       Rx   d 8 0C FF FF FF FF FF FF FF
 4.849701 1  CFF21CAx        Rx   d 8 2A 00 66 17 3F 3C 00 24
 4.862208 1  CFF21CAx        Rx   d 8 2A 00 66 17 3F 3C 00 24
 4.870418 1  18F100D0x       Rx   d 8 0C FF FF FF FF FF FF FF
 4.873779 1  CFF21CAx        Rx   d 8 29 00 6B 17 3F 3C 00 24
 4.886334 1  CFF21CAx        Rx   d 8 29 00 68 17 3F 3C 00 24
 4.894401 1  18F100D0x       Rx   d 8 0C FF FF FF FF FF FF FF
 4.898067 1  CFF21CAx        Rx   d 8 29 00 6C 17 3F 3C 00 24
