date Sat May 09 06:33:52.375 2026
base hex  timestamps absolute
internal events logged
Begin Triggerblock Sat May 09 06:33:52.381 2026
 0.000000 Start of measurement
 0.000000 1  18F100D0x       Rx   d 8 0C FF FF FF FF FF FF FF
 0.000172 1  CFF21CAx        Rx   d 8 1F 00 39 16 3A 35 00 14
 0.000267 1  CFF21CAx        Rx   d 8 1F 00 3D 16 3A 35 00 14
 0.003067 1  18F100D0x       Rx   d 8 0C FF FF FF FF FF FF FF
 0.007493 1  CFF21CAx        Rx   d 8 1F 00 38 16 3A 35 00 14
 0.010251 1  18F100F3x       Rx   d 8 03 40 7D 70 FA FA 14 00
 0.011140 1  18F102F3x       Rx   d 8 10 45 10 3E 10 0C 00 07
 0.012712 1  18F106F3x       Rx   d 8 45 E0 FC FF FF FF FF FF
 0.014017 1  18F107F3x       Rx   d 8 38 A4 27 10 01 76 00 00
 0.015762 1  18F108F3x       Rx   d 8 10 00 04 00 00 00 00 01
 0.016624 1  18F155F3x       Rx   d 8 38 38 39 39 39 3A 39 00
 0.017539 1  18F156F3x       Rx   d 8 00 00 00 00 00 00 00 00
 0.018426 1  18F157F3x       Rx   d 8 00 00 00 00 00 00 00 00
 0.019137 1  CFF21CAx        Rx   d 8 1F 00 3D 16 3A 35 00 14
 0.019700 1  18F158F3x       Rx   d 8 00 00 00 00 00 00 00 00
 0.020604 1  18F159F3x       Rx   d 8 00 00 00 00 00 00 00 00
 0.021487 1  18F15AF3x       Rx   d 8 00 00 00 00 00 00 00 00
 0.022315 1  18F15BF3x       Rx   d 7 00 00 00 00 00 00 00
 0.023154 1  18F15CF3x       Rx   d 8 00 00 00 00 00 00 00 00
 0.024053 1  18F15DF3x       Rx   d 8 00 00 00 00 00 00 00 00
 0.024783 1  18FF2112x       Rx   d 8 01 00 00 00 00 00 00 00
 0.025336 1  18F15EF3x       Rx   d 8 00 00 00 00 00 00 00 00
 0.027187 1  18F100D0x       Rx   d 8 0C FF FF FF FF FF FF FF
 0.031599 1  CFF21CAx        Rx   d 8 1F 00 39 16 3A 35 00 14
 0.043233 1  CFF21CAx        Rx   d 8 1F 00 38 16 3A 35 00 14
 0.051278 1  18F100D0x       Rx   d 8 0C FF FF FF FF FF FF FF
 0.055781 1  CFF21CAx        Rx   d 8 1F 00 39 16 3A 35 00 14
 0.067294 1  CFF21CAx        Rx   d 8 1F 00 38 16 3A 35 00 14
 0.075357 1  18F100D0x       Rx   d 8 0C FF FF FF FF FF FF FF
 0.079996 1  CFF21CAx        Rx   d 8 1E 00 3A 16 3A 35 00 14
 0.091462 1  CFF21CAx        Rx   d 8 1E 00 3A 16 3A 35 00 14
 0.099521 1  18F100D0x       Rx   d 8 0C FF FF FF FF FF FF FF
 0.103984 1  CFF21CAx        Rx   d 8 1E 00 3B 16 3A 35 00 14
 0.110298 1  18F100F3x       Rx   d 8 03 40 7D 71 FA FA 14 00
 0.111141 1  18F102F3x       Rx   d 8 10 45 10 3E 10 0C 00 07
 0.112722 1  18F106F3x       Rx   d 8 45 E0 FC FF FF FF FF FF
 0.114049 1  18F107F3x       Rx   d 8 38 A4 27 10 01 76 00 00
 0.115778 1  18F108F3x       Rx   d 8 10 00 04 00 00 00 00 01
 0.116351 1  CFF21CAx        Rx   d 8 1E 00 39 16 3A 35 00 14
 0.116873 1  18F155F3x       Rx   d 8 38 38 39 39 39 3A 39 00
 0.117797 1  18F156F3x       Rx   d 8 00 00 00 00 00 00 00 00
 0.118676 1  18F157F3x       Rx   d 8 00 00 00 00 00 00 00 00
 0.119537 1  18F158F3x       Rx   d 8 00 00 00 00 00 00 00 00
 0.120447 1  18F159F3x       Rx   d 8 00 00 00 00 00 00 00 00
 0.121292 1  18F15AF3x       Rx   d 8 00 00 00 00 00 00 00 00
 0.122093 1  18FF2112x       Rx   d 8 01 00 00 00 00 00 00 00
 0.122617 1  18F15BF3x       Rx   d 7 00 00 00 00 00 00 00
 0.123490 1  18F15CF3x       Rx   d 8 00 00 00 00 00 00 00 00
 0.124040 1  18F100D0x       Rx   d 8 0C FF FF FF FF FF FF FF
 0.124613 1  18F15DF3x       Rx   d 8 00 00 00 00 00 00 00 00
 0.125470 1  18F15EF3x       Rx   d 8 00 00 00 00 00 00 00 00
 0.128027 1  CFF21CAx        Rx   d 8 1E 00 3B 16 3A 35 00 14
 0.139799 1  CFF21CAx        Rx   d 8 1E 00 39 16 3A 35 00 14
 0.152197 1  CFF21CAx        Rx   d 8 1E 00 3B 16 3A 35 00 14
 0.152756 1  18F100D0x       Rx   d 8 0C FF FF FF FF FF FF FF
 0.163857 1  CFF21CAx        Rx   d 8 1E 00 3A 16 3A 35 00 14
 0.176400 1  CFF21CAx        Rx   d 8 1F 00 3A 16 3A 35 00 14
 0.176980 1  18F100D0x       Rx   d 8 0C FF FF FF FF FF FF FF
 0.188045 1  CFF21CAx        Rx   d 8 1F 00 39 16 3A 35 00 14
 0.200368 1  CFF21CAx        Rx   d 8 1F 00 3A 16 3A 35 00 14
 0.200965 1  18F100D0x       Rx   d 8 0C FF FF FF FF FF FF FF
 0.213829 1  18F100F3x       Rx   d 8 03 40 7D 71 FA FA 14 00
 0.213973 1  18F102F3x       Rx   d 8 10 45 10 3E 10 0C 00 07
 0.214124 1  CFF21CAx        Rx   d 8 1E 00 3A 16 3A 35 00 14
 0.214244 1  18F106F3x       Rx   d 8 45 E0 FC FF FF FF FF FF
 0.214354 1  18F107F3x       Rx   d 8 38 A4 27 10 01 76 00 00
 0.216078 1  18F108F3x       Rx   d 8 10 00 04 00 00 00 00 01
 0.216990 1  18F155F3x       Rx   d 8 38 38 39 39 39 3A 39 00
 0.218007 1  18F156F3x       Rx   d 8 00 00 00 00 00 00 00 00
 0.218819 1  18F157F3x       Rx   d 8 00 00 00 00 00 00 00 00
 0.219384 1  18FF2112x       Rx   d 8 01 00 00 00 00 00 00 00
 0.219975 1  18F158F3x       Rx   d 8 00 00 00 00 00 00 00 00
 0.220857 1  18F159F3x       Rx   d 8 00 00 00 00 00 00 00 00
 0.221737 1  18F15AF3x       Rx   d 8 00 00 00 00 00 00 00 00
 0.222610 1  18F15BF3x       Rx   d 7 00 00 00 00 00 00 00
 0.223405 1  18F15CF3x       Rx   d 8 00 00 00 00 00 00 00 00
 0.224223 1  18F15DF3x       Rx   d 8 00 00 00 00 00 00 00 00
 0.224802 1  CFF21CAx        Rx   d 8 1E 00 39 16 3A 35 00 14
 0.225352 1  18F100D0x       Rx   d 8 0C FF FF FF FF FF FF FF
 0.225943 1  18F15EF3x       Rx   d 8 00 00 00 00 00 00 00 00
 0.236074 1  CFF21CAx        Rx   d 8 1F 00 36 16 3A 35 00 14
 0.248612 1  CFF21CAx        Rx   d 8 1F 00 3A 16 3A 35 00 14
 0.249118 1  18F100D0x       Rx   d 8 0C FF FF FF FF FF FF FF
 0.260161 1  CFF21CAx        Rx   d 8 1F 00 37 16 3A 35 00 14
 0.272805 1  CFF21CAx        Rx   d 8 1F 00 3B 16 3A 35 00 14
 0.273340 1  18F100D0x       Rx   d 8 0C FF FF FF FF FF FF FF
 0.284341 1  CFF21CAx        Rx   d 8 1F 00 36 16 3A 35 00 14
 0.296860 1  CFF21CAx        Rx   d 8 1F 00 38 16 3A 35 00 14
 0.300292 1  18F100D0x       Rx   d 8 0C FF FF FF FF FF FF FF
 0.308334 1  CFF21CAx        Rx   d 8 1F 00 3A 16 3A 35 00 14
 0.310428 1  18F100F3x       Rx   d 8 03 40 7D 71 FA FA 14 00
 0.311125 1  18F102F3x       Rx   d 8 10 45 10 3E 10 0C 00 07
 0.312855 1  18F106F3x       Rx   d 8 45 E0 FC FF FF FF FF FF
 0.313991 1  18F107F3x       Rx   d 8 38 A4 27 10 01 76 00 00
 0.316114 1  18F108F3x       Rx   d 8 10 00 04 00 00 00 00 01
 0.316717 1  18FF2112x       Rx   d 8 01 00 00 00 00 00 00 00
 0.317251 1  18F155F3x       Rx   d 8 38 38 39 39 39 3A 39 00
 0.318298 1  18F156F3x       Rx   d 8 00 00 00 00 00 00 00 00
 0.319072 1  18F157F3x       Rx   d 8 00 00 00 00 00 00 00 00
 0.320163 1  18F158F3x       Rx   d 8 00 00 00 00 00 00 00 00
 0.320894 1  CFF21CAx        Rx   d 8 1F 00 37 16 3A 35 00 14
 0.321480 1  18F159F3x       Rx   d 8 00 00 00 00 00 00 00 00
 0.322502 1  18F15AF3x       Rx   d 8 00 00 00 00 00 00 00 00
 0.323304 1  18F15BF3x       Rx   d 7 00 00 00 00 00 00 00
 0.324055 1  18F15CF3x       Rx   d 8 00 00 00 00 00 00 00 00
 0.324649 1  18F100D0x       Rx   d 8 0C FF FF FF FF FF FF FF
 0.325217 1  18F15DF3x       Rx   d 8 00 00 00 00 00 00 00 00
 0.326117 1  18F15EF3x       Rx   d 8 00 00 00 00 00 00 00 00
 0.332433 1  CFF21CAx        Rx   d 8 1E 00 39 16 3A 35 00 14
 0.344983 1  CFF21CAx        Rx   d 8 1E 00 37 16 3A 35 00 14
 0.348540 1  18F100D0x       Rx   d 8 0C FF FF FF FF FF FF FF
 0.356779 1  CFF21CAx        Rx   d 8 1E 00 39 16 3A 35 00 14
 0.369196 1  CFF21CAx        Rx   d 8 1E 00 39 16 3A 35 00 14
 0.372761 1  18F100D0x       Rx   d 8 0C FF FF FF FF FF FF FF
 0.380799 1  CFF21CAx        Rx   d 8 1E 00 39 16 3A 35 00 14
 0.393118 1  CFF21CAx        Rx   d 8 1E 00 3A 16 3A 35 00 14
 0.396852 1  18F100D0x       Rx   d 8 0C FF FF FF FF FF FF FF
 0.404874 1  CFF21CAx        Rx   d 8 1E 00 36 16 3A 35 00 14
 0.409898 1  18F104F3x       Rx   d 8 3A 38 06 01 02 FF FF FF
 0.410831 1  18F100F3x       Rx   d 8 03 40 7D 71 FA FA 14 00
 0.411596 1  18F102F3x       Rx   d 8 10 45 10 3E 10 0C 00 07
 0.413140 1  18F106F3x       Rx   d 8 45 E0 FC FF FF FF FF FF
 0.414024 1  18FF2112x       Rx   d 8 01 00 00 00 00 00 00 00
 0.414609 1  18F107F3x       Rx   d 8 38 A4 27 10 01 76 00 00
 0.416386 1  18F108F3x       Rx   d 8 10 00 04 00 00 00 00 01
 0.417336 1  CFF21CAx        Rx   d 8 1E 00 36 16 3A 35 00 14
 0.417895 1  18F113F3x       Rx   d 8 10 41 10 41 10 41 10 41
 0.418813 1  18F114F3x       Rx   d 8 10 40 10 3F 10 43 10 41
 0.419592 1  18F115F3x       Rx   d 8 10 3F 10 3F 10 3F 10 3E
 0.429285 1  18F116F3x       Rx   d 8 10 44 10 41 10 44 10 45
 0.429655 1  18F100D0x       Rx   d 8 0C FF FF FF FF FF FF FF
 0.429786 1  18F117F3x       Rx   d 8 10 41 10 41 10 45 10 44
 0.429912 1  18F118F3x       Rx   d 8 00 00 00 00 00 00 00 00
 0.430034 1  18F119F3x       Rx   d 8 00 00 00 00 00 00 00 00
 0.430170 1  18F11AF3x       Rx   d 8 00 00 00 00 00 00 00 00
 0.430361 1  18F11BF3x       Rx   d 8 00 00 00 00 00 00 00 00
 0.430487 1  18F11CF3x       Rx   d 8 00 00 00 00 00 00 00 00
 0.430603 1  18F11DF3x       Rx   d 8 00 00 00 00 00 00 00 00
 0.430720 1  18F11EF3x       Rx   d 8 00 00 00 00 00 00 00 00
 0.430834 1  CFF21CAx        Rx   d 8 1E 00 3C 16 3A 35 00 14
 0.430950 1  18F11FF3x       Rx   d 8 00 00 00 00 00 00 00 00
 0.431080 1  18F120F3x       Rx   d 8 00 00 00 00 00 00 00 00
 0.431267 1  18F121F3x       Rx   d 8 00 00 00 00 00 00 00 00
 0.432436 1  18F122F3x       Rx   d 8 00 00 00 00 00 00 00 00
 0.433349 1  18F123F3x       Rx   d 8 00 00 00 00 00 00 00 00
 0.434267 1  18F124F3x       Rx   d 8 00 00 00 00 00 00 00 00
 0.435227 1  18F125F3x       Rx   d 8 00 00 00 00 00 00 00 00
 0.436158 1  18F126F3x       Rx   d 8 00 00 00 00 00 00 00 00
 0.437141 1  18F127F3x       Rx   d 8 00 00 00 00 00 00 00 00
 0.438066 1  18F128F3x       Rx   d 8 00 00 00 00 00 00 00 00
 0.439022 1  18F129F3x       Rx   d 8 00 00 00 00 00 00 00 00
 0.440004 1  18F12AF3x       Rx   d 8 00 00 00 00 00 00 00 00
 0.440972 1  18F12BF3x       Rx   d 8 00 00 00 00 00 00 00 00
 0.441470 1  CFF21CAx        Rx   d 8 1F 00 3B 16 3A 35 00 14
 0.442122 1  18F12CF3x       Rx   d 8 00 00 00 00 00 00 00 00
 0.443103 1  18F12DF3x       Rx   d 8 00 00 00 00 00 00 00 00
 0.444048 1  18F12EF3x       Rx   d 8 00 00 00 00 00 00 00 00
 0.444959 1  18F100D0x       Rx   d 8 0C FF FF FF FF FF FF FF
 0.445500 1  18F12FF3x       Rx   d 8 00 00 00 00 00 00 00 00
 0.446397 1  18F130F3x       Rx   d 8 00 00 00 00 00 00 00 00
 0.447278 1  18F131F3x       Rx   d 8 00 00 00 00 00 00 00 00
 0.448215 1  18F132F3x       Rx   d 8 00 00 00 00 00 00 00 00
 0.449117 1  18F133F3x       Rx   d 8 00 00 00 00 00 00 00 00
 0.450052 1  18F134F3x       Rx   d 8 00 00 00 00 00 00 00 00
 0.451044 1  18F135F3x       Rx   d 8 00 00 00 00 00 00 00 00
 0.452194 1  18F136F3x       Rx   d 8 00 00 00 00 00 00 00 00
 0.452945 1  CFF21CAx        Rx   d 8 1F 00 36 16 3A 35 00 14
 0.453473 1  18F137F3x       Rx   d 8 00 00 00 00 00 00 00 00
 0.454389 1  18F138F3x       Rx   d 8 00 00 00 00 00 00 00 00
 0.455192 1  18F139F3x       Rx   d 8 00 00 00 00 00 00 00 00
 0.456155 1  18F13AF3x       Rx   d 8 00 00 00 00 00 00 00 00
 0.457003 1  18F13BF3x       Rx   d 8 00 00 00 00 00 00 00 00
 0.457967 1  18F13CF3x       Rx   d 8 00 00 00 00 00 00 00 00
 0.458830 1  18F155F3x       Rx   d 8 38 38 39 39 39 3A 39 00
 0.459707 1  18F156F3x       Rx   d 8 00 00 00 00 00 00 00 00
 0.460651 1  18F157F3x       Rx   d 8 00 00 00 00 00 00 00 00
 0.461476 1  18F158F3x       Rx   d 8 00 00 00 00 00 00 00 00
 0.462350 1  18F159F3x       Rx   d 8 00 00 00 00 00 00 00 00
 0.463242 1  18F15AF3x       Rx   d 8 00 00 00 00 00 00 00 00
 0.464142 1  18F15BF3x       Rx   d 7 00 00 00 00 00 00 00
 0.464933 1  CFF21CAx        Rx   d 8 1F 00 36 16 3A 35 00 14
 0.465491 1  18F15CF3x       Rx   d 8 00 00 00 00 00 00 00 00
 0.466379 1  18F15DF3x       Rx   d 8 00 00 00 00 00 00 00 00
 0.467190 1  18F15EF3x       Rx   d 8 00 00 00 00 00 00 00 00
 0.468959 1  18F100D0x       Rx   d 8 0C FF FF FF FF FF FF FF
 0.477076 1  CFF21CAx        Rx   d 8 1F 00 3C 16 3A 35 00 14
 0.489651 1  CFF21CAx        Rx   d 8 1F 00 3B 16 3A 35 00 14
 0.493108 1  18F100D0x       Rx   d 8 0C FF FF FF FF FF FF FF
 0.501143 1  CFF21CAx        Rx   d 8 1F 00 3C 16 3A 35 00 14
 0.510359 1  18F100F3x       Rx   d 8 03 40 7D 71 FA FA 14 00
 0.511187 1  18FF2112x       Rx   d 8 01 00 00 00 00 00 00 00
 0.511847 1  18F102F3x       Rx   d 8 10 45 10 3E 10 0C 00 07
 0.513165 1  18F106F3x       Rx   d 8 45 E0 FC FF FF FF FF FF
 0.513740 1  CFF21CAx        Rx   d 8 1F 00 39 16 3A 35 00 14
 0.514437 1  18F107F3x       Rx   d 8 38 A4 27 10 01 76 00 00
 0.516203 1  18F108F3x       Rx   d 8 10 00 04 00 00 00 00 01
 0.517024 1  18F155F3x       Rx   d 8 38 38 39 39 39 3A 39 00
 0.517714 1  18F100D0x       Rx   d 8 0C FF FF FF FF FF FF FF
 0.518295 1  18F156F3x       Rx   d 8 00 00 00 00 00 00 00 00
 0.519218 1  18F157F3x       Rx   d 8 00 00 00 00 00 00 00 00
 0.520049 1  18F158F3x       Rx   d 8 00 00 00 00 00 00 00 00
 0.521102 1  18F159F3x       Rx   d 8 00 00 00 00 00 00 00 00
 0.522258 1  18F15AF3x       Rx   d 8 00 00 00 00 00 00 00 00
 0.523114 1  18F15BF3x       Rx   d 7 00 00 00 00 00 00 00
 0.523976 1  18F15CF3x       Rx   d 8 00 00 00 00 00 00 00 00
 0.524765 1  18F15DF3x       Rx   d 8 00 00 00 00 00 00 00 00
 0.525315 1  CFF21CAx        Rx   d 8 1F 00 3B 16 3A 35 00 14
 0.525972 1  18F15EF3x       Rx   d 8 00 00 00 00 00 00 00 00
 0.537766 1  CFF21CAx        Rx   d 8 1F 00 37 16 3A 35 00 14
 0.545383 1  18F100D0x       Rx   d 8 0C FF FF FF FF FF FF FF
 0.549267 1  CFF21CAx        Rx   d 8 1F 00 3B 16 3A 35 00 14
 0.561374 1  CFF21CAx        Rx   d 8 1F 00 36 16 3A 35 00 14
 0.569524 1  18F100D0x       Rx   d 8 0C FF FF FF FF FF FF FF
 0.573861 1  CFF21CAx        Rx   d 8 1F 00 39 16 3A 35 00 14
 0.585589 1  CFF21CAx        Rx   d 8 1F 00 37 16 3A 35 00 14
 0.593913 1  18F100D0x       Rx   d 8 0C FF FF FF FF FF FF FF
 0.597594 1  CFF21CAx        Rx   d 8 1F 00 3A 16 3A 35 00 14
 0.608488 1  18FF2112x       Rx   d 8 01 00 00 00 00 00 00 00
 0.609695 1  CFF21CAx        Rx   d 8 1F 00 3B 16 3A 35 00 14
 0.610352 1  18F100F3x       Rx   d 8 03 40 7D 71 FA FA 14 00
 0.611159 1  18F102F3x       Rx   d 8 10 46 10 3E 10 0C 00 08
 0.612838 1  18F106F3x       Rx   d 8 45 E0 FC FF FF FF FF FF
 0.614183 1  18F107F3x       Rx   d 8 38 A4 27 10 01 76 00 00
 0.615804 1  18F108F3x       Rx   d 8 10 00 04 00 00 00 00 01
 0.616658 1  18F155F3x       Rx   d 8 38 38 39 39 39 3A 39 00
 0.617559 1  18F156F3x       Rx   d 8 00 00 00 00 00 00 00 00
 0.618160 1  18F100D0x       Rx   d 8 0C FF FF FF FF FF FF FF
 0.618731 1  18F157F3x       Rx   d 8 00 00 00 00 00 00 00 00
 0.619580 1  18F158F3x       Rx   d 8 00 00 00 00 00 00 00 00
 0.620488 1  18F159F3x       Rx   d 8 00 00 00 00 00 00 00 00
 0.621329 1  18F15AF3x       Rx   d 8 00 00 00 00 00 00 00 00
 0.621944 1  CFF21CAx        Rx   d 8 1F 00 3A 16 3A 35 00 14
 0.622416 1  18F15BF3x       Rx   d 7 00 00 00 00 00 00 00
 0.623309 1  18F15CF3x       Rx   d 8 00 00 00 00 00 00 00 00
 0.624153 1  18F15DF3x       Rx   d 8 00 00 00 00 00 00 00 00
 0.625051 1  18F15EF3x       Rx   d 8 00 00 00 00 00 00 00 00
 0.645443 1  CFF21CAx        Rx   d 8 1F 00 3B 16 3A 35 00 14
 0.645567 1  18F100D0x       Rx   d 8 0C FF FF FF FF FF FF FF
 0.645669 1  CFF21CAx        Rx   d 8 1F 00 3A 16 3A 35 00 14
 0.657748 1  CFF21CAx        Rx   d 8 1F 00 39 16 3A 35 00 14
 0.665872 1  18F100D0x       Rx   d 8 0C FF FF FF FF FF FF FF
 0.669892 1  CFF21CAx        Rx   d 8 1F 00 39 16 3A 35 00 14
 0.670444 1  18FECACAx       Rx   d 8 00 00 00 00 00 00 FF FF
 0.681981 1  CFF21CAx        Rx   d 8 1F 00 3A 16 3A 35 00 14
 0.693979 1  CFF21CAx        Rx   d 8 1F 00 3A 16 3A 35 00 14
 0.694485 1  18F100D0x       Rx   d 8 0C FF FF FF FF FF FF FF
 0.705773 1  18FF2112x       Rx   d 8 01 00 00 00 00 00 00 00
 0.706312 1  CFF21CAx        Rx   d 8 1F 00 3A 16 3A 35 00 14
 0.710292 1  18F100F3x       Rx   d 8 03 40 7D 71 FA FA 14 00
 0.711180 1  18F102F3x       Rx   d 8 10 46 10 3E 10 0C 00 08
 0.712760 1  18F106F3x       Rx   d 8 45 E0 FC FF FF FF FF FF
 0.714225 1  18F107F3x       Rx   d 8 38 A4 27 10 01 76 00 00
 0.715806 1  18F108F3x       Rx   d 8 10 00 04 00 00 00 00 01
 0.716654 1  18F155F3x       Rx   d 8 38 38 39 39 39 3A 39 00
 0.717542 1  18F156F3x       Rx   d 8 00 00 00 00 00 00 00 00
 0.718412 1  18F157F3x       Rx   d 8 00 00 00 00 00 00 00 00
 0.718977 1  CFF21CAx        Rx   d 8 20 00 3A 16 3A 35 00 14
 0.719580 1  18F100D0x       Rx   d 8 0C FF FF FF FF FF FF FF
 0.720141 1  18F158F3x       Rx   d 8 00 00 00 00 00 00 00 00
 0.721107 1  18F159F3x       Rx   d 8 00 00 00 00 00 00 00 00
 0.722310 1  18F15AF3x       Rx   d 8 00 00 00 00 00 00 00 00
 0.723112 1  18F15BF3x       Rx   d 7 00 00 00 00 00 00 00
 0.724076 1  18F15CF3x       Rx   d 8 00 00 00 00 00 00 00 00
 0.724945 1  18F15DF3x       Rx   d 8 00 00 00 00 00 00 00 00
 0.725780 1  18F15EF3x       Rx   d 8 00 00 00 00 00 00 00 00
 0.730033 1  CFF21CAx        Rx   d 8 20 00 3A 16 3A 35 00 14
 0.742101 1  CFF21CAx        Rx   d 8 20 00 3D 16 3A 35 00 14
 0.742810 1  18F100D0x       Rx   d 8 0C FF FF FF FF FF FF FF
 0.754275 1  CFF21CAx        Rx   d 8 1F 00 3A 16 3A 35 00 14
 0.766583 1  CFF21CAx        Rx   d 8 1F 00 3D 16 3A 35 00 14
 0.767132 1  18F100D0x       Rx   d 8 0C FF FF FF FF FF FF FF
 0.778366 1  CFF21CAx        Rx   d 8 1F 00 3B 16 3A 35 00 14
 0.790506 1  CFF21CAx        Rx   d 8 1F 00 38 16 3A 35 00 14
 0.791533 1  18F100D0x       Rx   d 8 0C FF FF FF FF FF FF FF
 0.802490 1  CFF21CAx        Rx   d 8 1F 00 3A 16 3A 35 00 14
 0.803107 1  18FF2112x       Rx   d 8 01 00 00 00 00 00 00 00
 0.810472 1  18F100F3x       Rx   d 8 03 40 7D 71 FA FA 14 00
 0.811334 1  18F102F3x       Rx   d 8 10 46 10 3E 10 0C 00 08
 0.812882 1  18F106F3x       Rx   d 8 45 E0 FC FF FF FF FF FF
 0.814160 1  18F107F3x       Rx   d 8 38 A4 27 10 01 76 00 00
 0.815010 1  CFF21CAx        Rx   d 8 1F 00 3B 16 3A 35 00 14
 0.815583 1  18F100D0x       Rx   d 8 0C FF FF FF FF FF FF FF
 0.816142 1  18F108F3x       Rx   d 8 10 00 04 00 00 00 00 01
 0.816930 1  18F155F3x       Rx   d 8 38 38 39 39 39 3A 39 00
 0.817963 1  18F156F3x       Rx   d 8 00 00 00 00 00 00 00 00
 0.818861 1  18F157F3x       Rx   d 8 00 00 00 00 00 00 00 00
 0.820221 1  18F158F3x       Rx   d 8 00 00 00 00 00 00 00 00
 0.820597 1  18F159F3x       Rx   d 8 00 00 00 00 00 00 00 00
 0.821446 1  18F15AF3x       Rx   d 8 00 00 00 00 00 00 00 00
 0.822340 1  18F15BF3x       Rx   d 7 00 00 00 00 00 00 00
 0.823200 1  18F15CF3x       Rx   d 8 00 00 00 00 00 00 00 00
 0.824062 1  18F15DF3x       Rx   d 8 00 00 00 00 00 00 00 00
 0.824960 1  18F15EF3x       Rx   d 8 00 00 00 00 00 00 00 00
 0.826395 1  CFF21CAx        Rx   d 8 1F 00 3A 16 3A 35 00 14
 0.838696 1  CFF21CAx        Rx   d 8 1F 00 3B 16 3A 35 00 14
 0.839243 1  18F100D0x       Rx   d 8 0C FF FF FF FF FF FF FF
 0.850638 1  CFF21CAx        Rx   d 8 1F 00 39 16 3A 35 00 14
 0.862970 1  CFF21CAx        Rx   d 8 1F 00 3B 16 3A 35 00 14
 0.863500 1  18F100D0x       Rx   d 8 0C FF FF FF FF FF FF FF
 0.874582 1  CFF21CAx        Rx   d 8 1F 00 3A 16 3A 35 00 14
 0.887108 1  CFF21CAx        Rx   d 8 1F 00 3B 16 3A 35 00 14
 0.887628 1  18F100D0x       Rx   d 8 0C FF FF FF FF FF FF FF
 0.898703 1  CFF21CAx        Rx   d 8 1F 00 3A 16 3A 35 00 14
 0.900210 1  18FF2112x       Rx   d 8 01 00 00 00 00 00 00 00
 0.910347 1  18F100F3x       Rx   d 8 03 40 7D 71 FA FA 14 00
 0.911168 1  18F102F3x       Rx   d 8 10 46 10 3E 10 0C 00 08
 0.911764 1  CFF21CAx        Rx   d 8 1F 00 39 16 3A 35 00 14
 0.912698 1  18F106F3x       Rx   d 8 45 E0 FC FF FF FF FF FF
 0.914072 1  18F107F3x       Rx   d 8 38 A4 27 10 01 76 00 00
 0.915217 1  18F100D0x       Rx   d 8 0C FF FF FF FF FF FF FF
 0.915972 1  18F108F3x       Rx   d 8 10 00 04 00 00 00 00 01
 0.916951 1  18F155F3x       Rx   d 8 38 38 39 39 39 3A 39 00
 0.917783 1  18F156F3x       Rx   d 8 00 00 00 00 00 00 00 00
 0.918705 1  18F157F3x       Rx   d 8 00 00 00 00 00 00 00 00
 0.919533 1  18F158F3x       Rx   d 8 00 00 00 00 00 00 00 00
 0.920452 1  18F159F3x       Rx   d 8 00 00 00 00 00 00 00 00
 0.921290 1  18F15AF3x       Rx   d 8 00 00 00 00 00 00 00 00
 0.922317 1  18F15BF3x       Rx   d 7 00 00 00 00 00 00 00
 0.923018 1  CFF21CAx        Rx   d 8 1F 00 39 16 3A 35 00 14
 0.923967 1  18F15CF3x       Rx   d 8 00 00 00 00 00 00 00 00
 0.924331 1  18F15DF3x       Rx   d 8 00 00 00 00 00 00 00 00
 0.925249 1  18F15EF3x       Rx   d 8 00 00 00 00 00 00 00 00
 0.935434 1  CFF21CAx        Rx   d 8 1F 00 39 16 3A 35 00 14
 0.939082 1  18F100D0x       Rx   d 8 0C FF FF FF FF FF FF FF
 0.947129 1  CFF21CAx        Rx   d 8 1F 00 3C 16 3A 35 00 14
 0.959497 1  CFF21CAx        Rx   d 8 1F 00 38 16 3A 35 00 14
 0.963160 1  18F100D0x       Rx   d 8 0C FF FF FF FF FF FF FF
 0.971173 1  CFF21CAx        Rx   d 8 1F 00 38 16 3A 35 00 14
 0.983476 1  CFF21CAx        Rx   d 8 1F 00 38 16 3A 35 00 14
 0.987111 1  18F100D0x       Rx   d 8 0C FF FF FF FF FF FF FF
 0.995301 1  CFF21CAx        Rx   d 8 1F 00 38 16 3A 35 00 14
 0.997694 1  18FF2112x       Rx   d 8 01 00 00 00 00 00 00 00
 1.007755 1  CFF21CAx        Rx   d 8 20 00 3A 16 3A 35 00 14
 1.010438 1  18F100F3x       Rx   d 8 03 40 7D 71 FA FA 14 00
 1.011149 1  18F102F3x       Rx   d 8 10 46 10 3E 10 0C 00 08
 1.011878 1  18F100D0x       Rx   d 8 0C FF FF FF FF FF FF FF
 1.013744 1  18F106F3x       Rx   d 8 45 E0 FC FF FF FF FF FF
 1.014374 1  18F107F3x       Rx   d 8 38 A4 27 10 01 76 00 00
 1.016193 1  18F108F3x       Rx   d 8 10 00 04 00 00 00 00 01
 1.016941 1  18F155F3x       Rx   d 8 38 38 39 39 39 3A 39 00
 1.017988 1  18F156F3x       Rx   d 8 00 00 00 00 00 00 00 00
 1.018862 1  18F157F3x       Rx   d 8 00 00 00 00 00 00 00 00
 1.019327 1  CFF21CAx        Rx   d 8 20 00 3A 16 3A 35 00 14
 1.019828 1  18F158F3x       Rx   d 8 00 00 00 00 00 00 00 00
 1.020880 1  18F159F3x       Rx   d 8 00 00 00 00 00 00 00 00
 1.021744 1  18F15AF3x       Rx   d 8 00 00 00 00 00 00 00 00
 1.022557 1  18F15BF3x       Rx   d 7 00 00 00 00 00 00 00
 1.023435 1  18F15CF3x       Rx   d 8 00 00 00 00 00 00 00 00
 1.024133 1  18F15DF3x       Rx   d 8 00 00 00 00 00 00 00 00
 1.025040 1  18F15EF3x       Rx   d 8 00 00 00 00 00 00 00 00
 1.031784 1  CFF21CAx        Rx   d 8 20 00 3B 16 3A 35 00 14
 1.040124 1  18F100D0x       Rx   d 8 0C FF FF FF FF FF FF FF
 1.043274 1  CFF21CAx        Rx   d 8 20 00 3B 16 3A 35 00 14
 1.055964 1  CFF21CAx        Rx   d 8 1F 00 3B 16 3A 35 00 14
 1.064042 1  18F100D0x       Rx   d 8 0C FF FF FF FF FF FF FF
 1.078865 1  CFF21CAx        Rx   d 8 1F 00 37 16 3A 35 00 14
 1.079999 1  CFF21CAx        Rx   d 8 1F 00 3B 16 3A 35 00 14
 1.087976 1  18F100D0x       Rx   d 8 0C FF FF FF FF FF FF FF
 1.091488 1  CFF21CAx        Rx   d 8 1F 00 38 16 3A 35 00 14
 1.094835 1  18FF2112x       Rx   d 8 01 00 00 00 00 00 00 00
 1.104136 1  CFF21CAx        Rx   d 8 1F 00 3C 16 3A 35 00 14
 1.110404 1  18F100F3x       Rx   d 8 03 40 7D 71 FA FA 14 00
 1.111185 1  18F102F3x       Rx   d 8 10 46 10 3E 10 0C 00 08
 1.112178 1  18F100D0x       Rx   d 8 0C FF FF FF FF FF FF FF
 1.112733 1  18F106F3x       Rx   d 8 45 E0 FC FF FF FF FF FF
 1.114064 1  18F107F3x       Rx   d 8 38 A4 27 10 01 76 00 00
 1.115813 1  18F108F3x       Rx   d 8 10 00 04 00 00 00 00 01
 1.116396 1  CFF21CAx        Rx   d 8 1F 00 38 16 3A 35 00 14
 1.116934 1  18F155F3x       Rx   d 8 38 38 39 39 39 3A 39 00
 1.117840 1  18F156F3x       Rx   d 8 00 00 00 00 00 00 00 00
 1.118714 1  18F157F3x       Rx   d 8 00 00 00 00 00 00 00 00
 1.119588 1  18F158F3x       Rx   d 8 00 00 00 00 00 00 00 00
 1.120498 1  18F159F3x       Rx   d 8 00 00 00 00 00 00 00 00
 1.121384 1  18F15AF3x       Rx   d 8 00 00 00 00 00 00 00 00
 1.122370 1  18F15BF3x       Rx   d 7 00 00 00 00 00 00 00
 1.123207 1  18F15CF3x       Rx   d 8 00 00 00 00 00 00 00 00
 1.124112 1  18F15DF3x       Rx   d 8 00 00 00 00 00 00 00 00
 1.125019 1  18F15EF3x       Rx   d 8 00 00 00 00 00 00 00 00
 1.128141 1  CFF21CAx        Rx   d 8 1F 00 3C 16 3A 35 00 14
 1.136216 1  18F100D0x       Rx   d 8 0C FF FF FF FF FF FF FF
 1.139756 1  CFF21CAx        Rx   d 8 1F 00 38 16 3A 35 00 14
 1.152248 1  CFF21CAx        Rx   d 8 1F 00 3A 16 3A 35 00 14
 1.160272 1  18F100D0x       Rx   d 8 0C FF FF FF FF FF FF FF
 1.163892 1  CFF21CAx        Rx   d 8 1F 00 3C 16 3A 35 00 14
 1.176446 1  CFF21CAx        Rx   d 8 1E 00 38 16 3A 35 00 14
 1.184514 1  18F100D0x       Rx   d 8 0C FF FF FF FF FF FF FF
 1.188103 1  CFF21CAx        Rx   d 8 1E 00 39 16 3A 35 00 14
 1.192099 1  18FF2112x       Rx   d 8 01 00 00 00 00 00 00 00
 1.200409 1  CFF21CAx        Rx   d 8 1E 00 38 16 3A 35 00 14
 1.208474 1  18F100D0x       Rx   d 8 0C FF FF FF FF FF FF FF
 1.210467 1  18F100F3x       Rx   d 8 03 40 7D 71 FA FA 14 00
 1.211166 1  18F102F3x       Rx   d 8 10 46 10 3E 10 0C 00 08
 1.212574 1  CFF21CAx        Rx   d 8 1F 00 39 16 3A 35 00 14
 1.213152 1  18F106F3x       Rx   d 8 45 E0 FC FF FF FF FF FF
 1.214432 1  18F107F3x       Rx   d 8 38 A4 27 10 01 76 00 00
 1.216246 1  18F108F3x       Rx   d 8 10 00 04 00 00 00 00 01
 1.216993 1  18F155F3x       Rx   d 8 38 38 39 39 39 3A 39 00
 1.218100 1  18F156F3x       Rx   d 8 00 00 00 00 00 00 00 00
 1.218965 1  18F157F3x       Rx   d 8 00 00 00 00 00 00 00 00
 1.219684 1  18F158F3x       Rx   d 8 00 00 00 00 00 00 00 00
 1.220710 1  18F159F3x       Rx   d 8 00 00 00 00 00 00 00 00
 1.221593 1  18F15AF3x       Rx   d 8 00 00 00 00 00 00 00 00
 1.222475 1  18F15BF3x       Rx   d 7 00 00 00 00 00 00 00
 1.223349 1  18F15CF3x       Rx   d 8 00 00 00 00 00 00 00 00
 1.224083 1  18F15DF3x       Rx   d 8 00 00 00 00 00 00 00 00
 1.224654 1  CFF21CAx        Rx   d 8 1F 00 38 16 3A 35 00 14
 1.225227 1  18F15EF3x       Rx   d 8 00 00 00 00 00 00 00 00
 1.232669 1  18F100D0x       Rx   d 8 0C FF FF FF FF FF FF FF
 1.236051 1  CFF21CAx        Rx   d 8 1F 00 39 16 3A 35 00 14
 1.248591 1  CFF21CAx        Rx   d 8 1F 00 3B 16 3A 35 00 14
 1.256761 1  18F100D0x       Rx   d 8 0C FF FF FF FF FF FF FF
 1.260334 1  CFF21CAx        Rx   d 8 1F 00 3A 16 3A 35 00 14
 1.273680 1  CFF21CAx        Rx   d 8 1E 00 39 16 3A 35 00 14
 1.280845 1  18F100D0x       Rx   d 8 0C FF FF FF FF FF FF FF
 1.284422 1  CFF21CAx        Rx   d 8 1E 00 3A 16 3A 35 00 14
 1.297885 1  18FF2112x       Rx   d 8 01 00 00 00 00 00 00 00
 1.298017 1  CFF21CAx        Rx   d 8 1E 00 3B 16 3A 35 00 14
 1.304873 1  18F100D0x       Rx   d 8 0C FF FF FF FF FF FF FF
 1.308389 1  CFF21CAx        Rx   d 8 1E 00 3A 16 3A 35 00 14
 1.310352 1  18F100F3x       Rx   d 8 03 40 7D 71 FA FA 14 00
 1.311197 1  18F102F3x       Rx   d 8 10 46 10 3E 10 0C 00 08
 1.312781 1  18F106F3x       Rx   d 8 45 E0 FC FF FF FF FF FF
 1.314082 1  18F107F3x       Rx   d 8 38 A4 27 10 01 76 00 00
 1.315957 1  18F108F3x       Rx   d 8 10 00 04 00 00 00 00 01
 1.316800 1  18F155F3x       Rx   d 8 38 38 39 39 39 3A 39 00
 1.317718 1  18F156F3x       Rx   d 8 00 00 00 00 00 00 00 00
 1.318598 1  18F157F3x       Rx   d 8 00 00 00 00 00 00 00 00
 1.319441 1  18F158F3x       Rx   d 8 00 00 00 00 00 00 00 00
 1.320347 1  18F159F3x       Rx   d 8 00 00 00 00 00 00 00 00
 1.320984 1  CFF21CAx        Rx   d 8 1E 00 3E 16 3A 35 00 14
 1.321494 1  18F15AF3x       Rx   d 8 00 00 00 00 00 00 00 00
 1.322387 1  18F15BF3x       Rx   d 7 00 00 00 00 00 00 00
 1.323252 1  18F15CF3x       Rx   d 8 00 00 00 00 00 00 00 00
 1.324112 1  18F15DF3x       Rx   d 8 00 00 00 00 00 00 00 00
 1.325009 1  18F15EF3x       Rx   d 8 00 00 00 00 00 00 00 00
 1.332517 1  CFF21CAx        Rx   d 8 1E 00 39 16 3A 35 00 14
 1.333069 1  18F100D0x       Rx   d 8 0C FF FF FF FF FF FF FF
 1.345001 1  CFF21CAx        Rx   d 8 1E 00 3D 16 3A 35 00 14
 1.353028 1  18F100D0x       Rx   d 8 0C FF FF FF FF FF FF FF
 1.356672 1  CFF21CAx        Rx   d 8 1E 00 39 16 3A 35 00 14
 1.369210 1  CFF21CAx        Rx   d 8 1E 00 3D 16 3A 35 00 14
 1.380746 1  CFF21CAx        Rx   d 8 1E 00 37 16 3A 35 00 14
 1.381252 1  18F100D0x       Rx   d 8 0C FF FF FF FF FF FF FF
 1.386679 1  18FF2112x       Rx   d 8 01 00 00 00 00 00 00 00
 1.393214 1  CFF21CAx        Rx   d 8 1F 00 39 16 3A 35 00 14
 1.404991 1  CFF21CAx        Rx   d 8 1F 00 38 16 3A 35 00 14
 1.405539 1  18F100D0x       Rx   d 8 0C FF FF FF FF FF FF FF
 1.409932 1  18F104F3x       Rx   d 8 3A 38 06 01 02 FF FF FF
 1.410901 1  18F100F3x       Rx   d 8 03 40 7D 70 FA FA 14 00
 1.411806 1  18F102F3x       Rx   d 8 10 46 10 3E 10 0C 00 08
 1.413180 1  18F106F3x       Rx   d 8 45 E0 FC FF FF FF FF FF
 1.414459 1  18F107F3x       Rx   d 8 38 A4 27 10 01 76 00 00
 1.416410 1  18F108F3x       Rx   d 8 10 00 04 00 00 00 00 01
 1.417272 1  18F113F3x       Rx   d 8 10 41 10 41 10 41 10 41
 1.417828 1  CFF21CAx        Rx   d 8 1F 00 3A 16 3A 35 00 14
 1.418470 1  18F114F3x       Rx   d 8 10 40 10 40 10 43 10 42
 1.419369 1  18F115F3x       Rx   d 8 10 3F 10 3F 10 40 10 3E
 1.420378 1  18F116F3x       Rx   d 8 10 44 10 41 10 44 10 46
 1.421356 1  18F117F3x       Rx   d 8 10 41 10 41 10 45 10 44
 1.422601 1  18F118F3x       Rx   d 8 00 00 00 00 00 00 00 00
 1.423471 1  18F119F3x       Rx   d 8 00 00 00 00 00 00 00 00
 1.424418 1  18F11AF3x       Rx   d 8 00 00 00 00 00 00 00 00
 1.425413 1  18F11BF3x       Rx   d 8 00 00 00 00 00 00 00 00
 1.426303 1  18F11CF3x       Rx   d 8 00 00 00 00 00 00 00 00
 1.427276 1  18F11DF3x       Rx   d 8 00 00 00 00 00 00 00 00
 1.428282 1  18F11EF3x       Rx   d 8 00 00 00 00 00 00 00 00
 1.428859 1  CFF21CAx        Rx   d 8 1F 00 3A 16 3A 35 00 14
 1.429595 1  18F100D0x       Rx   d 8 0C FF FF FF FF FF FF FF
 1.430049 1  18F11FF3x       Rx   d 8 00 00 00 00 00 00 00 00
 1.431170 1  18F120F3x       Rx   d 8 00 00 00 00 00 00 00 00
 1.432317 1  18F121F3x       Rx   d 8 00 00 00 00 00 00 00 00
 1.433269 1  18F122F3x       Rx   d 8 00 00 00 00 00 00 00 00
 1.434227 1  18F123F3x       Rx   d 8 00 00 00 00 00 00 00 00
 1.435301 1  18F124F3x       Rx   d 8 00 00 00 00 00 00 00 00
 1.436141 1  18F125F3x       Rx   d 8 00 00 00 00 00 00 00 00
 1.437262 1  18F126F3x       Rx   d 8 00 00 00 00 00 00 00 00
 1.438234 1  18F127F3x       Rx   d 8 00 00 00 00 00 00 00 00
 1.439183 1  18F128F3x       Rx   d 8 00 00 00 00 00 00 00 00
 1.440107 1  18F129F3x       Rx   d 8 00 00 00 00 00 00 00 00
 1.440958 1  18F12AF3x       Rx   d 8 00 00 00 00 00 00 00 00
 1.441536 1  CFF21CAx        Rx   d 8 1F 00 3B 16 3A 35 00 14
 1.442271 1  18F12BF3x       Rx   d 8 00 00 00 00 00 00 00 00
 1.443236 1  18F12CF3x       Rx   d 8 00 00 00 00 00 00 00 00
 1.444206 1  18F12DF3x       Rx   d 8 00 00 00 00 00 00 00 00
 1.445031 1  18F12EF3x       Rx   d 8 00 00 00 00 00 00 00 00
 1.446043 1  18F12FF3x       Rx   d 8 00 00 00 00 00 00 00 00
 1.446835 1  18F130F3x       Rx   d 8 00 00 00 00 00 00 00 00
 1.447843 1  18F131F3x       Rx   d 8 00 00 00 00 00 00 00 00
 1.448626 1  18F132F3x       Rx   d 8 00 00 00 00 00 00 00 00
 1.449625 1  18F133F3x       Rx   d 8 00 00 00 00 00 00 00 00
 1.450385 1  18F134F3x       Rx   d 8 00 00 00 00 00 00 00 00
 1.451405 1  18F135F3x       Rx   d 8 00 00 00 00 00 00 00 00
 1.452552 1  18F136F3x       Rx   d 8 00 00 00 00 00 00 00 00
 1.452992 1  CFF21CAx        Rx   d 8 1F 00 3B 16 3A 35 00 14
 1.453682 1  18F100D0x       Rx   d 8 0C FF FF FF FF FF FF FF
 1.454274 1  18F137F3x       Rx   d 8 00 00 00 00 00 00 00 00
 1.455193 1  18F138F3x       Rx   d 8 00 00 00 00 00 00 00 00
 1.456119 1  18F139F3x       Rx   d 8 00 00 00 00 00 00 00 00
 1.456882 1  18F13AF3x       Rx   d 8 00 00 00 00 00 00 00 00
 1.457720 1  18F13BF3x       Rx   d 8 00 00 00 00 00 00 00 00
 1.458562 1  18F13CF3x       Rx   d 8 00 00 00 00 00 00 00 00
 1.459430 1  18F155F3x       Rx   d 8 38 38 39 39 39 3A 39 00
 1.460317 1  18F156F3x       Rx   d 8 00 00 00 00 00 00 00 00
 1.461379 1  18F157F3x       Rx   d 8 00 00 00 00 00 00 00 00
 1.462447 1  18F158F3x       Rx   d 8 00 00 00 00 00 00 00 00
 1.463286 1  18F159F3x       Rx   d 8 00 00 00 00 00 00 00 00
 1.464346 1  18F15AF3x       Rx   d 8 00 00 00 00 00 00 00 00
 1.465132 1  18F15BF3x       Rx   d 7 00 00 00 00 00 00 00
 1.465631 1  CFF21CAx        Rx   d 8 1F 00 3A 16 3A 35 00 14
 1.466340 1  18F15CF3x       Rx   d 8 00 00 00 00 00 00 00 00
 1.467116 1  18F15DF3x       Rx   d 8 00 00 00 00 00 00 00 00
 1.468149 1  18F15EF3x       Rx   d 8 00 00 00 00 00 00 00 00
 1.477213 1  CFF21CAx        Rx   d 8 1F 00 3A 16 3A 35 00 14
 1.477670 1  18F100D0x       Rx   d 8 0C FF FF FF FF FF FF FF
 1.484085 1  18FF2112x       Rx   d 8 01 00 00 00 00 00 00 00
 1.489245 1  CFF21CAx        Rx   d 8 1F 00 3B 16 3A 35 00 14
 1.501325 1  CFF21CAx        Rx   d 8 1F 00 39 16 3A 35 00 14
 1.515630 1  18F100D0x       Rx   d 8 0C FF FF FF FF FF FF FF
 1.515766 1  18F100F3x       Rx   d 8 03 40 7D 70 FA FA 14 00
 1.515900 1  18F102F3x       Rx   d 8 10 46 10 3E 10 0C 00 08
 1.516025 1  18F106F3x       Rx   d 8 45 E0 FC FF FF FF FF FF
 1.516139 1  CFF21CAx        Rx   d 8 1F 00 39 16 3A 35 00 14
 1.516255 1  18F107F3x       Rx   d 8 38 A4 27 10 01 76 00 00
 1.516368 1  18F108F3x       Rx   d 8 10 00 04 00 00 00 00 01
 1.516938 1  18F155F3x       Rx   d 8 38 38 39 39 39 3A 39 00
 1.517821 1  18F156F3x       Rx   d 8 00 00 00 00 00 00 00 00
 1.518692 1  18F157F3x       Rx   d 8 00 00 00 00 00 00 00 00
 1.519547 1  18F158F3x       Rx   d 8 00 00 00 00 00 00 00 00
 1.520452 1  18F159F3x       Rx   d 8 00 00 00 00 00 00 00 00
 1.521322 1  18F15AF3x       Rx   d 8 00 00 00 00 00 00 00 00
 1.522385 1  18F15BF3x       Rx   d 7 00 00 00 00 00 00 00
 1.523232 1  18F15CF3x       Rx   d 8 00 00 00 00 00 00 00 00
 1.524113 1  18F15DF3x       Rx   d 8 00 00 00 00 00 00 00 00
 1.525006 1  18F15EF3x       Rx   d 8 00 00 00 00 00 00 00 00
 1.525554 1  CFF21CAx        Rx   d 8 20 00 3A 16 3A 35 00 14
 1.529797 1  18F100D0x       Rx   d 8 0C FF FF FF FF FF FF FF
 1.537376 1  CFF21CAx        Rx   d 8 20 00 3A 16 3A 35 00 14
 1.549363 1  CFF21CAx        Rx   d 8 20 00 39 16 3A 35 00 14
 1.553399 1  18F100D0x       Rx   d 8 0C FF FF FF FF FF FF FF
 1.561392 1  CFF21CAx        Rx   d 8 20 00 39 16 3A 35 00 14
 1.573517 1  CFF21CAx        Rx   d 8 20 00 3A 16 3A 35 00 14
 1.577654 1  18F100D0x       Rx   d 8 0C FF FF FF FF FF FF FF
 1.581546 1  18FF2112x       Rx   d 8 01 00 00 00 00 00 00 00
 1.585564 1  CFF21CAx        Rx   d 8 20 00 3C 16 3A 35 00 14
 1.597668 1  CFF21CAx        Rx   d 8 20 00 3A 16 3A 35 00 14
 1.601694 1  18F100D0x       Rx   d 8 0C FF FF FF FF FF FF FF
 1.609593 1  CFF21CAx        Rx   d 8 20 00 3C 16 3A 35 00 14
 1.610465 1  18F100F3x       Rx   d 8 03 40 7D 70 FA FA 14 00
 1.611182 1  18F102F3x       Rx   d 8 10 46 10 3E 10 0C 00 08
 1.612902 1  18F106F3x       Rx   d 8 45 E0 FC FF FF FF FF FF
 1.614187 1  18F107F3x       Rx   d 8 38 A4 27 10 01 76 00 00
 1.615815 1  18F108F3x       Rx   d 8 10 00 04 00 00 00 00 01
 1.616687 1  18F155F3x       Rx   d 8 38 38 39 39 39 3A 39 00
 1.617709 1  18F156F3x       Rx   d 8 00 00 00 00 00 00 00 00
 1.618610 1  18F157F3x       Rx   d 8 00 00 00 00 00 00 00 00
 1.619365 1  18F158F3x       Rx   d 8 00 00 00 00 00 00 00 00
 1.620349 1  18F159F3x       Rx   d 8 00 00 00 00 00 00 00 00
 1.621274 1  18F15AF3x       Rx   d 8 00 00 00 00 00 00 00 00
 1.621833 1  CFF21CAx        Rx   d 8 1F 00 3A 16 3A 35 00 14
 1.622401 1  18F15BF3x       Rx   d 7 00 00 00 00 00 00 00
 1.623313 1  18F15CF3x       Rx   d 8 00 00 00 00 00 00 00 00
 1.624051 1  18F15DF3x       Rx   d 8 00 00 00 00 00 00 00 00
 1.624958 1  18F15EF3x       Rx   d 8 00 00 00 00 00 00 00 00
 1.625646 1  18F100D0x       Rx   d 8 0C FF FF FF FF FF FF FF
 1.633800 1  CFF21CAx        Rx   d 8 1F 00 3C 16 3A 35 00 14
 1.645917 1  CFF21CAx        Rx   d 8 1F 00 39 16 3A 35 00 14
 1.649814 1  18F100D0x       Rx   d 8 0C FF FF FF FF FF FF FF
 1.657788 1  CFF21CAx        Rx   d 8 1F 00 3A 16 3A 35 00 14
 1.669891 1  CFF21CAx        Rx   d 8 1F 00 38 16 3A 35 00 14
 1.673943 1  18F100D0x       Rx   d 8 0C FF FF FF FF FF FF FF
 1.678596 1  18FF2112x       Rx   d 8 01 00 00 00 00 00 00 00
 1.681960 1  CFF21CAx        Rx   d 8 1F 00 38 16 3A 35 00 14
 1.690081 1  18FECACAx       Rx   d 8 00 00 00 00 00 00 FF FF
 1.694046 1  CFF21CAx        Rx   d 8 20 00 39 16 3A 35 00 14
 1.698143 1  18F100D0x       Rx   d 8 0C FF FF FF FF FF FF FF
 1.706449 1  CFF21CAx        Rx   d 8 20 00 37 16 3A 35 00 14
 1.710492 1  18F100F3x       Rx   d 8 03 40 7D 70 FA FA 14 00
 1.711202 1  18F102F3x       Rx   d 8 10 46 10 3E 10 0C 00 08
 1.712915 1  18F106F3x       Rx   d 8 45 E0 FC FF FF FF FF FF
 1.714201 1  18F107F3x       Rx   d 8 38 A4 27 10 01 76 00 00
 1.715829 1  18F108F3x       Rx   d 8 10 00 04 00 00 00 00 01
 1.716696 1  18F155F3x       Rx   d 8 38 38 39 39 39 3A 39 00
 1.717736 1  18F156F3x       Rx   d 8 00 00 00 00 00 00 00 00
 1.718609 1  18F157F3x       Rx   d 8 00 00 00 00 00 00 00 00
 1.719170 1  CFF21CAx        Rx   d 8 20 00 36 16 3A 35 00 14
 1.719601 1  18F158F3x       Rx   d 8 00 00 00 00 00 00 00 00
 1.720620 1  18F159F3x       Rx   d 8 00 00 00 00 00 00 00 00
 1.721492 1  18F15AF3x       Rx   d 8 00 00 00 00 00 00 00 00
 1.734074 1  18F15BF3x       Rx   d 7 00 00 00 00 00 00 00
 1.734190 1  18F15CF3x       Rx   d 8 00 00 00 00 00 00 00 00
 1.734290 1  18F15DF3x       Rx   d 8 00 00 00 00 00 00 00 00
 1.734386 1  18F15EF3x       Rx   d 8 00 00 00 00 00 00 00 00
 1.734482 1  18F100D0x       Rx   d 8 0C FF FF FF FF FF FF FF
 1.734579 1  CFF21CAx        Rx   d 8 20 00 3A 16 3A 35 00 14
 1.742211 1  CFF21CAx        Rx   d 8 20 00 36 16 3A 35 00 14
 1.750181 1  18F100D0x       Rx   d 8 0C FF FF FF FF FF FF FF
 1.754222 1  CFF21CAx        Rx   d 8 20 00 3B 16 3A 35 00 14
 1.766416 1  CFF21CAx        Rx   d 8 20 00 36 16 3A 35 00 14
 1.774286 1  18F100D0x       Rx   d 8 0C FF FF FF FF FF FF FF
 1.775770 1  18FF2112x       Rx   d 8 01 00 00 00 00 00 00 00
 1.778283 1  CFF21CAx        Rx   d 8 20 00 3A 16 3A 35 00 14
 1.790755 1  CFF21CAx        Rx   d 8 1F 00 3A 16 3A 35 00 14
 1.798522 1  18F100D0x       Rx   d 8 0C FF FF FF FF FF FF FF
 1.802449 1  CFF21CAx        Rx   d 8 1F 00 3A 16 3A 35 00 14
 1.810329 1  18F100F3x       Rx   d 8 03 40 7D 70 FA FA 14 00
 1.811214 1  18F102F3x       Rx   d 8 10 46 10 3E 10 0C 00 08
 1.812774 1  18F106F3x       Rx   d 8 45 E0 FC FF FF FF FF FF
 1.814101 1  18F107F3x       Rx   d 8 38 A4 27 10 01 76 00 00
 1.814945 1  CFF21CAx        Rx   d 8 1F 00 38 16 3A 35 00 14
 1.815958 1  18F108F3x       Rx   d 8 10 00 04 00 00 00 00 01
 1.816813 1  18F155F3x       Rx   d 8 38 38 39 39 39 3A 39 00
 1.817776 1  18F156F3x       Rx   d 8 00 00 00 00 00 00 00 00
 1.818641 1  18F157F3x       Rx   d 8 00 00 00 00 00 00 00 00
 1.819522 1  18F158F3x       Rx   d 8 00 00 00 00 00 00 00 00
 1.820449 1  18F159F3x       Rx   d 8 00 00 00 00 00 00 00 00
 1.821276 1  18F15AF3x       Rx   d 8 00 00 00 00 00 00 00 00
 1.822423 1  18F15BF3x       Rx   d 7 00 00 00 00 00 00 00
 1.822986 1  18F100D0x       Rx   d 8 0C FF FF FF FF FF FF FF
 1.823564 1  18F15CF3x       Rx   d 8 00 00 00 00 00 00 00 00
 1.824429 1  18F15DF3x       Rx   d 8 00 00 00 00 00 00 00 00
 1.825261 1  18F15EF3x       Rx   d 8 00 00 00 00 00 00 00 00
 1.826549 1  CFF21CAx        Rx   d 8 1F 00 38 16 3A 35 00 14
 1.839101 1  CFF21CAx        Rx   d 8 1F 00 39 16 3A 35 00 14
 1.846775 1  18F100D0x       Rx   d 8 0C FF FF FF FF FF FF FF
 1.850566 1  CFF21CAx        Rx   d 8 1F 00 3B 16 3A 35 00 14
 1.863220 1  CFF21CAx        Rx   d 8 1F 00 36 16 3A 35 00 14
 1.871427 1  18F100D0x       Rx   d 8 0C FF FF FF FF FF FF FF
 1.873148 1  18FF2112x       Rx   d 8 01 00 00 00 00 00 00 00
 1.874813 1  CFF21CAx        Rx   d 8 1F 00 39 16 3A 35 00 14
 1.887331 1  CFF21CAx        Rx   d 8 1F 00 36 16 3A 35 00 14
 1.895331 1  18F100D0x       Rx   d 8 0C FF FF FF FF FF FF FF
 1.898756 1  CFF21CAx        Rx   d 8 1F 00 3B 16 3A 35 00 14
 1.910475 1  18F100F3x       Rx   d 8 03 40 7D 71 FA FA 14 00
 1.911204 1  18F102F3x       Rx   d 8 10 46 10 3E 10 0C 00 08
 1.911899 1  CFF21CAx        Rx   d 8 20 00 36 16 3A 35 00 14
 1.912911 1  18F106F3x       Rx   d 8 45 E0 FC FF FF FF FF FF
 1.914213 1  18F107F3x       Rx   d 8 38 A4 27 10 01 76 00 00
 1.915974 1  18F108F3x       Rx   d 8 10 00 04 00 00 00 00 01
 1.916845 1  18F155F3x       Rx   d 8 38 38 39 39 39 3A 39 00
 1.917733 1  18F156F3x       Rx   d 8 00 00 00 00 00 00 00 00
 1.918618 1  18F157F3x       Rx   d 8 00 00 00 00 00 00 00 00
 1.919388 1  18F158F3x       Rx   d 8 00 00 00 00 00 00 00 00
 1.920395 1  18F159F3x       Rx   d 8 00 00 00 00 00 00 00 00
 1.921390 1  18F15AF3x       Rx   d 8 00 00 00 00 00 00 00 00
 1.922498 1  18F15BF3x       Rx   d 7 00 00 00 00 00 00 00
 1.923081 1  CFF21CAx        Rx   d 8 20 00 3B 16 3A 35 00 14
 1.923539 1  18F100D0x       Rx   d 8 0C FF FF FF FF FF FF FF
 1.924098 1  18F15CF3x       Rx   d 8 00 00 00 00 00 00 00 00
 1.924991 1  18F15DF3x       Rx   d 8 00 00 00 00 00 00 00 00
 1.925832 1  18F15EF3x       Rx   d 8 00 00 00 00 00 00 00 00
 1.935666 1  CFF21CAx        Rx   d 8 20 00 3A 16 3A 35 00 14
 1.951260 1  CFF21CAx        Rx   d 8 20 00 38 16 3A 35 00 14
 1.951392 1  18F100D0x       Rx   d 8 0C FF FF FF FF FF FF FF
 1.959412 1  CFF21CAx        Rx   d 8 20 00 39 16 3A 35 00 14
 1.970332 1  18FF2112x       Rx   d 8 01 00 00 00 00 00 00 00
 1.971096 1  CFF21CAx        Rx   d 8 1F 00 37 16 3A 35 00 14
 1.971681 1  18F100D0x       Rx   d 8 0C FF FF FF FF FF FF FF
 1.983611 1  CFF21CAx        Rx   d 8 1F 00 38 16 3A 35 00 14
 1.995176 1  CFF21CAx        Rx   d 8 1F 00 37 16 3A 35 00 14
 1.995719 1  18F100D0x       Rx   d 8 0C FF FF FF FF FF FF FF
 2.007669 1  CFF21CAx        Rx   d 8 20 00 39 16 3A 35 00 14
 2.010376 1  18F100F3x       Rx   d 8 03 40 7D 71 FA FA 14 00
 2.011247 1  18F102F3x       Rx   d 8 10 46 10 3E 10 0C 00 08
 2.012809 1  18F106F3x       Rx   d 8 45 E0 FC FF FF FF FF FF
 2.014123 1  18F107F3x       Rx   d 8 38 A4 27 10 01 76 00 00
 2.015921 1  18F108F3x       Rx   d 8 10 00 04 00 00 00 00 01
 2.016707 1  18F155F3x       Rx   d 8 38 38 39 39 39 3A 39 00
 2.017646 1  18F156F3x       Rx   d 8 00 00 00 00 00 00 00 00
 2.018464 1  18F157F3x       Rx   d 8 00 00 00 00 00 00 00 00
 2.019324 1  CFF21CAx        Rx   d 8 20 00 3A 16 3A 35 00 14
 2.019926 1  18F100D0x       Rx   d 8 0C FF FF FF FF FF FF FF
 2.020432 1  18F158F3x       Rx   d 8 00 00 00 00 00 00 00 00
 2.021366 1  18F159F3x       Rx   d 8 00 00 00 00 00 00 00 00
 2.022464 1  18F15AF3x       Rx   d 8 00 00 00 00 00 00 00 00
 2.023231 1  18F15BF3x       Rx   d 7 00 00 00 00 00 00 00
 2.024180 1  18F15CF3x       Rx   d 8 00 00 00 00 00 00 00 00
 2.025060 1  18F15DF3x       Rx   d 8 00 00 00 00 00 00 00 00
 2.025984 1  18F15EF3x       Rx   d 8 00 00 00 00 00 00 00 00
 2.031778 1  CFF21CAx        Rx   d 8 20 00 39 16 3A 35 00 14
 2.043504 1  CFF21CAx        Rx   d 8 20 00 39 16 3A 35 00 14
 2.044076 1  18F100D0x       Rx   d 8 0C FF FF FF FF FF FF FF
 2.056092 1  CFF21CAx        Rx   d 8 20 00 37 16 3A 35 00 14
 2.067661 1  CFF21CAx        Rx   d 8 20 00 3A 16 3A 35 00 14
 2.068188 1  18F100D0x       Rx   d 8 0C FF FF FF FF FF FF FF
 2.068762 1  18FF2112x       Rx   d 8 01 00 00 00 00 00 00 00
 2.080090 1  CFF21CAx        Rx   d 8 20 00 3B 16 3A 35 00 14
 2.091549 1  CFF21CAx        Rx   d 8 20 00 3B 16 3A 35 00 14
 2.092131 1  18F100D0x       Rx   d 8 0C FF FF FF FF FF FF FF
 2.104249 1  CFF21CAx        Rx   d 8 20 00 3B 16 3A 35 00 14
 2.110483 1  18F100F3x       Rx   d 8 03 40 7D 72 FA FA 14 00
 2.111213 1  18F102F3x       Rx   d 8 10 46 10 3E 10 0C 00 08
 2.112922 1  18F106F3x       Rx   d 8 45 E0 FC FF FF FF FF FF
 2.114240 1  18F107F3x       Rx   d 8 38 A4 27 10 01 76 00 00
 2.115848 1  18F108F3x       Rx   d 8 10 00 04 00 00 00 00 01
 2.116559 1  CFF21CAx        Rx   d 8 20 00 3F 16 3A 35 00 14
 2.117133 1  18F100D0x       Rx   d 8 0C FF FF FF FF FF FF FF
 2.117685 1  18F155F3x       Rx   d 8 38 38 39 39 39 3A 39 00
 2.118574 1  18F156F3x       Rx   d 8 00 00 00 00 00 00 00 00
 2.119353 1  18F157F3x       Rx   d 8 00 00 00 00 00 00 00 00
 2.120362 1  18F158F3x       Rx   d 8 00 00 00 00 00 00 00 00
 2.121302 1  18F159F3x       Rx   d 8 00 00 00 00 00 00 00 00
 2.122490 1  18F15AF3x       Rx   d 8 00 00 00 00 00 00 00 00
 2.123302 1  18F15BF3x       Rx   d 7 00 00 00 00 00 00 00
 2.124064 1  18F15CF3x       Rx   d 8 00 00 00 00 00 00 00 00
 2.124978 1  18F15DF3x       Rx   d 8 00 00 00 00 00 00 00 00
 2.125871 1  18F15EF3x       Rx   d 8 00 00 00 00 00 00 00 00
 2.128311 1  CFF21CAx        Rx   d 8 20 00 3C 16 3A 35 00 14
 2.139878 1  CFF21CAx        Rx   d 8 20 00 40 16 3A 35 00 14
 2.140327 1  18F100D0x       Rx   d 8 0C FF FF FF FF FF FF FF
 2.152399 1  CFF21CAx        Rx   d 8 20 00 3A 16 3A 35 00 14
 2.168408 1  CFF21CAx        Rx   d 8 20 00 3F 16 3A 35 00 14
 2.168532 1  18F100D0x       Rx   d 8 0C FF FF FF FF FF FF FF
 2.168647 1  18FF2112x       Rx   d 8 01 00 00 00 00 00 00 00
 2.176332 1  CFF21CAx        Rx   d 8 20 00 3A 16 3A 35 00 14
 2.187999 1  CFF21CAx        Rx   d 8 20 00 3D 16 3A 35 00 14
 2.188560 1  18F100D0x       Rx   d 8 0C FF FF FF FF FF FF FF
 2.200514 1  CFF21CAx        Rx   d 8 1F 00 39 16 3A 35 00 14
 2.210359 1  18F100F3x       Rx   d 8 03 40 7D 72 FA FA 14 00
 2.211256 1  18F102F3x       Rx   d 8 10 46 10 3E 10 0C 00 08
 2.212553 1  CFF21CAx        Rx   d 8 1F 00 39 16 3A 35 00 14
 2.213113 1  18F106F3x       Rx   d 8 45 E0 FC FF FF FF FF FF
 2.214414 1  18F107F3x       Rx   d 8 38 A4 27 10 01 76 00 00
 2.216147 1  18F108F3x       Rx   d 8 10 00 04 00 00 00 00 01
 2.216724 1  18F100D0x       Rx   d 8 0C FF FF FF FF FF FF FF
 2.217272 1  18F155F3x       Rx   d 8 38 38 39 39 39 3A 39 00
 2.218220 1  18F156F3x       Rx   d 8 00 00 00 00 00 00 00 00
 2.219146 1  18F157F3x       Rx   d 8 00 00 00 00 00 00 00 00
 2.220076 1  18F158F3x       Rx   d 8 00 00 00 00 00 00 00 00
 2.221032 1  18F159F3x       Rx   d 8 00 00 00 00 00 00 00 00
 2.222200 1  18F15AF3x       Rx   d 8 00 00 00 00 00 00 00 00
 2.223061 1  18F15BF3x       Rx   d 7 00 00 00 00 00 00 00
 2.223952 1  18F15CF3x       Rx   d 8 00 00 00 00 00 00 00 00
 2.224545 1  CFF21CAx        Rx   d 8 1F 00 3A 16 3A 35 00 14
 2.225122 1  18F15DF3x       Rx   d 8 00 00 00 00 00 00 00 00
 2.226030 1  18F15EF3x       Rx   d 8 00 00 00 00 00 00 00 00
 2.236219 1  CFF21CAx        Rx   d 8 1F 00 3A 16 3A 35 00 14
 2.240591 1  18F100D0x       Rx   d 8 0C FF FF FF FF FF FF FF
 2.248685 1  CFF21CAx        Rx   d 8 1F 00 3B 16 3A 35 00 14
 2.260337 1  CFF21CAx        Rx   d 8 1F 00 3A 16 3A 35 00 14
 2.262195 1  18FF2112x       Rx   d 8 01 00 00 00 00 00 00 00
 2.264896 1  18F100D0x       Rx   d 8 0C FF FF FF FF FF FF FF
 2.272843 1  CFF21CAx        Rx   d 8 1F 00 3A 16 3A 35 00 14
 2.284477 1  CFF21CAx        Rx   d 8 1F 00 3F 16 3A 35 00 14
 2.288933 1  18F100D0x       Rx   d 8 0C FF FF FF FF FF FF FF
 2.297139 1  CFF21CAx        Rx   d 8 1E 00 3A 16 3A 35 00 14
 2.308654 1  CFF21CAx        Rx   d 8 1E 00 3E 16 3A 35 00 14
 2.310487 1  18F100F3x       Rx   d 8 03 40 7D 72 FA FA 14 00
 2.311219 1  18F102F3x       Rx   d 8 10 46 10 3E 10 0C 00 08
 2.312929 1  18F106F3x       Rx   d 8 45 E0 FC FF FF FF FF FF
 2.313539 1  18F100D0x       Rx   d 8 0C FF FF FF FF FF FF FF
 2.314365 1  18F107F3x       Rx   d 8 38 A4 27 10 01 76 00 00
 2.316227 1  18F108F3x       Rx   d 8 10 00 04 00 00 00 00 01
 2.317160 1  18F155F3x       Rx   d 8 38 38 39 39 39 3A 39 00
 2.318067 1  18F156F3x       Rx   d 8 00 00 00 00 00 00 00 00
 2.318937 1  18F157F3x       Rx   d 8 00 00 00 00 00 00 00 00
 2.319655 1  18F158F3x       Rx   d 8 00 00 00 00 00 00 00 00
 2.320677 1  18F159F3x       Rx   d 8 00 00 00 00 00 00 00 00
 2.321242 1  CFF21CAx        Rx   d 8 1E 00 3E 16 3A 35 00 14
 2.321829 1  18F15AF3x       Rx   d 8 00 00 00 00 00 00 00 00
 2.322631 1  18F15BF3x       Rx   d 7 00 00 00 00 00 00 00
 2.323460 1  18F15CF3x       Rx   d 8 00 00 00 00 00 00 00 00
 2.324216 1  18F15DF3x       Rx   d 8 00 00 00 00 00 00 00 00
 2.325106 1  18F15EF3x       Rx   d 8 00 00 00 00 00 00 00 00
 2.332543 1  CFF21CAx        Rx   d 8 1E 00 3A 16 3A 35 00 14
 2.340599 1  18F100D0x       Rx   d 8 0C FF FF FF FF FF FF FF
 2.345151 1  CFF21CAx        Rx   d 8 1E 00 3A 16 3A 35 00 14
 2.356826 1  CFF21CAx        Rx   d 8 1E 00 3A 16 3A 35 00 14
 2.359392 1  18FF2112x       Rx   d 8 01 00 00 00 00 00 00 00
 2.361148 1  18F100D0x       Rx   d 8 0C FF FF FF FF FF FF FF
 2.368808 1  CFF21CAx        Rx   d 8 1E 00 3A 16 3A 35 00 14
 2.386134 1  CFF21CAx        Rx   d 8 1E 00 3A 16 3A 35 00 14
 2.388801 1  18F100D0x       Rx   d 8 0C FF FF FF FF FF FF FF
 2.393238 1  CFF21CAx        Rx   d 8 1E 00 3A 16 3A 35 00 14
 2.404969 1  CFF21CAx        Rx   d 8 1E 00 3A 16 3A 35 00 14
 2.409356 1  18F100D0x       Rx   d 8 0C FF FF FF FF FF FF FF
 2.410030 1  18F104F3x       Rx   d 8 3A 38 06 01 02 FF FF FF
 2.410805 1  18F100F3x       Rx   d 8 03 40 7D 70 FA FA 14 00
 2.411744 1  18F102F3x       Rx   d 8 10 46 10 3E 10 0C 00 08
 2.413174 1  18F106F3x       Rx   d 8 45 E0 FC FF FF FF FF FF
 2.414553 1  18F107F3x       Rx   d 8 38 A4 27 10 01 76 00 00
 2.416362 1  18F108F3x       Rx   d 8 10 00 04 00 00 00 00 01
 2.417330 1  18F113F3x       Rx   d 8 10 41 10 41 10 41 10 41
 2.417908 1  CFF21CAx        Rx   d 8 1E 00 3B 16 3A 35 00 14
 2.418388 1  18F114F3x       Rx   d 8 10 40 10 3F 10 42 10 41
 2.419384 1  18F115F3x       Rx   d 8 10 3F 10 3F 10 40 10 3E
 2.420326 1  18F116F3x       Rx   d 8 10 43 10 41 10 44 10 46
 2.421241 1  18F117F3x       Rx   d 8 10 41 10 41 10 45 10 44
 2.422485 1  18F118F3x       Rx   d 8 00 00 00 00 00 00 00 00
 2.423438 1  18F119F3x       Rx   d 8 00 00 00 00 00 00 00 00
 2.424351 1  18F11AF3x       Rx   d 8 00 00 00 00 00 00 00 00
 2.425342 1  18F11BF3x       Rx   d 8 00 00 00 00 00 00 00 00
 2.426320 1  18F11CF3x       Rx   d 8 00 00 00 00 00 00 00 00
 2.427273 1  18F11DF3x       Rx   d 8 00 00 00 00 00 00 00 00
 2.428249 1  18F11EF3x       Rx   d 8 00 00 00 00 00 00 00 00
 2.428922 1  CFF21CAx        Rx   d 8 1E 00 3B 16 3A 35 00 14
 2.429506 1  18F11FF3x       Rx   d 8 00 00 00 00 00 00 00 00
 2.430455 1  18F120F3x       Rx   d 8 00 00 00 00 00 00 00 00
 2.431371 1  18F121F3x       Rx   d 8 00 00 00 00 00 00 00 00
 2.432498 1  18F122F3x       Rx   d 8 00 00 00 00 00 00 00 00
 2.433415 1  18F123F3x       Rx   d 8 00 00 00 00 00 00 00 00
 2.434311 1  18F124F3x       Rx   d 8 00 00 00 00 00 00 00 00
 2.435280 1  18F125F3x       Rx   d 8 00 00 00 00 00 00 00 00
 2.436239 1  18F126F3x       Rx   d 8 00 00 00 00 00 00 00 00
 2.436994 1  18F100D0x       Rx   d 8 0C FF FF FF FF FF FF FF
