date Sat May 09 09:05:57.209 2026
base hex  timestamps absolute
internal events logged
Begin Triggerblock Sat May 09 09:05:57.215 2026
 0.000000 Start of measurement
 0.000000 1  CFF21CAx        Rx   d 8 03 00 80 0C 3B 37 00 10
 0.000170 1  18F100D0x       Rx   d 8 0C FF FF FF FF FF FF FF
 0.000265 1  CFF21CAx        Rx   d 8 03 00 80 0C 3B 37 00 10
 0.005661 1  18FF2112x       Rx   d 8 01 00 00 00 00 00 00 00
 0.007996 1  CFF21CAx        Rx   d 8 03 00 80 0C 3B 37 00 10
 0.008515 1  18F100D0x       Rx   d 8 0C FF FF FF FF FF FF FF
 0.020061 1  CFF21CAx        Rx   d 8 03 00 80 0C 3B 37 00 10
 0.020613 1  18F104F3x       Rx   d 8 38 37 03 01 01 FF FF FF
 0.021504 1  18F113F3x       Rx   d 8 10 2C 10 2C 10 2D 10 2D
 0.022431 1  18F100F3x       Rx   d 8 03 3C 7D 11 F7 FA 14 00
 0.023403 1  18F102F3x       Rx   d 8 10 32 10 2A 10 0C 00 08
 0.024793 1  18F106F3x       Rx   d 8 45 E0 FC FF FF FF FF FF
 0.026131 1  18F107F3x       Rx   d 8 38 A4 27 10 01 75 00 00
 0.028004 1  18F108F3x       Rx   d 8 00 00 00 00 00 00 00 00
 0.028990 1  18F114F3x       Rx   d 8 10 2B 10 2B 10 2D 10 2D
 0.029958 1  18F115F3x       Rx   d 8 10 2B 10 2B 10 2B 10 2A
 0.030905 1  18F116F3x       Rx   d 8 10 2E 10 2D 10 2F 10 32
 0.031859 1  18F117F3x       Rx   d 8 10 2C 10 2D 10 30 10 30
 0.032422 1  CFF21CAx        Rx   d 8 03 00 80 0C 3B 37 00 10
 0.033014 1  18F100D0x       Rx   d 8 0C FF FF FF FF FF FF FF
 0.033597 1  18F118F3x       Rx   d 8 00 00 00 00 00 00 00 00
 0.034518 1  18F119F3x       Rx   d 8 00 00 00 00 00 00 00 00
 0.035460 1  18F11AF3x       Rx   d 8 00 00 00 00 00 00 00 00
 0.036397 1  18F11BF3x       Rx   d 8 00 00 00 00 00 00 00 00
 0.037290 1  18F11CF3x       Rx   d 8 00 00 00 00 00 00 00 00
 0.038236 1  18F11DF3x       Rx   d 8 00 00 00 00 00 00 00 00
 0.039144 1  18F11EF3x       Rx   d 8 00 00 00 00 00 00 00 00
 0.040094 1  18F11FF3x       Rx   d 8 00 00 00 00 00 00 00 00
 0.041037 1  18F120F3x       Rx   d 8 00 00 00 00 00 00 00 00
 0.041962 1  18F121F3x       Rx   d 8 00 00 00 00 00 00 00 00
 0.042952 1  18F122F3x       Rx   d 8 00 00 00 00 00 00 00 00
 0.044177 1  18F123F3x       Rx   d 8 00 00 00 00 00 00 00 00
 0.044761 1  CFF21CAx        Rx   d 8 03 00 80 0C 3B 37 00 10
 0.045314 1  18F124F3x       Rx   d 8 00 00 00 00 00 00 00 00
 0.046245 1  18F125F3x       Rx   d 8 00 00 00 00 00 00 00 00
 0.047139 1  18F126F3x       Rx   d 8 00 00 00 00 00 00 00 00
 0.048063 1  18F127F3x       Rx   d 8 00 00 00 00 00 00 00 00
 0.048977 1  18F128F3x       Rx   d 8 00 00 00 00 00 00 00 00
 0.049938 1  18F129F3x       Rx   d 8 00 00 00 00 00 00 00 00
 0.050860 1  18F12AF3x       Rx   d 8 00 00 00 00 00 00 00 00
 0.051848 1  18F12BF3x       Rx   d 8 00 00 00 00 00 00 00 00
 0.052772 1  18F12CF3x       Rx   d 8 00 00 00 00 00 00 00 00
 0.053981 1  18F12DF3x       Rx   d 8 00 00 00 00 00 00 00 00
 0.054909 1  18F12EF3x       Rx   d 8 00 00 00 00 00 00 00 00
 0.055846 1  18F12FF3x       Rx   d 8 00 00 00 00 00 00 00 00
 0.056399 1  CFF21CAx        Rx   d 8 03 00 80 0C 3B 37 00 10
 0.057003 1  18F100D0x       Rx   d 8 0C FF FF FF FF FF FF FF
 0.057565 1  18F130F3x       Rx   d 8 00 00 00 00 00 00 00 00
 0.058469 1  18F131F3x       Rx   d 8 00 00 00 00 00 00 00 00
 0.059355 1  18F132F3x       Rx   d 8 00 00 00 00 00 00 00 00
 0.060200 1  18F133F3x       Rx   d 8 00 00 00 00 00 00 00 00
 0.061102 1  18F134F3x       Rx   d 8 00 00 00 00 00 00 00 00
 0.061963 1  18F135F3x       Rx   d 8 00 00 00 00 00 00 00 00
 0.062922 1  18F136F3x       Rx   d 8 00 00 00 00 00 00 00 00
 0.064118 1  18F137F3x       Rx   d 8 00 00 00 00 00 00 00 00
 0.064978 1  18F138F3x       Rx   d 8 00 00 00 00 00 00 00 00
 0.065879 1  18F139F3x       Rx   d 8 00 00 00 00 00 00 00 00
 0.066836 1  18F13AF3x       Rx   d 8 00 00 00 00 00 00 00 00
 0.067744 1  18F13BF3x       Rx   d 8 00 00 00 00 00 00 00 00
 0.068294 1  CFF21CAx        Rx   d 8 03 00 80 0C 3B 37 00 10
 0.068867 1  18F13CF3x       Rx   d 8 00 00 00 00 00 00 00 00
 0.069813 1  18F155F3x       Rx   d 8 37 37 38 38 38 38 37 00
 0.070810 1  18F156F3x       Rx   d 8 00 00 00 00 00 00 00 00
 0.071602 1  18F157F3x       Rx   d 8 00 00 00 00 00 00 00 00
 0.072494 1  18F158F3x       Rx   d 8 00 00 00 00 00 00 00 00
 0.073401 1  18F159F3x       Rx   d 8 00 00 00 00 00 00 00 00
 0.074236 1  18F15AF3x       Rx   d 8 00 00 00 00 00 00 00 00
 0.075099 1  18F15BF3x       Rx   d 7 00 00 00 00 00 00 00
 0.075969 1  18F15CF3x       Rx   d 8 00 00 00 00 00 00 00 00
 0.076842 1  18F15DF3x       Rx   d 8 00 00 00 00 00 00 00 00
 0.077738 1  18F15EF3x       Rx   d 8 00 00 00 00 00 00 00 00
 0.080280 1  CFF21CAx        Rx   d 8 04 00 80 0C 3B 37 00 10
 0.080828 1  18F100D0x       Rx   d 8 0C FF FF FF FF FF FF FF
 0.092403 1  CFF21CAx        Rx   d 8 04 00 80 0C 3B 37 00 10
 0.102915 1  18FF2112x       Rx   d 8 01 00 00 00 00 00 00 00
 0.104356 1  CFF21CAx        Rx   d 8 04 00 80 0C 3B 37 00 10
 0.104922 1  18F100D0x       Rx   d 8 0C FF FF FF FF FF FF FF
 0.116435 1  CFF21CAx        Rx   d 8 04 00 80 0C 3B 37 00 10
 0.122107 1  18F100F3x       Rx   d 8 03 3C 7D 11 F7 FA 14 00
 0.122948 1  18F102F3x       Rx   d 8 10 32 10 2A 10 0C 00 08
 0.124502 1  18F106F3x       Rx   d 8 45 E0 FC FF FF FF FF FF
 0.126027 1  18F107F3x       Rx   d 8 38 A4 27 10 01 75 00 00
 0.127602 1  18F108F3x       Rx   d 8 00 00 00 00 00 00 00 00
 0.128441 1  18F155F3x       Rx   d 8 37 37 38 38 38 38 37 00
 0.128987 1  CFF21CAx        Rx   d 8 04 00 80 0C 3B 37 00 10
 0.129565 1  18F100D0x       Rx   d 8 0C FF FF FF FF FF FF FF
 0.130148 1  18F156F3x       Rx   d 8 00 00 00 00 00 00 00 00
 0.131055 1  18F157F3x       Rx   d 8 00 00 00 00 00 00 00 00
 0.132014 1  18F158F3x       Rx   d 8 00 00 00 00 00 00 00 00
 0.132907 1  18F159F3x       Rx   d 8 00 00 00 00 00 00 00 00
 0.134168 1  18F15AF3x       Rx   d 8 00 00 00 00 00 00 00 00
 0.134895 1  18F15BF3x       Rx   d 7 00 00 00 00 00 00 00
 0.135835 1  18F15CF3x       Rx   d 8 00 00 00 00 00 00 00 00
 0.136749 1  18F15DF3x       Rx   d 8 00 00 00 00 00 00 00 00
 0.137531 1  18F15EF3x       Rx   d 8 00 00 00 00 00 00 00 00
 0.140963 1  CFF21CAx        Rx   d 8 04 00 80 0C 3B 37 00 10
 0.152688 1  CFF21CAx        Rx   d 8 04 00 80 0C 3B 37 00 10
 0.156790 1  18F100D0x       Rx   d 8 0C FF FF FF FF FF FF FF
 0.164801 1  CFF21CAx        Rx   d 8 04 00 80 0C 3B 37 00 10
 0.176691 1  CFF21CAx        Rx   d 8 04 00 80 0C 3B 37 00 10
 0.180668 1  18F100D0x       Rx   d 8 0C FF FF FF FF FF FF FF
 0.188912 1  CFF21CAx        Rx   d 8 04 00 80 0C 3B 37 00 10
 0.200429 1  18FF2112x       Rx   d 8 01 00 00 00 00 00 00 00
 0.200985 1  CFF21CAx        Rx   d 8 04 00 80 0C 3B 37 00 10
 0.205231 1  18F100D0x       Rx   d 8 0C FF FF FF FF FF FF FF
 0.219189 1  CFF21CAx        Rx   d 8 03 00 80 0C 3B 37 00 10
 0.222211 1  18F100F3x       Rx   d 8 03 3C 7D 11 F7 FA 14 00
 0.222956 1  18F102F3x       Rx   d 8 10 32 10 2A 10 0C 00 08
 0.224496 1  18F106F3x       Rx   d 8 45 E0 FC FF FF FF FF FF
 0.225068 1  CFF21CAx        Rx   d 8 03 00 80 0C 3B 37 00 10
 0.225816 1  18F107F3x       Rx   d 8 38 A4 27 10 01 75 00 00
 0.227610 1  18F108F3x       Rx   d 8 00 00 00 00 00 00 00 00
 0.228486 1  18F155F3x       Rx   d 8 37 37 38 38 38 38 38 00
 0.229057 1  18F100D0x       Rx   d 8 0C FF FF FF FF FF FF FF
 0.229622 1  18F156F3x       Rx   d 8 00 00 00 00 00 00 00 00
 0.230588 1  18F157F3x       Rx   d 8 00 00 00 00 00 00 00 00
 0.231406 1  18F158F3x       Rx   d 8 00 00 00 00 00 00 00 00
 0.232290 1  18F159F3x       Rx   d 8 00 00 00 00 00 00 00 00
 0.233179 1  18F15AF3x       Rx   d 8 00 00 00 00 00 00 00 00
 0.234161 1  18F15BF3x       Rx   d 7 00 00 00 00 00 00 00
 0.235018 1  18F15CF3x       Rx   d 8 00 00 00 00 00 00 00 00
 0.235882 1  18F15DF3x       Rx   d 8 00 00 00 00 00 00 00 00
 0.236823 1  18F15EF3x       Rx   d 8 00 00 00 00 00 00 00 00
 0.237326 1  CFF21CAx        Rx   d 8 03 00 80 0C 3B 37 00 10
 0.249018 1  CFF21CAx        Rx   d 8 03 00 80 0C 3B 37 00 10
 0.257034 1  18F100D0x       Rx   d 8 0C FF FF FF FF FF FF FF
 0.261028 1  CFF21CAx        Rx   d 8 03 00 80 0C 3B 37 00 10
 0.273094 1  CFF21CAx        Rx   d 8 03 00 80 0C 3B 37 00 10
 0.281177 1  18F100D0x       Rx   d 8 0C FF FF FF FF FF FF FF
 0.285087 1  CFF21CAx        Rx   d 8 03 00 80 0C 3B 37 00 10
 0.297184 1  CFF21CAx        Rx   d 8 03 00 80 0C 3B 37 00 10
 0.297741 1  18FF2112x       Rx   d 8 01 00 00 00 00 00 00 00
 0.305304 1  18F100D0x       Rx   d 8 0C FF FF FF FF FF FF FF
 0.309302 1  CFF21CAx        Rx   d 8 03 00 80 0C 3B 37 00 10
 0.321310 1  CFF21CAx        Rx   d 8 03 00 80 0C 3B 37 00 10
 0.322104 1  18F100F3x       Rx   d 8 03 3C 7D 11 F7 FA 14 00
 0.322971 1  18F102F3x       Rx   d 8 10 32 10 2A 10 0C 00 08
 0.324593 1  18F106F3x       Rx   d 8 45 E0 FC FF FF FF FF FF
 0.325899 1  18F107F3x       Rx   d 8 38 A4 27 10 01 75 00 00
 0.327664 1  18F108F3x       Rx   d 8 00 00 00 00 00 00 00 00
 0.328527 1  18F155F3x       Rx   d 8 37 37 38 38 38 38 38 00
 0.329438 1  18F100D0x       Rx   d 8 0C FF FF FF FF FF FF FF
 0.330029 1  18F156F3x       Rx   d 8 00 00 00 00 00 00 00 00
 0.330971 1  18F157F3x       Rx   d 8 00 00 00 00 00 00 00 00
 0.331793 1  18F158F3x       Rx   d 8 00 00 00 00 00 00 00 00
 0.332760 1  18F159F3x       Rx   d 8 00 00 00 00 00 00 00 00
 0.333421 1  CFF21CAx        Rx   d 8 02 00 80 0C 3B 37 00 10
 0.334001 1  18F15AF3x       Rx   d 8 00 00 00 00 00 00 00 00
 0.334854 1  18F15BF3x       Rx   d 7 00 00 00 00 00 00 00
 0.335596 1  18F15CF3x       Rx   d 8 00 00 00 00 00 00 00 00
 0.336564 1  18F15DF3x       Rx   d 8 00 00 00 00 00 00 00 00
 0.337421 1  18F15EF3x       Rx   d 8 00 00 00 00 00 00 00 00
 0.345322 1  CFF21CAx        Rx   d 8 02 00 80 0C 3B 37 00 10
 0.353553 1  18F100D0x       Rx   d 8 0C FF FF FF FF FF FF FF
 0.357526 1  CFF21CAx        Rx   d 8 02 00 80 0C 3B 37 00 10
 0.369428 1  CFF21CAx        Rx   d 8 02 00 80 0C 3B 37 00 10
 0.377474 1  18F100D0x       Rx   d 8 0C FF FF FF FF FF FF FF
 0.381477 1  CFF21CAx        Rx   d 8 02 00 80 0C 3B 37 00 10
 0.393674 1  CFF21CAx        Rx   d 8 02 00 80 0C 3B 37 00 10
 0.394796 1  18FF2112x       Rx   d 8 01 00 00 00 00 00 00 00
 0.401716 1  18F100D0x       Rx   d 8 0C FF FF FF FF FF FF FF
 0.402215 1  18FECACAx       Rx   d 8 00 00 00 00 00 00 FF FF
 0.405711 1  CFF21CAx        Rx   d 8 02 00 80 0C 3B 37 00 10
 0.417833 1  CFF21CAx        Rx   d 8 02 00 80 0C 3B 37 00 10
 0.422238 1  18F100F3x       Rx   d 8 03 3C 7D 11 F7 FA 14 00
 0.423041 1  18F102F3x       Rx   d 8 10 32 10 2A 10 0C 00 08
 0.424665 1  18F106F3x       Rx   d 8 45 E0 FC FF FF FF FF FF
 0.437781 1  18F107F3x       Rx   d 8 38 A4 27 10 01 75 00 00
 0.437910 1  18F108F3x       Rx   d 8 00 00 00 00 00 00 00 00
 0.438016 1  18F155F3x       Rx   d 8 37 37 38 38 38 38 38 00
 0.438122 1  18F156F3x       Rx   d 8 00 00 00 00 00 00 00 00
 0.438222 1  CFF21CAx        Rx   d 8 02 00 80 0C 3B 37 00 10
 0.438325 1  18F100D0x       Rx   d 8 0C FF FF FF FF FF FF FF
 0.438423 1  18F157F3x       Rx   d 8 00 00 00 00 00 00 00 00
 0.438521 1  18F158F3x       Rx   d 8 00 00 00 00 00 00 00 00
 0.438619 1  18F159F3x       Rx   d 8 00 00 00 00 00 00 00 00
 0.438718 1  18F15AF3x       Rx   d 8 00 00 00 00 00 00 00 00
 0.438810 1  18F15BF3x       Rx   d 7 00 00 00 00 00 00 00
 0.438910 1  18F15CF3x       Rx   d 8 00 00 00 00 00 00 00 00
 0.439048 1  18F15DF3x       Rx   d 8 00 00 00 00 00 00 00 00
 0.439165 1  18F15EF3x       Rx   d 8 00 00 00 00 00 00 00 00
 0.441762 1  CFF21CAx        Rx   d 8 02 00 80 0C 3B 37 00 10
 0.453851 1  CFF21CAx        Rx   d 8 02 00 80 0C 3B 37 00 10
 0.454377 1  18F100D0x       Rx   d 8 0C FF FF FF FF FF FF FF
 0.465883 1  CFF21CAx        Rx   d 8 02 00 80 0C 3B 37 00 10
 0.477877 1  CFF21CAx        Rx   d 8 02 00 80 0C 3B 37 00 10
 0.481988 1  18F100D0x       Rx   d 8 0C FF FF FF FF FF FF FF
 0.489937 1  CFF21CAx        Rx   d 8 02 00 80 0C 3B 37 00 10
 0.492065 1  18FF2112x       Rx   d 8 01 00 00 00 00 00 00 00
 0.502016 1  CFF21CAx        Rx   d 8 02 00 80 0C 3B 37 00 10
 0.506150 1  18F100D0x       Rx   d 8 0C FF FF FF FF FF FF FF
 0.514064 1  CFF21CAx        Rx   d 8 02 00 80 0C 3B 37 00 10
 0.522154 1  18F100F3x       Rx   d 8 03 3C 7D 11 F7 FA 14 00
 0.522988 1  18F102F3x       Rx   d 8 10 32 10 2A 10 0C 00 08
 0.524578 1  18F106F3x       Rx   d 8 45 E0 FC FF FF FF FF FF
 0.525890 1  18F107F3x       Rx   d 8 38 A4 27 10 01 75 00 00
 0.526401 1  CFF21CAx        Rx   d 8 02 00 80 0C 3B 37 00 10
 0.527574 1  18F108F3x       Rx   d 8 00 00 00 00 00 00 00 00
 0.528569 1  18F155F3x       Rx   d 8 37 37 38 38 38 38 38 00
 0.529422 1  18F156F3x       Rx   d 8 00 00 00 00 00 00 00 00
 0.530206 1  18F100D0x       Rx   d 8 0C FF FF FF FF FF FF FF
 0.530788 1  18F157F3x       Rx   d 8 00 00 00 00 00 00 00 00
 0.531576 1  18F158F3x       Rx   d 8 00 00 00 00 00 00 00 00
 0.532577 1  18F159F3x       Rx   d 8 00 00 00 00 00 00 00 00
 0.533505 1  18F15AF3x       Rx   d 8 00 00 00 00 00 00 00 00
 0.534312 1  18F15BF3x       Rx   d 7 00 00 00 00 00 00 00
 0.535226 1  18F15CF3x       Rx   d 8 00 00 00 00 00 00 00 00
 0.535941 1  18F15DF3x       Rx   d 8 00 00 00 00 00 00 00 00
 0.537097 1  18F15EF3x       Rx   d 8 00 00 00 00 00 00 00 00
 0.538276 1  CFF21CAx        Rx   d 8 02 00 80 0C 3B 37 00 10
 0.550382 1  CFF21CAx        Rx   d 8 02 00 80 0C 3B 37 00 10
 0.554366 1  18F100D0x       Rx   d 8 0C FF FF FF FF FF FF FF
 0.562240 1  CFF21CAx        Rx   d 8 02 00 80 0C 3B 37 00 10
 0.574295 1  CFF21CAx        Rx   d 8 02 00 80 0C 3B 37 00 10
 0.578364 1  18F100D0x       Rx   d 8 0C FF FF FF FF FF FF FF
 0.586403 1  CFF21CAx        Rx   d 8 02 00 80 0C 3B 37 00 10
 0.589331 1  18FF2112x       Rx   d 8 01 00 00 00 00 00 00 00
 0.598422 1  CFF21CAx        Rx   d 8 03 00 80 0C 3B 37 00 10
 0.602441 1  18F100D0x       Rx   d 8 0C FF FF FF FF FF FF FF
 0.611016 1  CFF21CAx        Rx   d 8 03 00 80 0C 3B 37 00 10
 0.622407 1  18F100F3x       Rx   d 8 03 3C 7D 11 F7 FA 14 00
 0.622837 1  CFF21CAx        Rx   d 8 03 00 80 0C 3B 37 00 10
 0.623364 1  18F102F3x       Rx   d 8 10 32 10 2A 10 0C 00 08
 0.624619 1  18F106F3x       Rx   d 8 45 E0 FC FF FF FF FF FF
 0.625917 1  18F107F3x       Rx   d 8 38 A4 27 10 01 75 00 00
 0.627634 1  18F108F3x       Rx   d 8 00 00 00 00 00 00 00 00
 0.628487 1  18F155F3x       Rx   d 8 37 37 38 38 38 38 37 00
 0.629381 1  18F156F3x       Rx   d 8 00 00 00 00 00 00 00 00
 0.630261 1  18F157F3x       Rx   d 8 00 00 00 00 00 00 00 00
 0.630841 1  18F100D0x       Rx   d 8 0C FF FF FF FF FF FF FF
 0.631424 1  18F158F3x       Rx   d 8 00 00 00 00 00 00 00 00
 0.632325 1  18F159F3x       Rx   d 8 00 00 00 00 00 00 00 00
 0.633197 1  18F15AF3x       Rx   d 8 00 00 00 00 00 00 00 00
 0.634302 1  18F15BF3x       Rx   d 7 00 00 00 00 00 00 00
 0.634698 1  CFF21CAx        Rx   d 8 02 00 80 0C 3B 37 00 10
 0.635449 1  18F15CF3x       Rx   d 8 00 00 00 00 00 00 00 00
 0.636279 1  18F15DF3x       Rx   d 8 00 00 00 00 00 00 00 00
 0.637127 1  18F15EF3x       Rx   d 8 00 00 00 00 00 00 00 00
 0.657698 1  CFF21CAx        Rx   d 8 02 00 80 0C 3B 37 00 10
 0.657827 1  18F100D0x       Rx   d 8 0C FF FF FF FF FF FF FF
 0.658638 1  CFF21CAx        Rx   d 8 02 00 80 0C 3B 37 00 10
 0.670718 1  CFF21CAx        Rx   d 8 02 00 80 0C 3B 37 00 10
 0.678723 1  18F100D0x       Rx   d 8 0C FF FF FF FF FF FF FF
 0.682760 1  CFF21CAx        Rx   d 8 02 00 80 0C 3B 37 00 10
 0.686651 1  18FF2112x       Rx   d 8 01 00 00 00 00 00 00 00
 0.694879 1  CFF21CAx        Rx   d 8 03 00 80 0C 3B 37 00 10
 0.702909 1  18F100D0x       Rx   d 8 0C FF FF FF FF FF FF FF
 0.707342 1  CFF21CAx        Rx   d 8 03 00 80 0C 3B 37 00 10
 0.718960 1  CFF21CAx        Rx   d 8 02 00 80 0C 3B 37 00 10
 0.723117 1  18F100F3x       Rx   d 8 03 3C 7D 11 F7 FA 14 00
 0.724364 1  18F102F3x       Rx   d 8 10 32 10 2A 10 0C 00 08
 0.725489 1  18F106F3x       Rx   d 8 45 E0 FC FF FF FF FF FF
 0.726733 1  18F107F3x       Rx   d 8 38 A4 27 10 01 75 00 00
 0.728486 1  18F108F3x       Rx   d 8 00 00 00 00 00 00 00 00
 0.729415 1  18F155F3x       Rx   d 8 37 37 38 38 38 38 37 00
 0.730240 1  18F156F3x       Rx   d 8 00 00 00 00 00 00 00 00
 0.730987 1  CFF21CAx        Rx   d 8 02 00 80 0C 3B 37 00 10
 0.731517 1  18F100D0x       Rx   d 8 0C FF FF FF FF FF FF FF
 0.732085 1  18F157F3x       Rx   d 8 00 00 00 00 00 00 00 00
 0.733026 1  18F158F3x       Rx   d 8 00 00 00 00 00 00 00 00
 0.734224 1  18F159F3x       Rx   d 8 00 00 00 00 00 00 00 00
 0.735063 1  18F15AF3x       Rx   d 8 00 00 00 00 00 00 00 00
 0.735980 1  18F15BF3x       Rx   d 7 00 00 00 00 00 00 00
 0.736850 1  18F15CF3x       Rx   d 8 00 00 00 00 00 00 00 00
 0.737736 1  18F15DF3x       Rx   d 8 00 00 00 00 00 00 00 00
 0.738572 1  18F15EF3x       Rx   d 8 00 00 00 00 00 00 00 00
 0.743029 1  CFF21CAx        Rx   d 8 02 00 80 0C 3B 37 00 10
 0.755242 1  CFF21CAx        Rx   d 8 02 00 80 0C 3B 37 00 10
 0.755890 1  18F100D0x       Rx   d 8 0C FF FF FF FF FF FF FF
 0.767133 1  CFF21CAx        Rx   d 8 02 00 80 0C 3B 37 00 10
 0.779722 1  CFF21CAx        Rx   d 8 02 00 80 0C 3B 37 00 10
 0.780123 1  18F100D0x       Rx   d 8 0C FF FF FF FF FF FF FF
 0.783957 1  18FF2112x       Rx   d 8 01 00 00 00 00 00 00 00
 0.791278 1  CFF21CAx        Rx   d 8 02 00 80 0C 3B 37 00 10
 0.803929 1  CFF21CAx        Rx   d 8 02 00 80 0C 3B 37 00 10
 0.804461 1  18F100D0x       Rx   d 8 0C FF FF FF FF FF FF FF
 0.815424 1  CFF21CAx        Rx   d 8 02 00 80 0C 3B 37 00 10
 0.823287 1  18F100F3x       Rx   d 8 03 3C 7D 11 F7 FA 14 00
 0.824361 1  18F102F3x       Rx   d 8 10 32 10 2A 10 0C 00 08
 0.825604 1  18F106F3x       Rx   d 8 45 E0 FC FF FF FF FF FF
 0.826892 1  18F107F3x       Rx   d 8 38 A4 27 10 01 75 00 00
 0.827962 1  CFF21CAx        Rx   d 8 02 00 80 0C 3B 37 00 10
 0.828532 1  18F100D0x       Rx   d 8 0C FF FF FF FF FF FF FF
 0.829098 1  18F108F3x       Rx   d 8 00 00 00 00 00 00 00 00
 0.830023 1  18F155F3x       Rx   d 8 37 37 38 38 38 38 37 00
 0.831070 1  18F156F3x       Rx   d 8 00 00 00 00 00 00 00 00
 0.831965 1  18F157F3x       Rx   d 8 00 00 00 00 00 00 00 00
 0.832785 1  18F158F3x       Rx   d 8 00 00 00 00 00 00 00 00
 0.833773 1  18F159F3x       Rx   d 8 00 00 00 00 00 00 00 00
 0.834560 1  18F15AF3x       Rx   d 8 00 00 00 00 00 00 00 00
 0.835292 1  18F15BF3x       Rx   d 7 00 00 00 00 00 00 00
 0.836047 1  18F15CF3x       Rx   d 8 00 00 00 00 00 00 00 00
 0.837102 1  18F15DF3x       Rx   d 8 00 00 00 00 00 00 00 00
 0.837982 1  18F15EF3x       Rx   d 8 00 00 00 00 00 00 00 00
 0.839480 1  CFF21CAx        Rx   d 8 02 00 80 0C 3B 37 00 10
 0.851467 1  CFF21CAx        Rx   d 8 02 00 80 0C 3B 37 00 10
 0.852154 1  18F100D0x       Rx   d 8 0C FF FF FF FF FF FF FF
 0.863610 1  CFF21CAx        Rx   d 8 02 00 80 0C 3B 37 00 10
 0.877113 1  CFF21CAx        Rx   d 8 02 00 80 0C 3B 37 00 10
 0.877230 1  18F100D0x       Rx   d 8 0C FF FF FF FF FF FF FF
 0.881209 1  18FF2112x       Rx   d 8 01 00 00 00 00 00 00 00
 0.887601 1  CFF21CAx        Rx   d 8 01 00 80 0C 3B 37 00 10
 0.899717 1  CFF21CAx        Rx   d 8 01 00 80 0C 3B 37 00 10
 0.900257 1  18F100D0x       Rx   d 8 0C FF FF FF FF FF FF FF
 0.911710 1  CFF21CAx        Rx   d 8 01 00 80 0C 3B 37 00 10
 0.923350 1  18F100F3x       Rx   d 8 03 3C 7D 11 F7 FA 14 00
 0.923790 1  CFF21CAx        Rx   d 8 02 00 80 0C 3B 37 00 10
 0.924279 1  18F102F3x       Rx   d 8 10 32 10 2A 10 0C 00 08
 0.925522 1  18F106F3x       Rx   d 8 45 E0 FC FF FF FF FF FF
 0.926854 1  18F107F3x       Rx   d 8 38 A4 27 10 01 75 00 00
 0.928167 1  18F100D0x       Rx   d 8 0C FF FF FF FF FF FF FF
 0.928733 1  18F108F3x       Rx   d 8 00 00 00 00 00 00 00 00
 0.929616 1  18F155F3x       Rx   d 8 37 37 38 38 38 38 37 00
 0.930479 1  18F156F3x       Rx   d 8 00 00 00 00 00 00 00 00
 0.931372 1  18F157F3x       Rx   d 8 00 00 00 00 00 00 00 00
 0.932229 1  18F158F3x       Rx   d 8 00 00 00 00 00 00 00 00
 0.933109 1  18F159F3x       Rx   d 8 00 00 00 00 00 00 00 00
 0.934225 1  18F15AF3x       Rx   d 8 00 00 00 00 00 00 00 00
 0.935042 1  18F15BF3x       Rx   d 7 00 00 00 00 00 00 00
 0.935762 1  CFF21CAx        Rx   d 8 02 00 80 0C 3B 37 00 10
 0.936345 1  18F15CF3x       Rx   d 8 00 00 00 00 00 00 00 00
 0.937198 1  18F15DF3x       Rx   d 8 00 00 00 00 00 00 00 00
 0.938016 1  18F15EF3x       Rx   d 8 00 00 00 00 00 00 00 00
 0.948042 1  CFF21CAx        Rx   d 8 02 00 80 0C 3B 37 00 10
 0.951895 1  18F100D0x       Rx   d 8 0C FF FF FF FF FF FF FF
 0.959936 1  CFF21CAx        Rx   d 8 02 00 80 0C 3B 37 00 10
 0.972629 1  CFF21CAx        Rx   d 8 02 00 80 0C 3B 37 00 10
 0.975964 1  18F100D0x       Rx   d 8 0C FF FF FF FF FF FF FF
 0.978889 1  18FF2112x       Rx   d 8 01 00 00 00 00 00 00 00
 0.983989 1  CFF21CAx        Rx   d 8 03 00 80 0C 3B 37 00 10
 0.996721 1  CFF21CAx        Rx   d 8 03 00 80 0C 3B 37 00 10
 1.000080 1  18F100D0x       Rx   d 8 0C FF FF FF FF FF FF FF
 1.008100 1  CFF21CAx        Rx   d 8 03 00 80 0C 3B 37 00 10
 1.020948 1  CFF21CAx        Rx   d 8 03 00 80 0C 3B 37 00 10
 1.021111 1  18F104F3x       Rx   d 8 38 37 03 01 01 FF FF FF
 1.021807 1  18F113F3x       Rx   d 8 10 2C 10 2D 10 2D 10 2D
 1.022757 1  18F114F3x       Rx   d 8 10 2B 10 2B 10 2D 10 2D
 1.023650 1  18F100F3x       Rx   d 8 03 3C 7D 11 F7 FA 14 00
 1.024466 1  18F102F3x       Rx   d 8 10 32 10 2A 10 0C 00 08
 1.025883 1  18F106F3x       Rx   d 8 45 E0 FC FF FF FF FF FF
 1.027340 1  18F107F3x       Rx   d 8 38 A4 27 10 01 75 00 00
 1.028768 1  18F100D0x       Rx   d 8 0C FF FF FF FF FF FF FF
 1.029365 1  18F108F3x       Rx   d 8 00 00 00 00 00 00 00 00
 1.030267 1  18F115F3x       Rx   d 8 10 2B 10 2B 10 2B 10 2A
 1.031191 1  18F116F3x       Rx   d 8 10 2E 10 2D 10 2F 10 32
 1.032165 1  18F117F3x       Rx   d 8 10 2C 10 2D 10 31 10 30
 1.032648 1  CFF21CAx        Rx   d 8 03 00 80 0C 3B 37 00 10
 1.033229 1  18F118F3x       Rx   d 8 00 00 00 00 00 00 00 00
 1.034454 1  18F119F3x       Rx   d 8 00 00 00 00 00 00 00 00
 1.035219 1  18F11AF3x       Rx   d 8 00 00 00 00 00 00 00 00
 1.036194 1  18F11BF3x       Rx   d 8 00 00 00 00 00 00 00 00
 1.037135 1  18F11CF3x       Rx   d 8 00 00 00 00 00 00 00 00
 1.038047 1  18F11DF3x       Rx   d 8 00 00 00 00 00 00 00 00
 1.038995 1  18F11EF3x       Rx   d 8 00 00 00 00 00 00 00 00
 1.040019 1  18F11FF3x       Rx   d 8 00 00 00 00 00 00 00 00
 1.041065 1  18F120F3x       Rx   d 8 00 00 00 00 00 00 00 00
 1.042000 1  18F121F3x       Rx   d 8 00 00 00 00 00 00 00 00
 1.042993 1  18F122F3x       Rx   d 8 00 00 00 00 00 00 00 00
 1.044214 1  18F123F3x       Rx   d 8 00 00 00 00 00 00 00 00
 1.044730 1  CFF21CAx        Rx   d 8 02 00 80 0C 3B 37 00 10
 1.045305 1  18F124F3x       Rx   d 8 00 00 00 00 00 00 00 00
 1.046256 1  18F125F3x       Rx   d 8 00 00 00 00 00 00 00 00
 1.047091 1  18F126F3x       Rx   d 8 00 00 00 00 00 00 00 00
 1.048128 1  18F127F3x       Rx   d 8 00 00 00 00 00 00 00 00
 1.049002 1  18F128F3x       Rx   d 8 00 00 00 00 00 00 00 00
 1.050126 1  18F129F3x       Rx   d 8 00 00 00 00 00 00 00 00
 1.051001 1  18F12AF3x       Rx   d 8 00 00 00 00 00 00 00 00
 1.051971 1  18F12BF3x       Rx   d 8 00 00 00 00 00 00 00 00
 1.052471 1  18F100D0x       Rx   d 8 0C FF FF FF FF FF FF FF
 1.053221 1  18F12CF3x       Rx   d 8 00 00 00 00 00 00 00 00
 1.054390 1  18F12DF3x       Rx   d 8 00 00 00 00 00 00 00 00
 1.055271 1  18F12EF3x       Rx   d 8 00 00 00 00 00 00 00 00
 1.056202 1  18F12FF3x       Rx   d 8 00 00 00 00 00 00 00 00
 1.056728 1  CFF21CAx        Rx   d 8 02 00 80 0C 3B 37 00 10
 1.057374 1  18F130F3x       Rx   d 8 00 00 00 00 00 00 00 00
 1.058082 1  18F131F3x       Rx   d 8 00 00 00 00 00 00 00 00
 1.059014 1  18F132F3x       Rx   d 8 00 00 00 00 00 00 00 00
 1.059950 1  18F133F3x       Rx   d 8 00 00 00 00 00 00 00 00
 1.060992 1  18F134F3x       Rx   d 8 00 00 00 00 00 00 00 00
 1.061986 1  18F135F3x       Rx   d 8 00 00 00 00 00 00 00 00
 1.062798 1  18F136F3x       Rx   d 8 00 00 00 00 00 00 00 00
 1.063546 1  18F137F3x       Rx   d 8 00 00 00 00 00 00 00 00
 1.064574 1  18F138F3x       Rx   d 8 00 00 00 00 00 00 00 00
 1.065330 1  18F139F3x       Rx   d 8 00 00 00 00 00 00 00 00
 1.066213 1  18F13AF3x       Rx   d 8 00 00 00 00 00 00 00 00
 1.067099 1  18F13BF3x       Rx   d 8 00 00 00 00 00 00 00 00
 1.067987 1  18F13CF3x       Rx   d 8 00 00 00 00 00 00 00 00
 1.068765 1  CFF21CAx        Rx   d 8 02 00 80 0C 3B 37 00 10
 1.069368 1  18F155F3x       Rx   d 8 37 37 38 38 38 38 37 00
 1.070302 1  18F156F3x       Rx   d 8 00 00 00 00 00 00 00 00
 1.071162 1  18F157F3x       Rx   d 8 00 00 00 00 00 00 00 00
 1.071921 1  18F158F3x       Rx   d 8 00 00 00 00 00 00 00 00
 1.072917 1  18F159F3x       Rx   d 8 00 00 00 00 00 00 00 00
 1.074210 1  18F15AF3x       Rx   d 8 00 00 00 00 00 00 00 00
 1.075067 1  18F15BF3x       Rx   d 7 00 00 00 00 00 00 00
 1.075854 1  18FF2112x       Rx   d 8 01 00 00 00 00 00 00 00
 1.076318 1  18F15CF3x       Rx   d 8 00 00 00 00 00 00 00 00
 1.076874 1  18F100D0x       Rx   d 8 0C FF FF FF FF FF FF FF
 1.077443 1  18F15DF3x       Rx   d 8 00 00 00 00 00 00 00 00
 1.078414 1  18F15EF3x       Rx   d 8 00 00 00 00 00 00 00 00
 1.080496 1  CFF21CAx        Rx   d 8 03 00 80 0C 3B 37 00 10
