date Sat May 09 09:13:28.800 2026
base hex  timestamps absolute
internal events logged
Begin Triggerblock Sat May 09 09:13:28.806 2026
 0.000000 Start of measurement
 0.000000 1  CFF21CAx        Rx   d 8 03 00 80 0C 3B 39 00 10
 0.000190 1  18F100D0x       Rx   d 8 0C FF FF FF FF FF FF FF
 0.000303 1  CFF21CAx        Rx   d 8 03 00 80 0C 3B 39 00 10
 0.005831 1  18F100F3x       Rx   d 8 03 3A 7D AB F6 FA 14 00
 0.006543 1  18FF2112x       Rx   d 8 01 00 00 00 00 00 00 00
 0.007092 1  18F102F3x       Rx   d 8 10 24 10 1C 10 0C 00 08
 0.008388 1  18F106F3x       Rx   d 8 45 E0 FC FF FF FF FF FF
 0.009706 1  18F107F3x       Rx   d 8 38 A4 27 10 01 74 00 00
 0.010237 1  CFF21CAx        Rx   d 8 03 00 80 0C 3B 39 00 10
 0.010809 1  18F100D0x       Rx   d 8 0C FF FF FF FF FF FF FF
 0.011679 1  18F108F3x       Rx   d 8 00 00 00 00 00 00 00 00
 0.012546 1  18F155F3x       Rx   d 8 37 37 38 38 38 38 38 00
 0.013482 1  18F156F3x       Rx   d 8 00 00 00 00 00 00 00 00
 0.014696 1  18F157F3x       Rx   d 8 00 00 00 00 00 00 00 00
 0.015686 1  18F158F3x       Rx   d 8 00 00 00 00 00 00 00 00
 0.016537 1  18F159F3x       Rx   d 8 00 00 00 00 00 00 00 00
 0.017460 1  18F15AF3x       Rx   d 8 00 00 00 00 00 00 00 00
 0.018268 1  18F15BF3x       Rx   d 7 00 00 00 00 00 00 00
 0.019129 1  18F15CF3x       Rx   d 8 00 00 00 00 00 00 00 00
 0.019955 1  18F15DF3x       Rx   d 8 00 00 00 00 00 00 00 00
 0.020819 1  18F15EF3x       Rx   d 8 00 00 00 00 00 00 00 00
 0.022193 1  CFF21CAx        Rx   d 8 02 00 80 0C 3B 39 00 10
 0.034293 1  CFF21CAx        Rx   d 8 02 00 80 0C 3B 39 00 10
 0.038236 1  18F100D0x       Rx   d 8 0C FF FF FF FF FF FF FF
 0.046369 1  CFF21CAx        Rx   d 8 01 00 80 0C 3B 39 00 10
 0.058500 1  CFF21CAx        Rx   d 8 01 00 80 0C 3B 39 00 10
 0.062421 1  18F100D0x       Rx   d 8 0C FF FF FF FF FF FF FF
 0.070419 1  CFF21CAx        Rx   d 8 01 00 80 0C 3B 39 00 10
 0.082515 1  CFF21CAx        Rx   d 8 02 00 80 0C 3B 39 00 10
 0.086511 1  18F100D0x       Rx   d 8 0C FF FF FF FF FF FF FF
 0.094524 1  CFF21CAx        Rx   d 8 02 00 80 0C 3B 39 00 10
 0.103837 1  18FF2112x       Rx   d 8 01 00 00 00 00 00 00 00
 0.105844 1  18F100F3x       Rx   d 8 03 3A 7D AB F6 FA 14 00
 0.106693 1  CFF21CAx        Rx   d 8 02 00 80 0C 3B 39 00 10
 0.107226 1  18F102F3x       Rx   d 8 10 24 10 1C 10 0C 00 08
 0.108561 1  18F106F3x       Rx   d 8 45 E0 FC FF FF FF FF FF
 0.109889 1  18F107F3x       Rx   d 8 38 A4 27 10 01 74 00 00
 0.110688 1  18F100D0x       Rx   d 8 0C FF FF FF FF FF FF FF
 0.111799 1  18F108F3x       Rx   d 8 00 00 00 00 00 00 00 00
 0.112715 1  18F155F3x       Rx   d 8 37 37 38 38 38 38 38 00
 0.113692 1  18F156F3x       Rx   d 8 00 00 00 00 00 00 00 00
 0.114853 1  18F157F3x       Rx   d 8 00 00 00 00 00 00 00 00
 0.115770 1  18F158F3x       Rx   d 8 00 00 00 00 00 00 00 00
 0.116693 1  18F159F3x       Rx   d 8 00 00 00 00 00 00 00 00
 0.117633 1  18F15AF3x       Rx   d 8 00 00 00 00 00 00 00 00
 0.118473 1  18F15BF3x       Rx   d 7 00 00 00 00 00 00 00
 0.119170 1  CFF21CAx        Rx   d 8 02 00 80 0C 3B 39 00 10
 0.119688 1  18F15CF3x       Rx   d 8 00 00 00 00 00 00 00 00
 0.120514 1  18F15DF3x       Rx   d 8 00 00 00 00 00 00 00 00
 0.121339 1  18F15EF3x       Rx   d 8 00 00 00 00 00 00 00 00
 0.130711 1  CFF21CAx        Rx   d 8 02 00 80 0C 3B 39 00 10
 0.134736 1  18F100D0x       Rx   d 8 0C FF FF FF FF FF FF FF
 0.142835 1  CFF21CAx        Rx   d 8 02 00 80 0C 3B 39 00 10
 0.155030 1  CFF21CAx        Rx   d 8 02 00 80 0C 3B 39 00 10
 0.158854 1  18F100D0x       Rx   d 8 0C FF FF FF FF FF FF FF
 0.166852 1  CFF21CAx        Rx   d 8 02 00 80 0C 3B 39 00 10
 0.179009 1  CFF21CAx        Rx   d 8 02 00 80 0C 3B 39 00 10
 0.182990 1  18F100D0x       Rx   d 8 0C FF FF FF FF FF FF FF
 0.191111 1  CFF21CAx        Rx   d 8 02 00 80 0C 3B 39 00 10
 0.201300 1  18FF2112x       Rx   d 8 01 00 00 00 00 00 00 00
 0.203625 1  CFF21CAx        Rx   d 8 02 00 80 0C 3B 39 00 10
 0.214685 1  18F100F3x       Rx   d 8 03 3A 7D AA F6 FA 14 00
 0.214851 1  18F102F3x       Rx   d 8 10 24 10 1C 10 0C 00 08
 0.214989 1  18F106F3x       Rx   d 8 45 E0 FC FF FF FF FF FF
 0.215195 1  18F107F3x       Rx   d 8 38 A4 27 10 01 74 00 00
 0.215320 1  18F100D0x       Rx   d 8 0C FF FF FF FF FF FF FF
 0.215437 1  18F108F3x       Rx   d 8 00 00 00 00 00 00 00 00
 0.215550 1  18F155F3x       Rx   d 8 37 37 38 38 38 38 38 00
 0.215672 1  18F156F3x       Rx   d 8 00 00 00 00 00 00 00 00
 0.215787 1  18F157F3x       Rx   d 8 00 00 00 00 00 00 00 00
 0.215903 1  CFF21CAx        Rx   d 8 02 00 80 0C 3B 39 00 10
 0.216019 1  18F158F3x       Rx   d 8 00 00 00 00 00 00 00 00
 0.216776 1  18F159F3x       Rx   d 8 00 00 00 00 00 00 00 00
 0.217740 1  18F15AF3x       Rx   d 8 00 00 00 00 00 00 00 00
 0.218542 1  18F15BF3x       Rx   d 7 00 00 00 00 00 00 00
 0.219419 1  18F15CF3x       Rx   d 8 00 00 00 00 00 00 00 00
 0.220266 1  18F15DF3x       Rx   d 8 00 00 00 00 00 00 00 00
 0.221084 1  18F15EF3x       Rx   d 8 00 00 00 00 00 00 00 00
 0.227497 1  CFF21CAx        Rx   d 8 02 00 80 0C 3B 39 00 10
 0.235249 1  18F100D0x       Rx   d 8 0C FF FF FF FF FF FF FF
 0.239185 1  CFF21CAx        Rx   d 8 02 00 80 0C 3B 39 00 10
 0.251252 1  CFF21CAx        Rx   d 8 03 00 80 0C 3B 39 00 10
 0.259323 1  18F100D0x       Rx   d 8 0C FF FF FF FF FF FF FF
 0.263236 1  CFF21CAx        Rx   d 8 03 00 80 0C 3B 39 00 10
 0.275770 1  CFF21CAx        Rx   d 8 03 00 80 0C 3B 39 00 10
 0.287416 1  CFF21CAx        Rx   d 8 03 00 80 0C 3B 39 00 10
 0.287890 1  18F100D0x       Rx   d 8 0C FF FF FF FF FF FF FF
 0.297457 1  18F104F3x       Rx   d 8 38 37 03 01 01 FF FF FF
 0.298270 1  18F113F3x       Rx   d 8 10 1F 10 1F 10 1F 10 1F
 0.298851 1  18FF2112x       Rx   d 8 01 00 00 00 00 00 00 00
 0.299430 1  CFF21CAx        Rx   d 8 02 00 80 0C 3B 39 00 10
 0.299981 1  18F114F3x       Rx   d 8 10 1E 10 1D 10 20 10 20
 0.300888 1  18F115F3x       Rx   d 8 10 1F 10 1E 10 1E 10 1C
 0.301843 1  18F116F3x       Rx   d 8 10 22 10 20 10 22 10 24
 0.302739 1  18F117F3x       Rx   d 8 10 1F 10 1F 10 23 10 23
 0.303743 1  18F118F3x       Rx   d 8 00 00 00 00 00 00 00 00
 0.305159 1  18F119F3x       Rx   d 8 00 00 00 00 00 00 00 00
 0.306118 1  18F100F3x       Rx   d 8 03 3A 7D AA F6 FA 14 00
 0.306752 1  18F102F3x       Rx   d 8 10 24 10 1C 10 0C 00 08
 0.308082 1  18F106F3x       Rx   d 8 45 E0 FC FF FF FF FF FF
 0.309315 1  18F107F3x       Rx   d 8 38 A4 27 10 01 74 00 00
 0.311254 1  18F108F3x       Rx   d 8 00 00 00 00 00 00 00 00
 0.311818 1  CFF21CAx        Rx   d 8 02 00 80 0C 3B 39 00 10
 0.312397 1  18F100D0x       Rx   d 8 0C FF FF FF FF FF FF FF
 0.312909 1  18F11AF3x       Rx   d 8 00 00 00 00 00 00 00 00
 0.314041 1  18F11BF3x       Rx   d 8 00 00 00 00 00 00 00 00
 0.315041 1  18F11CF3x       Rx   d 8 00 00 00 00 00 00 00 00
 0.316130 1  18F11DF3x       Rx   d 8 00 00 00 00 00 00 00 00
 0.316893 1  18F11EF3x       Rx   d 8 00 00 00 00 00 00 00 00
 0.317834 1  18F11FF3x       Rx   d 8 00 00 00 00 00 00 00 00
 0.318907 1  18F120F3x       Rx   d 8 00 00 00 00 00 00 00 00
 0.319885 1  18F121F3x       Rx   d 8 00 00 00 00 00 00 00 00
 0.320851 1  18F122F3x       Rx   d 8 00 00 00 00 00 00 00 00
 0.322006 1  18F123F3x       Rx   d 8 00 00 00 00 00 00 00 00
 0.322751 1  18F124F3x       Rx   d 8 00 00 00 00 00 00 00 00
 0.323675 1  CFF21CAx        Rx   d 8 02 00 80 0C 3B 39 00 10
 0.324243 1  18F125F3x       Rx   d 8 00 00 00 00 00 00 00 00
 0.325168 1  18F126F3x       Rx   d 8 00 00 00 00 00 00 00 00
 0.326181 1  18F127F3x       Rx   d 8 00 00 00 00 00 00 00 00
 0.326966 1  18F128F3x       Rx   d 8 00 00 00 00 00 00 00 00
 0.327923 1  18F129F3x       Rx   d 8 00 00 00 00 00 00 00 00
 0.328864 1  18F12AF3x       Rx   d 8 00 00 00 00 00 00 00 00
 0.329822 1  18F12BF3x       Rx   d 8 00 00 00 00 00 00 00 00
 0.330875 1  18F12CF3x       Rx   d 8 00 00 00 00 00 00 00 00
 0.331706 1  18F12DF3x       Rx   d 8 00 00 00 00 00 00 00 00
 0.332660 1  18F12EF3x       Rx   d 8 00 00 00 00 00 00 00 00
 0.333600 1  18F12FF3x       Rx   d 8 00 00 00 00 00 00 00 00
 0.334445 1  18F130F3x       Rx   d 8 00 00 00 00 00 00 00 00
 0.335132 1  18F131F3x       Rx   d 8 00 00 00 00 00 00 00 00
 0.335702 1  CFF21CAx        Rx   d 8 02 00 80 0C 3B 39 00 10
 0.336268 1  18F100D0x       Rx   d 8 0C FF FF FF FF FF FF FF
 0.336845 1  18F132F3x       Rx   d 8 00 00 00 00 00 00 00 00
 0.337746 1  18F133F3x       Rx   d 8 00 00 00 00 00 00 00 00
 0.338687 1  18F134F3x       Rx   d 8 00 00 00 00 00 00 00 00
 0.339823 1  18F135F3x       Rx   d 8 00 00 00 00 00 00 00 00
 0.340961 1  18F136F3x       Rx   d 8 00 00 00 00 00 00 00 00
 0.341620 1  18F137F3x       Rx   d 8 00 00 00 00 00 00 00 00
 0.342413 1  18F138F3x       Rx   d 8 00 00 00 00 00 00 00 00
 0.343365 1  18F139F3x       Rx   d 8 00 00 00 00 00 00 00 00
 0.344159 1  18F13AF3x       Rx   d 8 00 00 00 00 00 00 00 00
 0.344961 1  18F13BF3x       Rx   d 8 00 00 00 00 00 00 00 00
 0.345929 1  18F13CF3x       Rx   d 8 00 00 00 00 00 00 00 00
 0.346861 1  18F155F3x       Rx   d 8 37 37 38 38 38 38 38 00
 0.347711 1  CFF21CAx        Rx   d 8 02 00 80 0C 3B 39 00 10
 0.348275 1  18F156F3x       Rx   d 8 00 00 00 00 00 00 00 00
 0.349115 1  18F157F3x       Rx   d 8 00 00 00 00 00 00 00 00
 0.350002 1  18F158F3x       Rx   d 8 00 00 00 00 00 00 00 00
 0.350792 1  18F159F3x       Rx   d 8 00 00 00 00 00 00 00 00
 0.351720 1  18F15AF3x       Rx   d 8 00 00 00 00 00 00 00 00
 0.352545 1  18F15BF3x       Rx   d 7 00 00 00 00 00 00 00
 0.353448 1  18F15CF3x       Rx   d 8 00 00 00 00 00 00 00 00
 0.354325 1  18F15DF3x       Rx   d 8 00 00 00 00 00 00 00 00
 0.355260 1  18F15EF3x       Rx   d 8 00 00 00 00 00 00 00 00
 0.359851 1  CFF21CAx        Rx   d 8 02 00 80 0C 3B 39 00 10
 0.360337 1  18F100D0x       Rx   d 8 0C FF FF FF FF FF FF FF
 0.372400 1  CFF21CAx        Rx   d 8 02 00 80 0C 3B 39 00 10
 0.383944 1  CFF21CAx        Rx   d 8 02 00 80 0C 3B 39 00 10
 0.384340 1  18F100D0x       Rx   d 8 0C FF FF FF FF FF FF FF
 0.395706 1  18FF2112x       Rx   d 8 01 00 00 00 00 00 00 00
 0.396241 1  CFF21CAx        Rx   d 8 02 00 80 0C 3B 39 00 10
 0.406075 1  18F100F3x       Rx   d 8 03 3A 7D AA F6 FA 14 00
 0.406839 1  18F102F3x       Rx   d 8 10 24 10 1C 10 0C 00 08
 0.407945 1  CFF21CAx        Rx   d 8 02 00 80 0C 3B 39 00 10
 0.408475 1  18F100D0x       Rx   d 8 0C FF FF FF FF FF FF FF
 0.409072 1  18F106F3x       Rx   d 8 45 E0 FC FF FF FF FF FF
 0.410411 1  18F107F3x       Rx   d 8 38 A4 27 10 01 74 00 00
 0.412162 1  18F108F3x       Rx   d 8 00 00 00 00 00 00 00 00
 0.413051 1  18F155F3x       Rx   d 8 37 37 38 38 38 38 38 00
 0.414012 1  18F156F3x       Rx   d 8 00 00 00 00 00 00 00 00
 0.415128 1  18F157F3x       Rx   d 8 00 00 00 00 00 00 00 00
 0.416087 1  18F158F3x       Rx   d 8 00 00 00 00 00 00 00 00
 0.416928 1  18F159F3x       Rx   d 8 00 00 00 00 00 00 00 00
 0.417862 1  18F15AF3x       Rx   d 8 00 00 00 00 00 00 00 00
 0.418686 1  18F15BF3x       Rx   d 7 00 00 00 00 00 00 00
 0.419560 1  18F15CF3x       Rx   d 8 00 00 00 00 00 00 00 00
 0.420113 1  CFF21CAx        Rx   d 8 02 00 80 0C 3B 39 00 10
 0.430477 1  18F15DF3x       Rx   d 8 00 00 00 00 00 00 00 00
 0.430657 1  18F15EF3x       Rx   d 8 00 00 00 00 00 00 00 00
 0.431951 1  CFF21CAx        Rx   d 8 02 00 80 0C 3B 39 00 10
 0.436399 1  18F100D0x       Rx   d 8 0C FF FF FF FF FF FF FF
 0.444112 1  CFF21CAx        Rx   d 8 02 00 80 0C 3B 39 00 10
 0.456046 1  CFF21CAx        Rx   d 8 02 00 80 0C 3B 39 00 10
 0.460535 1  18F100D0x       Rx   d 8 0C FF FF FF FF FF FF FF
 0.468536 1  CFF21CAx        Rx   d 8 02 00 80 0C 3B 39 00 10
 0.480252 1  CFF21CAx        Rx   d 8 02 00 80 0C 3B 39 00 10
 0.484219 1  18F100D0x       Rx   d 8 0C FF FF FF FF FF FF FF
 0.492219 1  CFF21CAx        Rx   d 8 02 00 80 0C 3B 39 00 10
 0.493162 1  18FF2112x       Rx   d 8 01 00 00 00 00 00 00 00
 0.504376 1  CFF21CAx        Rx   d 8 03 00 80 0C 3B 39 00 10
 0.506024 1  18F100F3x       Rx   d 8 03 3A 7D AA F6 FA 14 00
 0.506760 1  18F102F3x       Rx   d 8 10 23 10 1C 10 0C 00 07
 0.508065 1  18F106F3x       Rx   d 8 45 E0 FC FF FF FF FF FF
 0.508739 1  18F100D0x       Rx   d 8 0C FF FF FF FF FF FF FF
 0.509630 1  18F107F3x       Rx   d 8 38 A4 27 10 01 74 00 00
 0.511418 1  18F108F3x       Rx   d 8 00 00 00 00 00 00 00 00
 0.512288 1  18F155F3x       Rx   d 8 37 37 38 38 38 38 38 00
 0.513172 1  18F156F3x       Rx   d 8 00 00 00 00 00 00 00 00
 0.514088 1  18F157F3x       Rx   d 8 00 00 00 00 00 00 00 00
 0.514974 1  18F158F3x       Rx   d 8 00 00 00 00 00 00 00 00
 0.515872 1  18F159F3x       Rx   d 8 00 00 00 00 00 00 00 00
 0.516434 1  CFF21CAx        Rx   d 8 03 00 80 0C 3B 39 00 10
 0.516986 1  18F15AF3x       Rx   d 8 00 00 00 00 00 00 00 00
 0.517949 1  18F15BF3x       Rx   d 7 00 00 00 00 00 00 00
 0.518868 1  18F15CF3x       Rx   d 8 00 00 00 00 00 00 00 00
 0.519821 1  18F15DF3x       Rx   d 8 00 00 00 00 00 00 00 00
 0.520646 1  18F15EF3x       Rx   d 8 00 00 00 00 00 00 00 00
 0.528479 1  CFF21CAx        Rx   d 8 03 00 80 0C 3B 39 00 10
 0.536525 1  18F100D0x       Rx   d 8 0C FF FF FF FF FF FF FF
 0.540521 1  CFF21CAx        Rx   d 8 03 00 80 0C 3B 39 00 10
 0.552570 1  CFF21CAx        Rx   d 8 03 00 80 0C 3B 39 00 10
 0.560633 1  18F100D0x       Rx   d 8 0C FF FF FF FF FF FF FF
 0.564944 1  CFF21CAx        Rx   d 8 03 00 80 0C 3B 39 00 10
 0.576722 1  CFF21CAx        Rx   d 8 03 00 80 0C 3B 39 00 10
 0.584581 1  18F100D0x       Rx   d 8 0C FF FF FF FF FF FF FF
 0.588848 1  CFF21CAx        Rx   d 8 02 00 80 0C 3B 39 00 10
 0.590279 1  18FF2112x       Rx   d 8 01 00 00 00 00 00 00 00
 0.600893 1  CFF21CAx        Rx   d 8 02 00 80 0C 3B 39 00 10
 0.606039 1  18F100F3x       Rx   d 8 03 3A 7D AA F6 FA 14 00
 0.606915 1  18F102F3x       Rx   d 8 10 23 10 1C 10 0C 00 07
 0.608243 1  18F106F3x       Rx   d 8 45 E0 FC FF FF FF FF FF
 0.608845 1  18F100D0x       Rx   d 8 0C FF FF FF FF FF FF FF
 0.609540 1  18F107F3x       Rx   d 8 38 A4 27 10 01 74 00 00
 0.611456 1  18F108F3x       Rx   d 8 00 00 00 00 00 00 00 00
 0.612311 1  18F155F3x       Rx   d 8 37 37 38 38 38 38 38 00
 0.613192 1  18F156F3x       Rx   d 8 00 00 00 00 00 00 00 00
 0.613897 1  CFF21CAx        Rx   d 8 02 00 80 0C 3B 39 00 10
 0.614323 1  18F157F3x       Rx   d 8 00 00 00 00 00 00 00 00
 0.615085 1  18F158F3x       Rx   d 8 00 00 00 00 00 00 00 00
 0.616023 1  18F159F3x       Rx   d 8 00 00 00 00 00 00 00 00
 0.616892 1  18F15AF3x       Rx   d 8 00 00 00 00 00 00 00 00
 0.617687 1  18F15BF3x       Rx   d 7 00 00 00 00 00 00 00
 0.618748 1  18F15CF3x       Rx   d 8 00 00 00 00 00 00 00 00
 0.619589 1  18F15DF3x       Rx   d 8 00 00 00 00 00 00 00 00
 0.620430 1  18F15EF3x       Rx   d 8 00 00 00 00 00 00 00 00
 0.624727 1  CFF21CAx        Rx   d 8 02 00 80 0C 3B 39 00 10
 0.632850 1  18F100D0x       Rx   d 8 0C FF FF FF FF FF FF FF
 0.648885 1  CFF21CAx        Rx   d 8 02 00 80 0C 3B 39 00 10
 0.649012 1  CFF21CAx        Rx   d 8 02 00 80 0C 3B 39 00 10
 0.656834 1  18F100D0x       Rx   d 8 0C FF FF FF FF FF FF FF
 0.661305 1  CFF21CAx        Rx   d 8 02 00 80 0C 3B 39 00 10
 0.672950 1  CFF21CAx        Rx   d 8 02 00 80 0C 3B 39 00 10
 0.680967 1  18F100D0x       Rx   d 8 0C FF FF FF FF FF FF FF
 0.684985 1  CFF21CAx        Rx   d 8 02 00 80 0C 3B 39 00 10
 0.687474 1  18FF2112x       Rx   d 8 01 00 00 00 00 00 00 00
 0.697074 1  CFF21CAx        Rx   d 8 02 00 80 0C 3B 39 00 10
 0.705107 1  18F100D0x       Rx   d 8 0C FF FF FF FF FF FF FF
 0.706062 1  18F100F3x       Rx   d 8 03 3A 7D AB F6 FA 14 00
 0.706906 1  18F102F3x       Rx   d 8 10 23 10 1C 10 0C 00 07
 0.708172 1  18F106F3x       Rx   d 8 45 E0 FC FF FF FF FF FF
 0.709073 1  CFF21CAx        Rx   d 8 02 00 80 0C 3B 39 00 10
 0.709702 1  18F107F3x       Rx   d 8 38 A4 27 10 01 74 00 00
 0.711440 1  18F108F3x       Rx   d 8 00 00 00 00 00 00 00 00
 0.712304 1  18F155F3x       Rx   d 8 37 37 38 38 38 38 38 00
 0.713178 1  18F156F3x       Rx   d 8 00 00 00 00 00 00 00 00
 0.714300 1  18F157F3x       Rx   d 8 00 00 00 00 00 00 00 00
 0.715021 1  18F158F3x       Rx   d 8 00 00 00 00 00 00 00 00
 0.715882 1  18F159F3x       Rx   d 8 00 00 00 00 00 00 00 00
 0.716830 1  18F15AF3x       Rx   d 8 00 00 00 00 00 00 00 00
 0.717719 1  18F15BF3x       Rx   d 7 00 00 00 00 00 00 00
 0.718537 1  18F15CF3x       Rx   d 8 00 00 00 00 00 00 00 00
 0.719379 1  18F15DF3x       Rx   d 8 00 00 00 00 00 00 00 00
 0.720292 1  18F15EF3x       Rx   d 8 00 00 00 00 00 00 00 00
 0.721049 1  CFF21CAx        Rx   d 8 02 00 80 0C 3B 39 00 10
 0.733184 1  CFF21CAx        Rx   d 8 02 00 80 0C 3B 39 00 10
 0.733733 1  18F100D0x       Rx   d 8 0C FF FF FF FF FF FF FF
 0.745299 1  CFF21CAx        Rx   d 8 02 00 80 0C 3B 39 00 10
 0.757370 1  CFF21CAx        Rx   d 8 02 00 80 0C 3B 39 00 10
 0.757938 1  18F100D0x       Rx   d 8 0C FF FF FF FF FF FF FF
 0.769321 1  CFF21CAx        Rx   d 8 02 00 80 0C 3B 39 00 10
 0.781451 1  CFF21CAx        Rx   d 8 02 00 80 0C 3B 39 00 10
 0.782052 1  18F100D0x       Rx   d 8 0C FF FF FF FF FF FF FF
 0.784867 1  18FF2112x       Rx   d 8 01 00 00 00 00 00 00 00
 0.793375 1  CFF21CAx        Rx   d 8 02 00 80 0C 3B 39 00 10
 0.805576 1  CFF21CAx        Rx   d 8 02 00 80 0C 3B 39 00 10
 0.805990 1  18F100D0x       Rx   d 8 0C FF FF FF FF FF FF FF
 0.806672 1  18F100F3x       Rx   d 8 03 3A 7D AB F6 FA 14 00
 0.807551 1  18F102F3x       Rx   d 8 10 23 10 1C 10 0C 00 07
 0.808849 1  18F106F3x       Rx   d 8 45 E0 FC FF FF FF FF FF
 0.810005 1  18F107F3x       Rx   d 8 38 A4 27 10 01 74 00 00
 0.811909 1  18F108F3x       Rx   d 8 00 00 00 00 00 00 00 00
 0.812841 1  18F155F3x       Rx   d 8 37 37 38 38 38 38 38 00
 0.813813 1  18F156F3x       Rx   d 8 00 00 00 00 00 00 00 00
 0.815030 1  18F157F3x       Rx   d 8 00 00 00 00 00 00 00 00
 0.815931 1  18F158F3x       Rx   d 8 00 00 00 00 00 00 00 00
 0.816848 1  18F159F3x       Rx   d 8 00 00 00 00 00 00 00 00
 0.817596 1  CFF21CAx        Rx   d 8 02 00 80 0C 3B 39 00 10
 0.818161 1  18F15AF3x       Rx   d 8 00 00 00 00 00 00 00 00
 0.818939 1  18F15BF3x       Rx   d 7 00 00 00 00 00 00 00
 0.819886 1  18F15CF3x       Rx   d 8 00 00 00 00 00 00 00 00
 0.820812 1  18F15DF3x       Rx   d 8 00 00 00 00 00 00 00 00
 0.821675 1  18F15EF3x       Rx   d 8 00 00 00 00 00 00 00 00
 0.829636 1  CFF21CAx        Rx   d 8 03 00 80 0C 3B 39 00 10
 0.833618 1  18F100D0x       Rx   d 8 0C FF FF FF FF FF FF FF
 0.841617 1  CFF21CAx        Rx   d 8 03 00 80 0C 3B 39 00 10
 0.853749 1  CFF21CAx        Rx   d 8 02 00 80 0C 3B 39 00 10
 0.868820 1  18F100D0x       Rx   d 8 0C FF FF FF FF FF FF FF
 0.868946 1  CFF21CAx        Rx   d 8 02 00 80 0C 3B 39 00 10
 0.877740 1  CFF21CAx        Rx   d 8 03 00 80 0C 3B 39 00 10
 0.881761 1  18F100D0x       Rx   d 8 0C FF FF FF FF FF FF FF
 0.882344 1  18FF2112x       Rx   d 8 01 00 00 00 00 00 00 00
 0.889762 1  CFF21CAx        Rx   d 8 03 00 80 0C 3B 39 00 10
 0.901893 1  CFF21CAx        Rx   d 8 03 00 80 0C 3B 39 00 10
 0.905819 1  18F100D0x       Rx   d 8 0C FF FF FF FF FF FF FF
 0.906398 1  18F100F3x       Rx   d 8 03 3A 7D AB F6 FA 14 00
 0.907275 1  18F102F3x       Rx   d 8 10 23 10 1C 10 0C 00 07
 0.908576 1  18F106F3x       Rx   d 8 45 E0 FC FF FF FF FF FF
 0.909846 1  18F107F3x       Rx   d 8 38 A4 27 10 01 74 00 00
 0.911725 1  18F108F3x       Rx   d 8 00 00 00 00 00 00 00 00
 0.912603 1  18F155F3x       Rx   d 8 37 37 38 38 38 38 38 00
 0.913548 1  18F156F3x       Rx   d 8 00 00 00 00 00 00 00 00
 0.914109 1  CFF21CAx        Rx   d 8 02 00 80 0C 3B 39 00 10
 0.914724 1  18F157F3x       Rx   d 8 00 00 00 00 00 00 00 00
 0.915719 1  18F158F3x       Rx   d 8 00 00 00 00 00 00 00 00
 0.916602 1  18F159F3x       Rx   d 8 00 00 00 00 00 00 00 00
 0.917459 1  18F15AF3x       Rx   d 8 00 00 00 00 00 00 00 00
 0.918276 1  18F15BF3x       Rx   d 7 00 00 00 00 00 00 00
 0.919111 1  18F15CF3x       Rx   d 8 00 00 00 00 00 00 00 00
 0.919955 1  18F15DF3x       Rx   d 8 00 00 00 00 00 00 00 00
 0.920813 1  18F15EF3x       Rx   d 8 00 00 00 00 00 00 00 00
 0.925932 1  CFF21CAx        Rx   d 8 02 00 80 0C 3B 39 00 10
 0.929939 1  18F100D0x       Rx   d 8 0C FF FF FF FF FF FF FF
 0.937988 1  CFF21CAx        Rx   d 8 02 00 80 0C 3B 39 00 10
 0.950026 1  CFF21CAx        Rx   d 8 02 00 80 0C 3B 39 00 10
 0.954076 1  18F100D0x       Rx   d 8 0C FF FF FF FF FF FF FF
 0.962098 1  CFF21CAx        Rx   d 8 02 00 80 0C 3B 39 00 10
 0.962723 1  18FECACAx       Rx   d 8 00 00 00 00 00 00 FF FF
 0.974283 1  CFF21CAx        Rx   d 8 02 00 80 0C 3B 39 00 10
 0.978303 1  18F100D0x       Rx   d 8 0C FF FF FF FF FF FF FF
 0.979418 1  18FF2112x       Rx   d 8 01 00 00 00 00 00 00 00
 0.986174 1  CFF21CAx        Rx   d 8 02 00 80 0C 3B 39 00 10
 0.998227 1  CFF21CAx        Rx   d 8 02 00 80 0C 3B 39 00 10
 0.998784 1  18F100D0x       Rx   d 8 0C FF FF FF FF FF FF FF
 1.005963 1  18F100F3x       Rx   d 8 03 3A 7D AA F6 FA 14 00
 1.006820 1  18F102F3x       Rx   d 8 10 23 10 1C 10 0C 00 07
 1.008146 1  18F106F3x       Rx   d 8 45 E0 FC FF FF FF FF FF
 1.009414 1  18F107F3x       Rx   d 8 38 A4 27 10 01 74 00 00
 1.010860 1  CFF21CAx        Rx   d 8 02 00 80 0C 3B 39 00 10
 1.011317 1  18F108F3x       Rx   d 8 00 00 00 00 00 00 00 00
 1.012334 1  18F155F3x       Rx   d 8 37 37 38 38 38 38 38 00
 1.013211 1  18F156F3x       Rx   d 8 00 00 00 00 00 00 00 00
 1.014045 1  18F157F3x       Rx   d 8 00 00 00 00 00 00 00 00
 1.015074 1  18F158F3x       Rx   d 8 00 00 00 00 00 00 00 00
 1.015899 1  18F159F3x       Rx   d 8 00 00 00 00 00 00 00 00
 1.016841 1  18F15AF3x       Rx   d 8 00 00 00 00 00 00 00 00
 1.017682 1  18F15BF3x       Rx   d 7 00 00 00 00 00 00 00
 1.018609 1  18F15CF3x       Rx   d 8 00 00 00 00 00 00 00 00
 1.019439 1  18F15DF3x       Rx   d 8 00 00 00 00 00 00 00 00
 1.020280 1  18F15EF3x       Rx   d 8 00 00 00 00 00 00 00 00
 1.022304 1  CFF21CAx        Rx   d 8 02 00 80 0C 3B 39 00 10
 1.026382 1  18F100D0x       Rx   d 8 0C FF FF FF FF FF FF FF
 1.034384 1  CFF21CAx        Rx   d 8 02 00 80 0C 3B 39 00 10
 1.046430 1  CFF21CAx        Rx   d 8 03 00 80 0C 3B 39 00 10
 1.050611 1  18F100D0x       Rx   d 8 0C FF FF FF FF FF FF FF
 1.058551 1  CFF21CAx        Rx   d 8 03 00 80 0C 3B 39 00 10
 1.070568 1  CFF21CAx        Rx   d 8 03 00 80 0C 3B 39 00 10
 1.074643 1  18F100D0x       Rx   d 8 0C FF FF FF FF FF FF FF
 1.087935 1  18FF2112x       Rx   d 8 01 00 00 00 00 00 00 00
 1.088071 1  CFF21CAx        Rx   d 8 02 00 80 0C 3B 39 00 10
 1.094595 1  CFF21CAx        Rx   d 8 02 00 80 0C 3B 39 00 10
 1.099155 1  18F100D0x       Rx   d 8 0C FF FF FF FF FF FF FF
 1.105977 1  18F100F3x       Rx   d 8 03 3A 7D AA F6 FA 14 00
 1.106809 1  18F102F3x       Rx   d 8 10 23 10 1C 10 0C 00 07
 1.107363 1  CFF21CAx        Rx   d 8 03 00 80 0C 3B 39 00 10
 1.108112 1  18F106F3x       Rx   d 8 45 E0 FC FF FF FF FF FF
 1.109351 1  18F107F3x       Rx   d 8 38 A4 27 10 01 74 00 00
 1.111111 1  18F108F3x       Rx   d 8 00 00 00 00 00 00 00 00
 1.111996 1  18F155F3x       Rx   d 8 37 37 38 38 38 38 38 00
 1.112899 1  18F156F3x       Rx   d 8 00 00 00 00 00 00 00 00
 1.113840 1  18F157F3x       Rx   d 8 00 00 00 00 00 00 00 00
 1.115054 1  18F158F3x       Rx   d 8 00 00 00 00 00 00 00 00
 1.115929 1  18F159F3x       Rx   d 8 00 00 00 00 00 00 00 00
 1.116865 1  18F15AF3x       Rx   d 8 00 00 00 00 00 00 00 00
 1.117729 1  18F15BF3x       Rx   d 7 00 00 00 00 00 00 00
 1.118603 1  18F15CF3x       Rx   d 8 00 00 00 00 00 00 00 00
 1.119152 1  CFF21CAx        Rx   d 8 03 00 80 0C 3B 39 00 10
 1.119741 1  18F15DF3x       Rx   d 8 00 00 00 00 00 00 00 00
 1.120633 1  18F15EF3x       Rx   d 8 00 00 00 00 00 00 00 00
 1.126759 1  18F100D0x       Rx   d 8 0C FF FF FF FF FF FF FF
 1.130772 1  CFF21CAx        Rx   d 8 03 00 80 0C 3B 39 00 10
 1.142840 1  CFF21CAx        Rx   d 8 02 00 80 0C 3B 39 00 10
 1.150901 1  18F100D0x       Rx   d 8 0C FF FF FF FF FF FF FF
 1.154925 1  CFF21CAx        Rx   d 8 02 00 80 0C 3B 39 00 10
 1.166979 1  CFF21CAx        Rx   d 8 02 00 80 0C 3B 39 00 10
 1.173915 1  18FF2112x       Rx   d 8 01 00 00 00 00 00 00 00
 1.174997 1  18F100D0x       Rx   d 8 0C FF FF FF FF FF FF FF
 1.178998 1  CFF21CAx        Rx   d 8 03 00 80 0C 3B 39 00 10
 1.191007 1  CFF21CAx        Rx   d 8 03 00 80 0C 3B 39 00 10
 1.199097 1  18F100D0x       Rx   d 8 0C FF FF FF FF FF FF FF
 1.203211 1  CFF21CAx        Rx   d 8 03 00 80 0C 3B 39 00 10
 1.205969 1  18F100F3x       Rx   d 8 03 3A 7D AA F6 FA 14 00
 1.206823 1  18F102F3x       Rx   d 8 10 23 10 1C 10 0C 00 07
 1.208199 1  18F106F3x       Rx   d 8 45 E0 FC FF FF FF FF FF
 1.209507 1  18F107F3x       Rx   d 8 38 A4 27 10 01 74 00 00
 1.211167 1  18F108F3x       Rx   d 8 00 00 00 00 00 00 00 00
 1.212153 1  18F155F3x       Rx   d 8 37 37 38 38 38 38 38 00
 1.213053 1  18F156F3x       Rx   d 8 00 00 00 00 00 00 00 00
 1.213852 1  18F157F3x       Rx   d 8 00 00 00 00 00 00 00 00
 1.215114 1  18F158F3x       Rx   d 8 00 00 00 00 00 00 00 00
 1.217916 1  CFF21CAx        Rx   d 8 03 00 80 0C 3B 39 00 10
 1.218444 1  18F159F3x       Rx   d 8 00 00 00 00 00 00 00 00
 1.222762 1  18F15AF3x       Rx   d 8 00 00 00 00 00 00 00 00
 1.222942 1  18F15BF3x       Rx   d 7 00 00 00 00 00 00 00
 1.223080 1  18F15CF3x       Rx   d 8 00 00 00 00 00 00 00 00
 1.223195 1  18F15DF3x       Rx   d 8 00 00 00 00 00 00 00 00
 1.223304 1  18F15EF3x       Rx   d 8 00 00 00 00 00 00 00 00
 1.223409 1  18F100D0x       Rx   d 8 0C FF FF FF FF FF FF FF
 1.227764 1  CFF21CAx        Rx   d 8 03 00 80 0C 3B 39 00 10
 1.239479 1  CFF21CAx        Rx   d 8 02 00 80 0C 3B 39 00 10
 1.251858 1  CFF21CAx        Rx   d 8 02 00 80 0C 3B 39 00 10
 1.252409 1  18F100D0x       Rx   d 8 0C FF FF FF FF FF FF FF
 1.263483 1  CFF21CAx        Rx   d 8 02 00 80 0C 3B 39 00 10
 1.271322 1  18FF2112x       Rx   d 8 01 00 00 00 00 00 00 00
 1.275350 1  CFF21CAx        Rx   d 8 02 00 80 0C 3B 39 00 10
 1.276076 1  18F100D0x       Rx   d 8 0C FF FF FF FF FF FF FF
 1.287563 1  CFF21CAx        Rx   d 8 02 00 80 0C 3B 39 00 10
 1.307279 1  18F104F3x       Rx   d 8 38 37 03 01 01 FF FF FF
 1.307426 1  18F113F3x       Rx   d 8 10 1F 10 1F 10 1F 10 20
 1.307543 1  18F114F3x       Rx   d 8 10 1E 10 1D 10 20 10 20
 1.307647 1  CFF21CAx        Rx   d 8 02 00 80 0C 3B 39 00 10
 1.307749 1  18F100D0x       Rx   d 8 0C FF FF FF FF FF FF FF
 1.307849 1  18F115F3x       Rx   d 8 10 1E 10 1E 10 1E 10 1C
 1.307951 1  18F116F3x       Rx   d 8 10 21 10 1F 10 22 10 23
 1.308054 1  18F117F3x       Rx   d 8 10 1F 10 1F 10 22 10 23
 1.308154 1  18F118F3x       Rx   d 8 00 00 00 00 00 00 00 00
 1.308251 1  18F119F3x       Rx   d 8 00 00 00 00 00 00 00 00
 1.308348 1  18F100F3x       Rx   d 8 03 3A 7D AA F6 FA 14 00
 1.308446 1  18F102F3x       Rx   d 8 10 23 10 1C 10 0C 00 07
 1.308649 1  18F106F3x       Rx   d 8 45 E0 FC FF FF FF FF FF
 1.309307 1  18F107F3x       Rx   d 8 38 A4 27 10 01 74 00 00
 1.311147 1  18F108F3x       Rx   d 8 00 00 00 00 00 00 00 00
 1.311729 1  CFF21CAx        Rx   d 8 02 00 80 0C 3B 39 00 10
 1.312284 1  18F11AF3x       Rx   d 8 00 00 00 00 00 00 00 00
 1.313261 1  18F11BF3x       Rx   d 8 00 00 00 00 00 00 00 00
 1.314162 1  18F11CF3x       Rx   d 8 00 00 00 00 00 00 00 00
 1.315151 1  18F11DF3x       Rx   d 8 00 00 00 00 00 00 00 00
 1.316074 1  18F11EF3x       Rx   d 8 00 00 00 00 00 00 00 00
 1.316984 1  18F11FF3x       Rx   d 8 00 00 00 00 00 00 00 00
 1.317928 1  18F120F3x       Rx   d 8 00 00 00 00 00 00 00 00
 1.318873 1  18F121F3x       Rx   d 8 00 00 00 00 00 00 00 00
 1.319876 1  18F122F3x       Rx   d 8 00 00 00 00 00 00 00 00
 1.320839 1  18F123F3x       Rx   d 8 00 00 00 00 00 00 00 00
 1.321828 1  18F124F3x       Rx   d 8 00 00 00 00 00 00 00 00
 1.322761 1  18F125F3x       Rx   d 8 00 00 00 00 00 00 00 00
 1.323565 1  CFF21CAx        Rx   d 8 02 00 80 0C 3B 39 00 10
 1.324126 1  18F100D0x       Rx   d 8 0C FF FF FF FF FF FF FF
 1.324711 1  18F126F3x       Rx   d 8 00 00 00 00 00 00 00 00
 1.325716 1  18F127F3x       Rx   d 8 00 00 00 00 00 00 00 00
 1.326735 1  18F128F3x       Rx   d 8 00 00 00 00 00 00 00 00
 1.327602 1  18F129F3x       Rx   d 8 00 00 00 00 00 00 00 00
 1.328550 1  18F12AF3x       Rx   d 8 00 00 00 00 00 00 00 00
 1.329449 1  18F12BF3x       Rx   d 8 00 00 00 00 00 00 00 00
 1.330406 1  18F12CF3x       Rx   d 8 00 00 00 00 00 00 00 00
 1.331290 1  18F12DF3x       Rx   d 8 00 00 00 00 00 00 00 00
 1.332162 1  18F12EF3x       Rx   d 8 00 00 00 00 00 00 00 00
 1.333073 1  18F12FF3x       Rx   d 8 00 00 00 00 00 00 00 00
 1.333940 1  18F130F3x       Rx   d 8 00 00 00 00 00 00 00 00
 1.335064 1  18F131F3x       Rx   d 8 00 00 00 00 00 00 00 00
 1.335615 1  CFF21CAx        Rx   d 8 02 00 80 0C 3B 39 00 10
 1.336202 1  18F132F3x       Rx   d 8 00 00 00 00 00 00 00 00
 1.337066 1  18F133F3x       Rx   d 8 00 00 00 00 00 00 00 00
 1.337940 1  18F134F3x       Rx   d 8 00 00 00 00 00 00 00 00
 1.338881 1  18F135F3x       Rx   d 8 00 00 00 00 00 00 00 00
 1.339763 1  18F136F3x       Rx   d 8 00 00 00 00 00 00 00 00
 1.340671 1  18F137F3x       Rx   d 8 00 00 00 00 00 00 00 00
 1.341605 1  18F138F3x       Rx   d 8 00 00 00 00 00 00 00 00
 1.342490 1  18F139F3x       Rx   d 8 00 00 00 00 00 00 00 00
 1.343360 1  18F13AF3x       Rx   d 8 00 00 00 00 00 00 00 00
 1.344232 1  18F13BF3x       Rx   d 8 00 00 00 00 00 00 00 00
 1.345075 1  18F13CF3x       Rx   d 8 00 00 00 00 00 00 00 00
 1.345951 1  18F155F3x       Rx   d 8 37 37 38 38 38 38 38 00
 1.346854 1  18F156F3x       Rx   d 8 00 00 00 00 00 00 00 00
 1.347747 1  18F157F3x       Rx   d 8 00 00 00 00 00 00 00 00
 1.348310 1  CFF21CAx        Rx   d 8 02 00 80 0C 3B 39 00 10
 1.348906 1  18F158F3x       Rx   d 8 00 00 00 00 00 00 00 00
 1.349810 1  18F159F3x       Rx   d 8 00 00 00 00 00 00 00 00
 1.350753 1  18F15AF3x       Rx   d 8 00 00 00 00 00 00 00 00
 1.351740 1  18F100D0x       Rx   d 8 0C FF FF FF FF FF FF FF
 1.352159 1  18F15BF3x       Rx   d 7 00 00 00 00 00 00 00
 1.353040 1  18F15CF3x       Rx   d 8 00 00 00 00 00 00 00 00
 1.353910 1  18F15DF3x       Rx   d 8 00 00 00 00 00 00 00 00
 1.354996 1  18F15EF3x       Rx   d 8 00 00 00 00 00 00 00 00
 1.359692 1  CFF21CAx        Rx   d 8 02 00 80 0C 3B 39 00 10
 1.368407 1  18FF2112x       Rx   d 8 01 00 00 00 00 00 00 00
 1.371743 1  CFF21CAx        Rx   d 8 03 00 80 0C 3B 39 00 10
 1.375848 1  18F100D0x       Rx   d 8 0C FF FF FF FF FF FF FF
 1.383820 1  CFF21CAx        Rx   d 8 03 00 80 0C 3B 39 00 10
 1.396261 1  CFF21CAx        Rx   d 8 03 00 80 0C 3B 39 00 10
 1.400056 1  18F100D0x       Rx   d 8 0C FF FF FF FF FF FF FF
 1.406096 1  18F100F3x       Rx   d 8 03 3A 7D AA F6 FA 14 00
 1.406974 1  18F102F3x       Rx   d 8 10 23 10 1C 10 0C 00 07
 1.408068 1  CFF21CAx        Rx   d 8 03 00 80 0C 3B 39 00 10
 1.408694 1  18F106F3x       Rx   d 8 45 E0 FC FF FF FF FF FF
 1.409939 1  18F107F3x       Rx   d 8 38 A4 27 10 01 74 00 00
 1.411742 1  18F108F3x       Rx   d 8 00 00 00 00 00 00 00 00
 1.412645 1  18F155F3x       Rx   d 8 37 37 38 38 38 38 38 00
 1.413586 1  18F156F3x       Rx   d 8 00 00 00 00 00 00 00 00
 1.414308 1  18F157F3x       Rx   d 8 00 00 00 00 00 00 00 00
 1.415203 1  18F158F3x       Rx   d 8 00 00 00 00 00 00 00 00
 1.416077 1  18F159F3x       Rx   d 8 00 00 00 00 00 00 00 00
 1.416913 1  18F15AF3x       Rx   d 8 00 00 00 00 00 00 00 00
 1.417912 1  18F15BF3x       Rx   d 7 00 00 00 00 00 00 00
 1.418754 1  18F15CF3x       Rx   d 8 00 00 00 00 00 00 00 00
 1.419722 1  18F15DF3x       Rx   d 8 00 00 00 00 00 00 00 00
 1.420562 1  18F15EF3x       Rx   d 8 00 00 00 00 00 00 00 00
 1.421110 1  CFF21CAx        Rx   d 8 03 00 80 0C 3B 39 00 10
 1.423953 1  18F100D0x       Rx   d 8 0C FF FF FF FF FF FF FF
 1.432130 1  CFF21CAx        Rx   d 8 03 00 80 0C 3B 39 00 10
 1.444638 1  CFF21CAx        Rx   d 8 03 00 80 0C 3B 39 00 10
 1.448206 1  18F100D0x       Rx   d 8 0C FF FF FF FF FF FF FF
 1.456304 1  CFF21CAx        Rx   d 8 03 00 80 0C 3B 39 00 10
 1.465905 1  18FF2112x       Rx   d 8 01 00 00 00 00 00 00 00
 1.468323 1  CFF21CAx        Rx   d 8 02 00 80 0C 3B 39 00 10
 1.472289 1  18F100D0x       Rx   d 8 0C FF FF FF FF FF FF FF
 1.480522 1  CFF21CAx        Rx   d 8 02 00 80 0C 3B 39 00 10
 1.492765 1  CFF21CAx        Rx   d 8 02 00 80 0C 3B 39 00 10
 1.500405 1  18F100D0x       Rx   d 8 0C FF FF FF FF FF FF FF
 1.504435 1  CFF21CAx        Rx   d 8 03 00 80 0C 3B 39 00 10
 1.506070 1  18F100F3x       Rx   d 8 03 39 7D AA F6 FA 14 00
 1.506975 1  18F102F3x       Rx   d 8 10 23 10 1C 10 0C 00 07
 1.508266 1  18F106F3x       Rx   d 8 45 E0 FC FF FF FF FF FF
 1.509541 1  18F107F3x       Rx   d 8 38 A4 27 10 01 73 00 00
 1.511299 1  18F108F3x       Rx   d 8 00 00 00 00 00 00 00 00
 1.512161 1  18F155F3x       Rx   d 8 37 37 38 38 38 38 38 00
 1.512945 1  18F156F3x       Rx   d 8 00 00 00 00 00 00 00 00
 1.527609 1  18F157F3x       Rx   d 8 00 00 00 00 00 00 00 00
 1.527742 1  18F158F3x       Rx   d 8 00 00 00 00 00 00 00 00
 1.527846 1  18F159F3x       Rx   d 8 00 00 00 00 00 00 00 00
 1.527949 1  CFF21CAx        Rx   d 8 03 00 80 0C 3B 39 00 10
 1.528056 1  18F15AF3x       Rx   d 8 00 00 00 00 00 00 00 00
 1.528239 1  18F15BF3x       Rx   d 7 00 00 00 00 00 00 00
 1.528357 1  18F15CF3x       Rx   d 8 00 00 00 00 00 00 00 00
 1.528460 1  18F15DF3x       Rx   d 8 00 00 00 00 00 00 00 00
 1.528560 1  18F15EF3x       Rx   d 8 00 00 00 00 00 00 00 00
 1.528660 1  18F100D0x       Rx   d 8 0C FF FF FF FF FF FF FF
 1.528762 1  CFF21CAx        Rx   d 8 02 00 80 0C 3B 39 00 10
 1.540903 1  CFF21CAx        Rx   d 8 02 00 80 0C 3B 39 00 10
 1.548986 1  18F100D0x       Rx   d 8 0C FF FF FF FF FF FF FF
 1.552504 1  CFF21CAx        Rx   d 8 03 00 80 0C 3B 39 00 10
 1.563030 1  18FF2112x       Rx   d 8 01 00 00 00 00 00 00 00
 1.564546 1  CFF21CAx        Rx   d 8 03 00 80 0C 3B 39 00 10
 1.572785 1  18F100D0x       Rx   d 8 0C FF FF FF FF FF FF FF
 1.576590 1  CFF21CAx        Rx   d 8 03 00 80 0C 3B 39 00 10
 1.589191 1  CFF21CAx        Rx   d 8 03 00 80 0C 3B 39 00 10
 1.596811 1  18F100D0x       Rx   d 8 0C FF FF FF FF FF FF FF
 1.600741 1  CFF21CAx        Rx   d 8 03 00 80 0C 3B 39 00 10
 1.605994 1  18F100F3x       Rx   d 8 03 39 7D AA F6 FA 14 00
 1.606834 1  18F102F3x       Rx   d 8 10 23 10 1C 10 0C 00 07
 1.608151 1  18F106F3x       Rx   d 8 45 E0 FC FF FF FF FF FF
 1.609422 1  18F107F3x       Rx   d 8 38 A4 27 10 01 73 00 00
 1.611138 1  18F108F3x       Rx   d 8 00 00 00 00 00 00 00 00
 1.612046 1  18F155F3x       Rx   d 8 37 37 38 38 38 38 38 00
 1.612739 1  CFF21CAx        Rx   d 8 03 00 80 0C 3B 39 00 10
 1.613412 1  18F156F3x       Rx   d 8 00 00 00 00 00 00 00 00
 1.614176 1  18F157F3x       Rx   d 8 00 00 00 00 00 00 00 00
 1.615076 1  18F158F3x       Rx   d 8 00 00 00 00 00 00 00 00
 1.615952 1  18F159F3x       Rx   d 8 00 00 00 00 00 00 00 00
 1.616858 1  18F15AF3x       Rx   d 8 00 00 00 00 00 00 00 00
 1.617676 1  18F15BF3x       Rx   d 7 00 00 00 00 00 00 00
 1.618572 1  18F15CF3x       Rx   d 8 00 00 00 00 00 00 00 00
 1.619419 1  18F15DF3x       Rx   d 8 00 00 00 00 00 00 00 00
 1.620262 1  18F15EF3x       Rx   d 8 00 00 00 00 00 00 00 00
 1.621132 1  18F100D0x       Rx   d 8 0C FF FF FF FF FF FF FF
 1.624852 1  CFF21CAx        Rx   d 8 03 00 80 0C 3B 39 00 10
 1.637263 1  CFF21CAx        Rx   d 8 03 00 80 0C 3B 39 00 10
 1.645035 1  18F100D0x       Rx   d 8 0C FF FF FF FF FF FF FF
 1.648929 1  CFF21CAx        Rx   d 8 03 00 80 0C 3B 39 00 10
 1.660486 1  18FF2112x       Rx   d 8 01 00 00 00 00 00 00 00
 1.661044 1  CFF21CAx        Rx   d 8 02 00 80 0C 3B 39 00 10
 1.673062 1  CFF21CAx        Rx   d 8 02 00 80 0C 3B 39 00 10
 1.673608 1  18F100D0x       Rx   d 8 0C FF FF FF FF FF FF FF
 1.685625 1  CFF21CAx        Rx   d 8 02 00 80 0C 3B 39 00 10
 1.697399 1  CFF21CAx        Rx   d 8 02 00 80 0C 3B 39 00 10
 1.697862 1  18F100D0x       Rx   d 8 0C FF FF FF FF FF FF FF
 1.706888 1  18F100F3x       Rx   d 8 03 39 7D AC F6 FA 14 00
 1.707205 1  18F102F3x       Rx   d 8 10 23 10 1C 10 0C 00 07
 1.708326 1  18F106F3x       Rx   d 8 45 E0 FC FF FF FF FF FF
 1.709363 1  CFF21CAx        Rx   d 8 02 00 80 0C 3B 39 00 10
 1.709884 1  18F107F3x       Rx   d 8 38 A4 27 10 01 73 00 00
 1.711608 1  18F108F3x       Rx   d 8 00 00 00 00 00 00 00 00
 1.712475 1  18F155F3x       Rx   d 8 37 37 38 38 38 38 38 00
 1.713470 1  18F156F3x       Rx   d 8 00 00 00 00 00 00 00 00
 1.714254 1  18F157F3x       Rx   d 8 00 00 00 00 00 00 00 00
 1.715175 1  18F158F3x       Rx   d 8 00 00 00 00 00 00 00 00
 1.716074 1  18F159F3x       Rx   d 8 00 00 00 00 00 00 00 00
 1.717000 1  18F15AF3x       Rx   d 8 00 00 00 00 00 00 00 00
 1.717780 1  18F15BF3x       Rx   d 7 00 00 00 00 00 00 00
 1.718579 1  18F15CF3x       Rx   d 8 00 00 00 00 00 00 00 00
 1.719430 1  18F15DF3x       Rx   d 8 00 00 00 00 00 00 00 00
 1.720265 1  18F15EF3x       Rx   d 8 00 00 00 00 00 00 00 00
 1.721097 1  CFF21CAx        Rx   d 8 02 00 80 0C 3B 39 00 10
 1.721698 1  18F100D0x       Rx   d 8 0C FF FF FF FF FF FF FF
 1.733354 1  CFF21CAx        Rx   d 8 02 00 80 0C 3B 39 00 10
 1.747669 1  CFF21CAx        Rx   d 8 02 00 80 0C 3B 39 00 10
 1.747800 1  18F100D0x       Rx   d 8 0C FF FF FF FF FF FF FF
 1.757316 1  CFF21CAx        Rx   d 8 02 00 80 0C 3B 39 00 10
 1.757891 1  18FF2112x       Rx   d 8 01 00 00 00 00 00 00 00
 1.769351 1  CFF21CAx        Rx   d 8 02 00 80 0C 3B 39 00 10
 1.769934 1  18F100D0x       Rx   d 8 0C FF FF FF FF FF FF FF
 1.781419 1  CFF21CAx        Rx   d 8 02 00 80 0C 3B 39 00 10
 1.793470 1  CFF21CAx        Rx   d 8 02 00 80 0C 3B 39 00 10
 1.797456 1  18F100D0x       Rx   d 8 0C FF FF FF FF FF FF FF
 1.805519 1  CFF21CAx        Rx   d 8 02 00 80 0C 3B 39 00 10
 1.806023 1  18F100F3x       Rx   d 8 03 39 7D AC F6 FA 14 00
 1.806963 1  18F102F3x       Rx   d 8 10 23 10 1C 10 0C 00 07
 1.808254 1  18F106F3x       Rx   d 8 45 E0 FC FF FF FF FF FF
 1.809505 1  18F107F3x       Rx   d 8 38 A4 27 10 01 73 00 00
 1.811392 1  18F108F3x       Rx   d 8 00 00 00 00 00 00 00 00
 1.812100 1  18F155F3x       Rx   d 8 37 37 38 38 38 38 38 00
 1.812983 1  18F156F3x       Rx   d 8 00 00 00 00 00 00 00 00
 1.813930 1  18F157F3x       Rx   d 8 00 00 00 00 00 00 00 00
 1.815082 1  18F158F3x       Rx   d 8 00 00 00 00 00 00 00 00
 1.815899 1  18F159F3x       Rx   d 8 00 00 00 00 00 00 00 00
 1.816804 1  18F15AF3x       Rx   d 8 00 00 00 00 00 00 00 00
 1.817498 1  CFF21CAx        Rx   d 8 03 00 80 0C 3B 39 00 10
 1.818036 1  18F15BF3x       Rx   d 7 00 00 00 00 00 00 00
 1.818956 1  18F15CF3x       Rx   d 8 00 00 00 00 00 00 00 00
 1.819861 1  18F15DF3x       Rx   d 8 00 00 00 00 00 00 00 00
 1.820692 1  18F15EF3x       Rx   d 8 00 00 00 00 00 00 00 00
 1.821523 1  18F100D0x       Rx   d 8 0C FF FF FF FF FF FF FF
 1.829592 1  CFF21CAx        Rx   d 8 03 00 80 0C 3B 39 00 10
 1.841757 1  CFF21CAx        Rx   d 8 03 00 80 0C 3B 39 00 10
 1.845784 1  18F100D0x       Rx   d 8 0C FF FF FF FF FF FF FF
 1.853836 1  CFF21CAx        Rx   d 8 03 00 80 0C 3B 39 00 10
 1.854935 1  18FF2112x       Rx   d 8 01 00 00 00 00 00 00 00
 1.865771 1  CFF21CAx        Rx   d 8 03 00 80 0C 3B 39 00 10
 1.869895 1  18F100D0x       Rx   d 8 0C FF FF FF FF FF FF FF
 1.877931 1  CFF21CAx        Rx   d 8 03 00 80 0C 3B 39 00 10
 1.889823 1  CFF21CAx        Rx   d 8 03 00 80 0C 3B 39 00 10
 1.897885 1  18F100D0x       Rx   d 8 0C FF FF FF FF FF FF FF
 1.901848 1  CFF21CAx        Rx   d 8 03 00 80 0C 3B 39 00 10
 1.905920 1  18F100F3x       Rx   d 8 03 39 7D AC F6 FA 14 00
 1.908272 1  18F102F3x       Rx   d 8 10 23 10 1C 10 0C 00 07
 1.908577 1  18F106F3x       Rx   d 8 45 E0 FC FF FF FF FF FF
 1.909527 1  18F107F3x       Rx   d 8 38 A4 27 10 01 73 00 00
 1.911299 1  18F108F3x       Rx   d 8 00 00 00 00 00 00 00 00
 1.912173 1  18F155F3x       Rx   d 8 37 37 38 38 38 38 38 00
 1.913086 1  18F156F3x       Rx   d 8 00 00 00 00 00 00 00 00
 1.913992 1  18F157F3x       Rx   d 8 00 00 00 00 00 00 00 00
 1.914397 1  CFF21CAx        Rx   d 8 03 00 80 0C 3B 39 00 10
 1.915168 1  18F158F3x       Rx   d 8 00 00 00 00 00 00 00 00
 1.916062 1  18F159F3x       Rx   d 8 00 00 00 00 00 00 00 00
 1.916982 1  18F15AF3x       Rx   d 8 00 00 00 00 00 00 00 00
 1.917841 1  18F15BF3x       Rx   d 7 00 00 00 00 00 00 00
 1.918659 1  18F15CF3x       Rx   d 8 00 00 00 00 00 00 00 00
 1.919607 1  18F15DF3x       Rx   d 8 00 00 00 00 00 00 00 00
 1.920451 1  18F15EF3x       Rx   d 8 00 00 00 00 00 00 00 00
 1.922091 1  18F100D0x       Rx   d 8 0C FF FF FF FF FF FF FF
 1.926110 1  CFF21CAx        Rx   d 8 03 00 80 0C 3B 39 00 10
 1.938214 1  CFF21CAx        Rx   d 8 03 00 80 0C 3B 39 00 10
 1.946206 1  18F100D0x       Rx   d 8 0C FF FF FF FF FF FF FF
 1.950217 1  CFF21CAx        Rx   d 8 03 00 80 0C 3B 39 00 10
 1.952050 1  18FF2112x       Rx   d 8 01 00 00 00 00 00 00 00
 1.966037 1  CFF21CAx        Rx   d 8 03 00 80 0C 3B 39 00 10
 1.970206 1  18F100D0x       Rx   d 8 0C FF FF FF FF FF FF FF
 1.974141 1  CFF21CAx        Rx   d 8 03 00 80 0C 3B 39 00 10
 1.986262 1  CFF21CAx        Rx   d 8 03 00 80 0C 3B 39 00 10
 1.986806 1  18FECACAx       Rx   d 8 00 00 00 00 00 00 FF FF
 1.994494 1  18F100D0x       Rx   d 8 0C FF FF FF FF FF FF FF
 1.998378 1  CFF21CAx        Rx   d 8 03 00 80 0C 3B 39 00 10
 2.006005 1  18F100F3x       Rx   d 8 03 39 7D AA F6 FA 14 00
 2.006856 1  18F102F3x       Rx   d 8 10 23 10 1C 10 0C 00 07
 2.008170 1  18F106F3x       Rx   d 8 45 E0 FC FF FF FF FF FF
 2.009433 1  18F107F3x       Rx   d 8 38 A4 27 10 01 73 00 00
 2.010767 1  CFF21CAx        Rx   d 8 02 00 80 0C 3B 39 00 10
 2.011334 1  18F108F3x       Rx   d 8 00 00 00 00 00 00 00 00
 2.012202 1  18F155F3x       Rx   d 8 37 37 38 38 38 38 38 00
 2.013100 1  18F156F3x       Rx   d 8 00 00 00 00 00 00 00 00
 2.013984 1  18F157F3x       Rx   d 8 00 00 00 00 00 00 00 00
 2.015086 1  18F158F3x       Rx   d 8 00 00 00 00 00 00 00 00
 2.015970 1  18F159F3x       Rx   d 8 00 00 00 00 00 00 00 00
 2.016889 1  18F15AF3x       Rx   d 8 00 00 00 00 00 00 00 00
 2.017666 1  18F15BF3x       Rx   d 7 00 00 00 00 00 00 00
 2.018648 1  18F15CF3x       Rx   d 8 00 00 00 00 00 00 00 00
 2.019393 1  18F15DF3x       Rx   d 8 00 00 00 00 00 00 00 00
 2.020347 1  18F15EF3x       Rx   d 8 00 00 00 00 00 00 00 00
 2.022413 1  CFF21CAx        Rx   d 8 02 00 80 0C 3B 39 00 10
 2.022924 1  18F100D0x       Rx   d 8 0C FF FF FF FF FF FF FF
 2.034513 1  CFF21CAx        Rx   d 8 02 00 80 0C 3B 39 00 10
 2.046480 1  CFF21CAx        Rx   d 8 02 00 80 0C 3B 39 00 10
 2.047021 1  18F100D0x       Rx   d 8 0C FF FF FF FF FF FF FF
 2.049408 1  18FF2112x       Rx   d 8 01 00 00 00 00 00 00 00
 2.058554 1  CFF21CAx        Rx   d 8 02 00 80 0C 3B 39 00 10
 2.070762 1  CFF21CAx        Rx   d 8 02 00 80 0C 3B 39 00 10
 2.074648 1  18F100D0x       Rx   d 8 0C FF FF FF FF FF FF FF
 2.082715 1  CFF21CAx        Rx   d 8 02 00 80 0C 3B 39 00 10
 2.094909 1  CFF21CAx        Rx   d 8 02 00 80 0C 3B 39 00 10
 2.098780 1  18F100D0x       Rx   d 8 0C FF FF FF FF FF FF FF
 2.106006 1  18F100F3x       Rx   d 8 03 39 7D AA F6 FA 14 00
 2.106885 1  18F102F3x       Rx   d 8 10 23 10 1C 10 0C 00 07
 2.107441 1  CFF21CAx        Rx   d 8 02 00 80 0C 3B 39 00 10
 2.108144 1  18F106F3x       Rx   d 8 45 E0 FC FF FF FF FF FF
 2.111022 1  18F107F3x       Rx   d 8 38 A4 27 10 01 73 00 00
 2.111306 1  18F108F3x       Rx   d 8 00 00 00 00 00 00 00 00
 2.112184 1  18F155F3x       Rx   d 8 37 37 38 38 38 38 38 00
 2.112948 1  18F156F3x       Rx   d 8 00 00 00 00 00 00 00 00
 2.114040 1  18F157F3x       Rx   d 8 00 00 00 00 00 00 00 00
 2.115088 1  18F158F3x       Rx   d 8 00 00 00 00 00 00 00 00
 2.115967 1  18F159F3x       Rx   d 8 00 00 00 00 00 00 00 00
 2.116879 1  18F15AF3x       Rx   d 8 00 00 00 00 00 00 00 00
 2.117875 1  18F15BF3x       Rx   d 7 00 00 00 00 00 00 00
 2.118676 1  18F15CF3x       Rx   d 8 00 00 00 00 00 00 00 00
 2.119151 1  CFF21CAx        Rx   d 8 02 00 80 0C 3B 39 00 10
 2.119743 1  18F15DF3x       Rx   d 8 00 00 00 00 00 00 00 00
 2.120657 1  18F15EF3x       Rx   d 8 00 00 00 00 00 00 00 00
 2.123382 1  18F100D0x       Rx   d 8 0C FF FF FF FF FF FF FF
 2.130895 1  CFF21CAx        Rx   d 8 03 00 80 0C 3B 39 00 10
 2.143047 1  CFF21CAx        Rx   d 8 03 00 80 0C 3B 39 00 10
 2.147082 1  18FF2112x       Rx   d 8 01 00 00 00 00 00 00 00
 2.147407 1  18F100D0x       Rx   d 8 0C FF FF FF FF FF FF FF
 2.155377 1  CFF21CAx        Rx   d 8 03 00 80 0C 3B 39 00 10
 2.167070 1  CFF21CAx        Rx   d 8 03 00 80 0C 3B 39 00 10
 2.171168 1  18F100D0x       Rx   d 8 0C FF FF FF FF FF FF FF
 2.184804 1  CFF21CAx        Rx   d 8 03 00 80 0C 3B 39 00 10
 2.191100 1  CFF21CAx        Rx   d 8 03 00 80 0C 3B 39 00 10
 2.199103 1  18F100D0x       Rx   d 8 0C FF FF FF FF FF FF FF
 2.203176 1  CFF21CAx        Rx   d 8 02 00 80 0C 3B 39 00 10
 2.205994 1  18F100F3x       Rx   d 8 03 39 7D AA F6 FA 14 00
 2.206859 1  18F102F3x       Rx   d 8 10 23 10 1C 10 0C 00 07
 2.208182 1  18F106F3x       Rx   d 8 45 E0 FC FF FF FF FF FF
 2.209433 1  18F107F3x       Rx   d 8 38 A4 27 10 01 73 00 00
 2.211203 1  18F108F3x       Rx   d 8 00 00 00 00 00 00 00 00
 2.212067 1  18F155F3x       Rx   d 8 37 37 38 38 38 38 38 00
 2.212971 1  18F156F3x       Rx   d 8 00 00 00 00 00 00 00 00
 2.213892 1  18F157F3x       Rx   d 8 00 00 00 00 00 00 00 00
 2.215101 1  18F158F3x       Rx   d 8 00 00 00 00 00 00 00 00
 2.215725 1  CFF21CAx        Rx   d 8 02 00 80 0C 3B 39 00 10
 2.216230 1  18F159F3x       Rx   d 8 00 00 00 00 00 00 00 00
 2.217125 1  18F15AF3x       Rx   d 8 00 00 00 00 00 00 00 00
 2.217909 1  18F15BF3x       Rx   d 7 00 00 00 00 00 00 00
 2.218821 1  18F15CF3x       Rx   d 8 00 00 00 00 00 00 00 00
 2.219734 1  18F15DF3x       Rx   d 8 00 00 00 00 00 00 00 00
 2.220610 1  18F15EF3x       Rx   d 8 00 00 00 00 00 00 00 00
 2.223179 1  18F100D0x       Rx   d 8 0C FF FF FF FF FF FF FF
 2.227239 1  CFF21CAx        Rx   d 8 02 00 80 0C 3B 39 00 10
 2.239396 1  CFF21CAx        Rx   d 8 02 00 80 0C 3B 39 00 10
 2.244080 1  18FF2112x       Rx   d 8 01 00 00 00 00 00 00 00
 2.247358 1  18F100D0x       Rx   d 8 0C FF FF FF FF FF FF FF
 2.251819 1  CFF21CAx        Rx   d 8 02 00 80 0C 3B 39 00 10
 2.263550 1  CFF21CAx        Rx   d 8 03 00 80 0C 3B 39 00 10
 2.271489 1  18F100D0x       Rx   d 8 0C FF FF FF FF FF FF FF
 2.275929 1  CFF21CAx        Rx   d 8 03 00 80 0C 3B 39 00 10
 2.287439 1  CFF21CAx        Rx   d 8 03 00 80 0C 3B 39 00 10
 2.295680 1  18F100D0x       Rx   d 8 0C FF FF FF FF FF FF FF
 2.297489 1  18F104F3x       Rx   d 8 38 37 03 01 01 FF FF FF
 2.298409 1  18F113F3x       Rx   d 8 10 1F 10 1E 10 1E 10 1F
 2.299294 1  18F114F3x       Rx   d 8 10 1D 10 1D 10 20 10 1F
 2.299869 1  CFF21CAx        Rx   d 8 02 00 80 0C 3B 39 00 10
 2.300406 1  18F115F3x       Rx   d 8 10 1D 10 1D 10 1D 10 1C
 2.301423 1  18F116F3x       Rx   d 8 10 21 10 1F 10 22 10 23
 2.302199 1  18F117F3x       Rx   d 8 10 1F 10 1F 10 22 10 23
 2.303235 1  18F118F3x       Rx   d 8 00 00 00 00 00 00 00 00
 2.304138 1  18F119F3x       Rx   d 8 00 00 00 00 00 00 00 00
 2.305345 1  18F11AF3x       Rx   d 8 00 00 00 00 00 00 00 00
 2.306242 1  18F100F3x       Rx   d 8 03 39 7D AA F6 FA 14 00
 2.306878 1  18F102F3x       Rx   d 8 10 23 10 1C 10 0C 00 07
 2.308220 1  18F106F3x       Rx   d 8 45 E0 FC FF FF FF FF FF
 2.309521 1  18F107F3x       Rx   d 8 38 A4 27 10 01 73 00 00
 2.311343 1  18F108F3x       Rx   d 8 00 00 00 00 00 00 00 00
 2.311884 1  CFF21CAx        Rx   d 8 02 00 80 0C 3B 39 00 10
 2.312481 1  18F11BF3x       Rx   d 8 00 00 00 00 00 00 00 00
 2.313637 1  18F11CF3x       Rx   d 8 00 00 00 00 00 00 00 00
 2.315810 1  18F11DF3x       Rx   d 8 00 00 00 00 00 00 00 00
 2.316113 1  18F11EF3x       Rx   d 8 00 00 00 00 00 00 00 00
 2.316382 1  18F11FF3x       Rx   d 8 00 00 00 00 00 00 00 00
 2.317120 1  18F120F3x       Rx   d 8 00 00 00 00 00 00 00 00
 2.318065 1  18F121F3x       Rx   d 8 00 00 00 00 00 00 00 00
 2.318840 1  18F122F3x       Rx   d 8 00 00 00 00 00 00 00 00
 2.319525 1  18F100D0x       Rx   d 8 0C FF FF FF FF FF FF FF
 2.320113 1  18F123F3x       Rx   d 8 00 00 00 00 00 00 00 00
 2.321020 1  18F124F3x       Rx   d 8 00 00 00 00 00 00 00 00
 2.321943 1  18F125F3x       Rx   d 8 00 00 00 00 00 00 00 00
 2.323052 1  18F126F3x       Rx   d 8 00 00 00 00 00 00 00 00
 2.324019 1  18F127F3x       Rx   d 8 00 00 00 00 00 00 00 00
 2.324782 1  CFF21CAx        Rx   d 8 02 00 80 0C 3B 39 00 10
 2.325257 1  18F128F3x       Rx   d 8 00 00 00 00 00 00 00 00
 2.326117 1  18F129F3x       Rx   d 8 00 00 00 00 00 00 00 00
 2.327031 1  18F12AF3x       Rx   d 8 00 00 00 00 00 00 00 00
 2.327981 1  18F12BF3x       Rx   d 8 00 00 00 00 00 00 00 00
 2.328920 1  18F12CF3x       Rx   d 8 00 00 00 00 00 00 00 00
 2.329841 1  18F12DF3x       Rx   d 8 00 00 00 00 00 00 00 00
 2.330833 1  18F12EF3x       Rx   d 8 00 00 00 00 00 00 00 00
 2.331724 1  18F12FF3x       Rx   d 8 00 00 00 00 00 00 00 00
 2.332633 1  18F130F3x       Rx   d 8 00 00 00 00 00 00 00 00
 2.333491 1  18F131F3x       Rx   d 8 00 00 00 00 00 00 00 00
 2.334412 1  18F132F3x       Rx   d 8 00 00 00 00 00 00 00 00
 2.335306 1  18F133F3x       Rx   d 8 00 00 00 00 00 00 00 00
 2.335886 1  CFF21CAx        Rx   d 8 02 00 80 0C 3B 39 00 10
 2.336439 1  18F134F3x       Rx   d 8 00 00 00 00 00 00 00 00
 2.337321 1  18F135F3x       Rx   d 8 00 00 00 00 00 00 00 00
 2.338201 1  18F136F3x       Rx   d 8 00 00 00 00 00 00 00 00
 2.339112 1  18F137F3x       Rx   d 8 00 00 00 00 00 00 00 00
 2.340009 1  18F138F3x       Rx   d 8 00 00 00 00 00 00 00 00
 2.340926 1  18F139F3x       Rx   d 8 00 00 00 00 00 00 00 00
 2.341510 1  18FF2112x       Rx   d 8 01 00 00 00 00 00 00 00
 2.342010 1  18F13AF3x       Rx   d 8 00 00 00 00 00 00 00 00
 2.342897 1  18F13BF3x       Rx   d 8 00 00 00 00 00 00 00 00
 2.343827 1  18F13CF3x       Rx   d 8 00 00 00 00 00 00 00 00
 2.345101 1  18F155F3x       Rx   d 8 37 37 38 38 38 38 38 00
 2.346051 1  18F156F3x       Rx   d 8 00 00 00 00 00 00 00 00
 2.347078 1  18F157F3x       Rx   d 8 00 00 00 00 00 00 00 00
 2.347891 1  18F158F3x       Rx   d 8 00 00 00 00 00 00 00 00
 2.348391 1  CFF21CAx        Rx   d 8 02 00 80 0C 3B 39 00 10
 2.348936 1  18F100D0x       Rx   d 8 0C FF FF FF FF FF FF FF
 2.349509 1  18F159F3x       Rx   d 8 00 00 00 00 00 00 00 00
