date Sun May 17 17:08:01.796 2026
base hex  timestamps absolute
internal events logged
Begin Triggerblock Sun May 17 17:08:01.802 2026
 0.000000 Start of measurement
 0.000000 1  CFF21CAx        Rx   d 8 03 00 80 0C 4B 44 00 28
 0.013069 1  18F100D0x       Rx   d 8 0C FF FF FF FF FF FF FF
 0.013319 1  CFF21CAx        Rx   d 8 03 00 80 0C 4B 44 00 28
 0.016068 1  CFF21CAx        Rx   d 8 02 00 80 0C 4B 44 00 28
 0.016442 1  18F100D0x       Rx   d 8 0C FF FF FF FF FF FF FF
 0.028127 1  CFF21CAx        Rx   d 8 02 00 80 0C 4B 44 00 28
 0.039973 1  CFF21CAx        Rx   d 8 02 00 80 0C 4B 44 00 28
 0.044140 1  18F100D0x       Rx   d 8 0C FF FF FF FF FF FF FF
 0.052145 1  CFF21CAx        Rx   d 8 02 00 80 0C 4B 44 00 28
 0.055014 1  18F104F3x       Rx   d 8 38 35 06 02 03 FF FF FF
 0.055869 1  18F113F3x       Rx   d 8 0F 53 0F 53 0F 53 0F 54
 0.056786 1  18F114F3x       Rx   d 8 0F 52 0F 52 0F 55 0F 53
 0.057644 1  18F115F3x       Rx   d 8 0F 51 0F 51 0F 51 0F 51
 0.058533 1  18F116F3x       Rx   d 8 0F 55 0F 54 0F 56 0F 58
 0.059482 1  18F117F3x       Rx   d 8 0F 54 0F 55 0F 58 0F 57
 0.060387 1  18F118F3x       Rx   d 8 00 00 00 00 00 00 00 00
 0.061615 1  18F119F3x       Rx   d 8 00 00 00 00 00 00 00 00
 0.062553 1  18F11AF3x       Rx   d 8 00 00 00 00 00 00 00 00
 0.063480 1  18F11BF3x       Rx   d 8 00 00 00 00 00 00 00 00
 0.064037 1  CFF21CAx        Rx   d 8 02 00 80 0C 4B 44 00 28
 0.064733 1  18F11CF3x       Rx   d 8 00 00 00 00 00 00 00 00
 0.065253 1  18FF2112x       Rx   d 8 01 00 00 00 00 00 00 00
 0.065761 1  18F100F3x       Rx   d 8 03 11 7D 94 C8 FA 14 00
 0.066301 1  18F102F3x       Rx   d 8 0F 58 0F 51 10 09 00 07
 0.067715 1  18F106F3x       Rx   d 8 45 E0 FC FF FF FF FF FF
 0.068549 1  18F100D0x       Rx   d 8 0C FF FF FF FF FF FF FF
 0.069095 1  18F107F3x       Rx   d 8 38 A4 2B 2A 01 61 00 52
 0.070928 1  18F108F3x       Rx   d 8 00 00 00 00 00 00 00 00
 0.071949 1  18F11DF3x       Rx   d 8 00 00 00 00 00 00 00 00
 0.073242 1  18F11EF3x       Rx   d 8 00 00 00 00 00 00 00 00
 0.074175 1  18F11FF3x       Rx   d 8 00 00 00 00 00 00 00 00
 0.074886 1  18F120F3x       Rx   d 8 00 00 00 00 00 00 00 00
 0.075846 1  18F121F3x       Rx   d 8 00 00 00 00 00 00 00 00
 0.076394 1  CFF21CAx        Rx   d 8 02 00 80 0C 4C 44 00 28
 0.076932 1  18F122F3x       Rx   d 8 00 00 00 00 00 00 00 00
 0.078033 1  18F123F3x       Rx   d 8 00 00 00 00 00 00 00 00
 0.078797 1  18F124F3x       Rx   d 8 00 00 00 00 00 00 00 00
 0.079803 1  18F125F3x       Rx   d 8 00 00 00 00 00 00 00 00
 0.080792 1  18F126F3x       Rx   d 8 00 00 00 00 00 00 00 00
 0.082003 1  18F127F3x       Rx   d 8 00 00 00 00 00 00 00 00
 0.082893 1  18F128F3x       Rx   d 8 00 00 00 00 00 00 00 00
 0.083846 1  18F129F3x       Rx   d 8 00 00 00 00 00 00 00 00
 0.084732 1  18F12AF3x       Rx   d 8 00 00 00 00 00 00 00 00
 0.085734 1  18F12BF3x       Rx   d 8 00 00 00 00 00 00 00 00
 0.086485 1  18F12CF3x       Rx   d 8 00 00 00 00 00 00 00 00
 0.087610 1  18F12DF3x       Rx   d 8 00 00 00 00 00 00 00 00
 0.088311 1  CFF21CAx        Rx   d 8 02 00 80 0C 4C 44 00 28
 0.089124 1  18F100D0x       Rx   d 8 0C FF FF FF FF FF FF FF
 0.089475 1  18F12EF3x       Rx   d 8 00 00 00 00 00 00 00 00
 0.090597 1  18F12FF3x       Rx   d 8 00 00 00 00 00 00 00 00
 0.091652 1  18F130F3x       Rx   d 8 00 00 00 00 00 00 00 00
 0.092703 1  18F131F3x       Rx   d 8 00 00 00 00 00 00 00 00
 0.093479 1  18F132F3x       Rx   d 8 00 00 00 00 00 00 00 00
 0.094581 1  18F133F3x       Rx   d 8 00 00 00 00 00 00 00 00
 0.095317 1  18F134F3x       Rx   d 8 00 00 00 00 00 00 00 00
 0.096186 1  18F135F3x       Rx   d 8 00 00 00 00 00 00 00 00
 0.097013 1  18F136F3x       Rx   d 8 00 00 00 00 00 00 00 00
 0.097836 1  18F137F3x       Rx   d 8 00 00 00 00 00 00 00 00
 0.098737 1  18F138F3x       Rx   d 8 00 00 00 00 00 00 00 00
 0.099678 1  18F139F3x       Rx   d 8 00 00 00 00 00 00 00 00
 0.100560 1  18F13AF3x       Rx   d 8 00 00 00 00 00 00 00 00
 0.101057 1  CFF21CAx        Rx   d 8 02 00 80 0C 4C 44 00 28
 0.101919 1  18F13BF3x       Rx   d 8 00 00 00 00 00 00 00 00
 0.102516 1  18F13CF3x       Rx   d 8 00 00 00 00 00 00 00 00
 0.103445 1  18F155F3x       Rx   d 8 36 35 36 35 35 38 37 00
 0.104554 1  18F156F3x       Rx   d 8 00 00 00 00 00 00 00 00
 0.105460 1  18F157F3x       Rx   d 8 00 00 00 00 00 00 00 00
 0.106275 1  18F158F3x       Rx   d 8 00 00 00 00 00 00 00 00
 0.107237 1  18F159F3x       Rx   d 8 00 00 00 00 00 00 00 00
 0.107967 1  18F15AF3x       Rx   d 8 00 00 00 00 00 00 00 00
 0.108930 1  18F15BF3x       Rx   d 7 00 00 00 00 00 00 00
 0.109865 1  18F15CF3x       Rx   d 8 00 00 00 00 00 00 00 00
 0.110695 1  18F15DF3x       Rx   d 8 00 00 00 00 00 00 00 00
 0.111691 1  18F15EF3x       Rx   d 8 00 00 00 00 00 00 00 00
 0.112385 1  CFF21CAx        Rx   d 8 02 00 80 0C 4C 44 00 28
 0.116607 1  18F100D0x       Rx   d 8 0C FF FF FF FF FF FF FF
 0.124522 1  CFF21CAx        Rx   d 8 02 00 80 0C 4C 44 00 28
 0.136616 1  CFF21CAx        Rx   d 8 02 00 80 0C 4C 44 00 28
 0.144847 1  18F100D0x       Rx   d 8 0C FF FF FF FF FF FF FF
 0.148794 1  CFF21CAx        Rx   d 8 02 00 80 0C 4C 44 00 28
 0.161016 1  CFF21CAx        Rx   d 8 02 00 80 0C 4C 44 00 28
 0.161548 1  18FF2112x       Rx   d 8 01 00 00 00 00 00 00 00
 0.165664 1  18F100F3x       Rx   d 8 03 11 7D 94 C8 FA 14 00
 0.166524 1  18F102F3x       Rx   d 8 0F 58 0F 51 10 09 00 07
 0.167886 1  18F106F3x       Rx   d 8 45 E0 FC FF FF FF FF FF
 0.169168 1  18F107F3x       Rx   d 8 38 A4 2B 2A 01 61 00 52
 0.170897 1  18F108F3x       Rx   d 8 00 00 00 00 00 00 00 00
 0.171793 1  18F155F3x       Rx   d 8 36 35 36 35 35 38 37 00
 0.172861 1  18F156F3x       Rx   d 8 00 00 00 00 00 00 00 00
 0.173222 1  CFF21CAx        Rx   d 8 02 00 80 0C 4C 44 00 28
 0.173789 1  18F100D0x       Rx   d 8 0C FF FF FF FF FF FF FF
 0.174390 1  18F157F3x       Rx   d 8 00 00 00 00 00 00 00 00
 0.175491 1  18F158F3x       Rx   d 8 00 00 00 00 00 00 00 00
 0.176224 1  18F159F3x       Rx   d 8 00 00 00 00 00 00 00 00
 0.177056 1  18F15AF3x       Rx   d 8 00 00 00 00 00 00 00 00
 0.178041 1  18F15BF3x       Rx   d 7 00 00 00 00 00 00 00
 0.178715 1  18F15CF3x       Rx   d 8 00 00 00 00 00 00 00 00
 0.179774 1  18F15DF3x       Rx   d 8 00 00 00 00 00 00 00 00
 0.180669 1  18F15EF3x       Rx   d 8 00 00 00 00 00 00 00 00
 0.184815 1  CFF21CAx        Rx   d 8 02 00 80 0C 4C 44 00 28
 0.193115 1  18F100D0x       Rx   d 8 0C FF FF FF FF FF FF FF
 0.193651 1  18FECACAx       Rx   d 8 00 00 00 00 00 00 FF FF
 0.197169 1  CFF21CAx        Rx   d 8 02 00 80 0C 4C 44 00 28
 0.208903 1  CFF21CAx        Rx   d 8 02 00 80 0C 4C 44 00 28
 0.212994 1  18F100D0x       Rx   d 8 0C FF FF FF FF FF FF FF
 0.240539 1  CFF21CAx        Rx   d 8 02 00 80 0C 4C 44 00 28
 0.242832 1  CFF21CAx        Rx   d 8 02 00 80 0C 4C 44 00 28
 0.243065 1  18F100D0x       Rx   d 8 0C FF FF FF FF FF FF FF
 0.244914 1  CFF21CAx        Rx   d 8 02 00 80 0C 4C 44 00 28
 0.257030 1  CFF21CAx        Rx   d 8 02 00 80 0C 4C 44 00 28
 0.258690 1  18FF2112x       Rx   d 8 01 00 00 00 00 00 00 00
 0.261395 1  18F100D0x       Rx   d 8 0C FF FF FF FF FF FF FF
 0.265704 1  18F100F3x       Rx   d 8 03 11 7D 95 C8 FA 14 00
 0.266580 1  18F102F3x       Rx   d 8 0F 58 0F 51 10 09 00 07
 0.267904 1  18F106F3x       Rx   d 8 45 E0 FC FF FF FF FF FF
 0.269206 1  CFF21CAx        Rx   d 8 03 00 80 0C 4C 44 00 28
 0.269570 1  18F107F3x       Rx   d 8 38 A4 2B 2A 01 61 00 52
 0.271908 1  18F108F3x       Rx   d 8 00 00 00 00 00 00 00 00
 0.272847 1  18F155F3x       Rx   d 8 36 35 36 35 35 38 37 00
 0.273506 1  18F156F3x       Rx   d 8 00 00 00 00 00 00 00 00
 0.274595 1  18F157F3x       Rx   d 8 00 00 00 00 00 00 00 00
 0.275449 1  18F158F3x       Rx   d 8 00 00 00 00 00 00 00 00
 0.276381 1  18F159F3x       Rx   d 8 00 00 00 00 00 00 00 00
 0.277238 1  18F15AF3x       Rx   d 8 00 00 00 00 00 00 00 00
 0.278110 1  18F15BF3x       Rx   d 7 00 00 00 00 00 00 00
 0.278826 1  18F15CF3x       Rx   d 8 00 00 00 00 00 00 00 00
 0.279525 1  18F15DF3x       Rx   d 8 00 00 00 00 00 00 00 00
 0.280400 1  18F15EF3x       Rx   d 8 00 00 00 00 00 00 00 00
 0.280952 1  CFF21CAx        Rx   d 8 03 00 80 0C 4C 44 00 28
 0.281540 1  18F100D0x       Rx   d 8 0C FF FF FF FF FF FF FF
 0.293149 1  CFF21CAx        Rx   d 8 03 00 80 0C 4C 44 00 28
 0.305109 1  CFF21CAx        Rx   d 8 02 00 80 0C 4C 44 00 28
 0.309286 1  18F100D0x       Rx   d 8 0C FF FF FF FF FF FF FF
 0.317372 1  CFF21CAx        Rx   d 8 02 00 80 0C 4C 44 00 28
 0.329316 1  CFF21CAx        Rx   d 8 02 00 80 0C 4C 44 00 28
 0.337367 1  18F100D0x       Rx   d 8 0C FF FF FF FF FF FF FF
 0.341533 1  CFF21CAx        Rx   d 8 02 00 80 0C 4C 44 00 28
 0.353398 1  CFF21CAx        Rx   d 8 02 00 80 0C 4C 44 00 28
 0.355998 1  18FF2112x       Rx   d 8 01 00 00 00 00 00 00 00
 0.365439 1  CFF21CAx        Rx   d 8 01 00 80 0C 4C 44 00 28
 0.366010 1  18F100D0x       Rx   d 8 0C FF FF FF FF FF FF FF
 0.366464 1  18F100F3x       Rx   d 8 03 11 7D 95 C8 FA 14 00
 0.367507 1  18F102F3x       Rx   d 8 0F 58 0F 51 10 09 00 07
 0.368841 1  18F106F3x       Rx   d 8 45 E0 FC FF FF FF FF FF
 0.370041 1  18F107F3x       Rx   d 8 38 A4 2B 2A 01 61 00 52
 0.372032 1  18F108F3x       Rx   d 8 00 00 00 00 00 00 00 00
 0.373065 1  18F155F3x       Rx   d 8 36 35 36 35 35 38 37 00
 0.373900 1  18F156F3x       Rx   d 8 00 00 00 00 00 00 00 00
 0.374530 1  18F157F3x       Rx   d 8 00 00 00 00 00 00 00 00
 0.375641 1  18F158F3x       Rx   d 8 00 00 00 00 00 00 00 00
 0.376639 1  18F159F3x       Rx   d 8 00 00 00 00 00 00 00 00
 0.377489 1  18F15AF3x       Rx   d 8 00 00 00 00 00 00 00 00
 0.377826 1  CFF21CAx        Rx   d 8 01 00 80 0C 4C 44 00 28
 0.378355 1  18F15BF3x       Rx   d 7 00 00 00 00 00 00 00
 0.379467 1  18F15CF3x       Rx   d 8 00 00 00 00 00 00 00 00
 0.380420 1  18F15DF3x       Rx   d 8 00 00 00 00 00 00 00 00
 0.381145 1  18F15EF3x       Rx   d 8 00 00 00 00 00 00 00 00
 0.385509 1  18F100D0x       Rx   d 8 0C FF FF FF FF FF FF FF
 0.389685 1  CFF21CAx        Rx   d 8 01 00 80 0C 4C 44 00 28
 0.401628 1  CFF21CAx        Rx   d 8 02 00 80 0C 4C 44 00 28
 0.413767 1  CFF21CAx        Rx   d 8 02 00 80 0C 4C 44 00 28
 0.414132 1  18F100D0x       Rx   d 8 0C FF FF FF FF FF FF FF
 0.425749 1  CFF21CAx        Rx   d 8 02 00 80 0C 4C 44 00 28
 0.437942 1  CFF21CAx        Rx   d 8 02 00 80 0C 4C 44 00 28
 0.438352 1  18F100D0x       Rx   d 8 0C FF FF FF FF FF FF FF
 0.473320 1  CFF21CAx        Rx   d 8 02 00 80 0C 4C 44 00 28
 0.473551 1  18FF2112x       Rx   d 8 01 00 00 00 00 00 00 00
 0.473759 1  CFF21CAx        Rx   d 8 02 00 80 0C 4C 44 00 28
 0.473963 1  18F100F3x       Rx   d 8 03 11 7D 95 C8 FA 14 00
 0.474172 1  18F100D0x       Rx   d 8 0C FF FF FF FF FF FF FF
 0.474372 1  18F102F3x       Rx   d 8 0F 58 0F 51 10 09 00 07
 0.474645 1  18F106F3x       Rx   d 8 45 E0 FC FF FF FF FF FF
 0.474870 1  18F107F3x       Rx   d 8 38 A4 2B 2A 01 61 00 52
 0.475077 1  18F108F3x       Rx   d 8 00 00 00 00 00 00 00 00
 0.475279 1  18F155F3x       Rx   d 8 36 35 36 35 35 38 37 00
 0.475484 1  18F156F3x       Rx   d 8 00 00 00 00 00 00 00 00
 0.475682 1  18F157F3x       Rx   d 8 00 00 00 00 00 00 00 00
 0.475880 1  CFF21CAx        Rx   d 8 02 00 80 0C 4C 44 00 28
 0.476078 1  18F158F3x       Rx   d 8 00 00 00 00 00 00 00 00
 0.476274 1  18F159F3x       Rx   d 8 00 00 00 00 00 00 00 00
 0.476468 1  18F15AF3x       Rx   d 8 00 00 00 00 00 00 00 00
 0.477604 1  18F15BF3x       Rx   d 7 00 00 00 00 00 00 00
 0.478276 1  18F15CF3x       Rx   d 8 00 00 00 00 00 00 00 00
 0.479185 1  18F15DF3x       Rx   d 8 00 00 00 00 00 00 00 00
 0.480171 1  18F15EF3x       Rx   d 8 00 00 00 00 00 00 00 00
 0.485868 1  CFF21CAx        Rx   d 8 02 00 80 0C 4C 44 00 28
 0.494343 1  18F100D0x       Rx   d 8 0C FF FF FF FF FF FF FF
 0.497965 1  CFF21CAx        Rx   d 8 02 00 80 0C 4C 44 00 28
 0.510001 1  CFF21CAx        Rx   d 8 02 00 80 0C 4C 44 00 28
 0.521901 1  CFF21CAx        Rx   d 8 02 00 80 0C 4C 44 00 28
 0.522508 1  18F100D0x       Rx   d 8 0C FF FF FF FF FF FF FF
 0.534080 1  CFF21CAx        Rx   d 8 02 00 80 0C 4C 44 00 28
 0.546143 1  CFF21CAx        Rx   d 8 02 00 80 0C 4C 44 00 28
 0.550264 1  18F100D0x       Rx   d 8 0C FF FF FF FF FF FF FF
 0.550706 1  18FF2112x       Rx   d 8 01 00 00 00 00 00 00 00
 0.558403 1  CFF21CAx        Rx   d 8 02 00 80 0C 4C 44 00 28
 0.565572 1  18F100F3x       Rx   d 8 03 11 7D 95 C8 FA 14 00
 0.566462 1  18F102F3x       Rx   d 8 0F 58 0F 51 10 09 00 07
 0.568019 1  18F106F3x       Rx   d 8 45 E0 FC FF FF FF FF FF
 0.569256 1  18F107F3x       Rx   d 8 38 A4 2B 2A 01 61 00 52
 0.571047 1  18F108F3x       Rx   d 8 00 00 00 00 00 00 00 00
 0.571420 1  CFF21CAx        Rx   d 8 02 00 80 0C 4C 44 00 28
 0.572058 1  18F155F3x       Rx   d 8 36 35 36 35 35 38 37 00
 0.573163 1  18F156F3x       Rx   d 8 00 00 00 00 00 00 00 00
 0.573777 1  18F157F3x       Rx   d 8 00 00 00 00 00 00 00 00
 0.574873 1  18F158F3x       Rx   d 8 00 00 00 00 00 00 00 00
 0.575816 1  18F159F3x       Rx   d 8 00 00 00 00 00 00 00 00
 0.576664 1  18F15AF3x       Rx   d 8 00 00 00 00 00 00 00 00
 0.577346 1  18F15BF3x       Rx   d 7 00 00 00 00 00 00 00
 0.578357 1  18F15CF3x       Rx   d 8 00 00 00 00 00 00 00 00
 0.578764 1  18F100D0x       Rx   d 8 0C FF FF FF FF FF FF FF
 0.579424 1  18F15DF3x       Rx   d 8 00 00 00 00 00 00 00 00
 0.580404 1  18F15EF3x       Rx   d 8 00 00 00 00 00 00 00 00
 0.582289 1  CFF21CAx        Rx   d 8 02 00 80 0C 4C 44 00 28
 0.594381 1  CFF21CAx        Rx   d 8 02 00 80 0C 4C 44 00 28
 0.598260 1  18F100D0x       Rx   d 8 0C FF FF FF FF FF FF FF
 0.606765 1  CFF21CAx        Rx   d 8 02 00 80 0C 4C 44 00 28
 0.618815 1  CFF21CAx        Rx   d 8 02 00 80 0C 4C 44 00 28
 0.622848 1  18F100D0x       Rx   d 8 0C FF FF FF FF FF FF FF
 0.630469 1  CFF21CAx        Rx   d 8 02 00 80 0C 4C 44 00 28
 0.642799 1  CFF21CAx        Rx   d 8 02 00 80 0C 4C 44 00 28
 0.643170 1  18F100D0x       Rx   d 8 0C FF FF FF FF FF FF FF
 0.647858 1  18FF2112x       Rx   d 8 01 00 00 00 00 00 00 00
 0.654979 1  CFF21CAx        Rx   d 8 02 00 80 0C 4C 44 00 28
 0.665716 1  18F100F3x       Rx   d 8 03 11 7D 95 C8 FA 14 00
 0.666524 1  18F102F3x       Rx   d 8 0F 58 0F 51 10 09 00 07
 0.667177 1  CFF21CAx        Rx   d 8 02 00 80 0C 4C 44 00 28
 0.667803 1  18F106F3x       Rx   d 8 45 E0 FC FF FF FF FF FF
 0.669241 1  18F107F3x       Rx   d 8 38 A4 2B 2A 01 61 00 52
 0.670863 1  18F100D0x       Rx   d 8 0C FF FF FF FF FF FF FF
 0.671216 1  18F108F3x       Rx   d 8 00 00 00 00 00 00 00 00
 0.672073 1  18F155F3x       Rx   d 8 36 35 36 35 35 38 37 00
 0.673075 1  18F156F3x       Rx   d 8 00 00 00 00 00 00 00 00
 0.674062 1  18F157F3x       Rx   d 8 00 00 00 00 00 00 00 00
 0.698196 1  18F158F3x       Rx   d 8 00 00 00 00 00 00 00 00
 0.700266 1  18F159F3x       Rx   d 8 00 00 00 00 00 00 00 00
 0.700539 1  18F15AF3x       Rx   d 8 00 00 00 00 00 00 00 00
 0.700727 1  18F15BF3x       Rx   d 7 00 00 00 00 00 00 00
 0.700929 1  18F15CF3x       Rx   d 8 00 00 00 00 00 00 00 00
 0.701113 1  CFF21CAx        Rx   d 8 02 00 80 0C 4C 44 00 28
 0.701298 1  18F15DF3x       Rx   d 8 00 00 00 00 00 00 00 00
 0.701480 1  18F15EF3x       Rx   d 8 00 00 00 00 00 00 00 00
 0.701662 1  CFF21CAx        Rx   d 8 02 00 80 0C 4C 44 00 28
 0.701844 1  18F100D0x       Rx   d 8 0C FF FF FF FF FF FF FF
 0.702829 1  CFF21CAx        Rx   d 8 02 00 80 0C 4C 44 00 28
 0.715045 1  CFF21CAx        Rx   d 8 03 00 80 0C 4C 44 00 28
 0.719251 1  18F100D0x       Rx   d 8 0C FF FF FF FF FF FF FF
 0.726848 1  CFF21CAx        Rx   d 8 03 00 80 0C 4C 44 00 28
 0.739279 1  CFF21CAx        Rx   d 8 03 00 80 0C 4C 44 00 28
 0.744677 1  18FF2112x       Rx   d 8 01 00 00 00 00 00 00 00
 0.746861 1  18F100D0x       Rx   d 8 0C FF FF FF FF FF FF FF
 0.750930 1  CFF21CAx        Rx   d 8 03 00 80 0C 4C 44 00 28
 0.763494 1  CFF21CAx        Rx   d 8 02 00 80 0C 4C 44 00 28
 0.765544 1  18F100F3x       Rx   d 8 03 11 7D 95 C8 FA 14 00
 0.766449 1  18F102F3x       Rx   d 8 0F 58 0F 51 10 09 00 07
 0.767736 1  18F106F3x       Rx   d 8 45 E0 FC FF FF FF FF FF
 0.768944 1  18F107F3x       Rx   d 8 38 A4 2B 2A 01 61 00 52
 0.770714 1  18F108F3x       Rx   d 8 00 00 00 00 00 00 00 00
 0.771644 1  18F155F3x       Rx   d 8 36 35 36 35 35 38 37 00
 0.772568 1  18F156F3x       Rx   d 8 00 00 00 00 00 00 00 00
 0.773473 1  18F157F3x       Rx   d 8 00 00 00 00 00 00 00 00
 0.774393 1  18F158F3x       Rx   d 8 00 00 00 00 00 00 00 00
 0.774966 1  CFF21CAx        Rx   d 8 02 00 80 0C 4C 44 00 28
 0.775526 1  18F100D0x       Rx   d 8 0C FF FF FF FF FF FF FF
 0.776126 1  18F159F3x       Rx   d 8 00 00 00 00 00 00 00 00
 0.776994 1  18F15AF3x       Rx   d 8 00 00 00 00 00 00 00 00
 0.777807 1  18F15BF3x       Rx   d 7 00 00 00 00 00 00 00
 0.778675 1  18F15CF3x       Rx   d 8 00 00 00 00 00 00 00 00
 0.779494 1  18F15DF3x       Rx   d 8 00 00 00 00 00 00 00 00
 0.780476 1  18F15EF3x       Rx   d 8 00 00 00 00 00 00 00 00
 0.787319 1  CFF21CAx        Rx   d 8 03 00 80 0C 4C 44 00 28
 0.799173 1  CFF21CAx        Rx   d 8 03 00 80 0C 4C 44 00 28
 0.803666 1  18F100D0x       Rx   d 8 0C FF FF FF FF FF FF FF
 0.811531 1  CFF21CAx        Rx   d 8 03 00 80 0C 4C 44 00 28
 0.823651 1  CFF21CAx        Rx   d 8 03 00 80 0C 4B 44 00 28
 0.831228 1  18F100D0x       Rx   d 8 0C FF FF FF FF FF FF FF
 0.835947 1  CFF21CAx        Rx   d 8 03 00 80 0C 4B 44 00 28
 0.842373 1  18FF2112x       Rx   d 8 01 00 00 00 00 00 00 00
 0.847726 1  CFF21CAx        Rx   d 8 03 00 80 0C 4B 44 00 28
 0.851801 1  18F100D0x       Rx   d 8 0C FF FF FF FF FF FF FF
 0.859873 1  CFF21CAx        Rx   d 8 03 00 80 0C 4B 44 00 28
 0.865683 1  18F100F3x       Rx   d 8 03 11 7D 95 C8 FA 14 00
 0.866509 1  18F102F3x       Rx   d 8 0F 58 0F 51 10 09 00 07
 0.868018 1  18F106F3x       Rx   d 8 45 E0 FC FF FF FF FF FF
 0.869276 1  18F107F3x       Rx   d 8 38 A4 2B 2A 01 61 00 52
 0.870986 1  18F108F3x       Rx   d 8 00 00 00 00 00 00 00 00
 0.871426 1  CFF21CAx        Rx   d 8 03 00 80 0C 4B 44 00 28
 0.872005 1  18F155F3x       Rx   d 8 36 35 36 35 35 38 37 00
 0.872954 1  18F156F3x       Rx   d 8 00 00 00 00 00 00 00 00
 0.873881 1  18F157F3x       Rx   d 8 00 00 00 00 00 00 00 00
 0.874837 1  18F158F3x       Rx   d 8 00 00 00 00 00 00 00 00
 0.875605 1  18F159F3x       Rx   d 8 00 00 00 00 00 00 00 00
 0.876662 1  18F15AF3x       Rx   d 8 00 00 00 00 00 00 00 00
 0.877458 1  18F15BF3x       Rx   d 7 00 00 00 00 00 00 00
 0.878329 1  18F15CF3x       Rx   d 8 00 00 00 00 00 00 00 00
 0.879213 1  18F15DF3x       Rx   d 8 00 00 00 00 00 00 00 00
 0.879586 1  18F100D0x       Rx   d 8 0C FF FF FF FF FF FF FF
 0.880451 1  18F15EF3x       Rx   d 8 00 00 00 00 00 00 00 00
 0.883811 1  CFF21CAx        Rx   d 8 04 00 80 0C 4B 44 00 28
 0.895749 1  CFF21CAx        Rx   d 8 04 00 80 0C 4B 44 00 28
 0.929748 1  CFF21CAx        Rx   d 8 04 00 80 0C 4B 44 00 28
 0.929979 1  18F100D0x       Rx   d 8 0C FF FF FF FF FF FF FF
 0.930182 1  CFF21CAx        Rx   d 8 03 00 80 0C 4B 44 00 28
 0.932013 1  CFF21CAx        Rx   d 8 03 00 80 0C 4B 44 00 28
 0.935756 1  18F100D0x       Rx   d 8 0C FF FF FF FF FF FF FF
 0.939586 1  18FF2112x       Rx   d 8 01 00 00 00 00 00 00 00
 0.943998 1  CFF21CAx        Rx   d 8 03 00 80 0C 4B 44 00 28
 0.956521 1  CFF21CAx        Rx   d 8 03 00 80 0C 4B 44 00 28
 0.960079 1  18F100D0x       Rx   d 8 0C FF FF FF FF FF FF FF
 0.965634 1  18F100F3x       Rx   d 8 03 11 7D 95 C8 FA 14 00
 0.966472 1  18F102F3x       Rx   d 8 0F 58 0F 51 10 09 00 07
 0.967726 1  CFF21CAx        Rx   d 8 03 00 80 0C 4B 44 00 28
 0.968299 1  18F106F3x       Rx   d 8 45 E0 FC FF FF FF FF FF
 0.969543 1  18F107F3x       Rx   d 8 38 A4 2B 2A 01 61 00 52
 0.971626 1  18F108F3x       Rx   d 8 00 00 00 00 00 00 00 00
 0.972489 1  18F155F3x       Rx   d 8 36 35 36 35 35 38 37 00
 0.973413 1  18F156F3x       Rx   d 8 00 00 00 00 00 00 00 00
 0.974336 1  18F157F3x       Rx   d 8 00 00 00 00 00 00 00 00
 0.975285 1  18F158F3x       Rx   d 8 00 00 00 00 00 00 00 00
 0.976239 1  18F159F3x       Rx   d 8 00 00 00 00 00 00 00 00
 0.977104 1  18F15AF3x       Rx   d 8 00 00 00 00 00 00 00 00
 0.977941 1  18F15BF3x       Rx   d 7 00 00 00 00 00 00 00
 0.978766 1  18F15CF3x       Rx   d 8 00 00 00 00 00 00 00 00
 0.979628 1  18F15DF3x       Rx   d 8 00 00 00 00 00 00 00 00
 0.980168 1  CFF21CAx        Rx   d 8 03 00 80 0C 4B 44 00 28
 0.980756 1  18F15EF3x       Rx   d 8 00 00 00 00 00 00 00 00
 0.983763 1  18F100D0x       Rx   d 8 0C FF FF FF FF FF FF FF
 0.992178 1  CFF21CAx        Rx   d 8 03 00 80 0C 4B 44 00 28
 1.004060 1  CFF21CAx        Rx   d 8 03 00 80 0C 4B 44 00 28
 1.008385 1  18F100D0x       Rx   d 8 0C FF FF FF FF FF FF FF
 1.016248 1  CFF21CAx        Rx   d 8 02 00 80 0C 4B 44 00 28
 1.028903 1  CFF21CAx        Rx   d 8 02 00 80 0C 4B 44 00 28
 1.036880 1  18FF2112x       Rx   d 8 01 00 00 00 00 00 00 00
 1.040224 1  CFF21CAx        Rx   d 8 02 00 80 0C 4B 44 00 28
 1.040761 1  18F100D0x       Rx   d 8 0C FF FF FF FF FF FF FF
 1.052405 1  CFF21CAx        Rx   d 8 02 00 80 0C 4B 44 00 28
 1.055303 1  18F104F3x       Rx   d 8 38 35 06 02 03 FF FF FF
 1.056026 1  18F113F3x       Rx   d 8 0F 53 0F 53 0F 53 0F 55
 1.057038 1  18F114F3x       Rx   d 8 0F 52 0F 52 0F 55 0F 53
 1.058131 1  18F115F3x       Rx   d 8 0F 51 0F 52 0F 52 0F 51
 1.058852 1  18F116F3x       Rx   d 8 0F 56 0F 55 0F 56 0F 58
 1.059870 1  18F117F3x       Rx   d 8 0F 55 0F 56 0F 58 0F 58
 1.060687 1  18F118F3x       Rx   d 8 00 00 00 00 00 00 00 00
 1.062101 1  18F119F3x       Rx   d 8 00 00 00 00 00 00 00 00
 1.062756 1  18F11AF3x       Rx   d 8 00 00 00 00 00 00 00 00
 1.063661 1  18F11BF3x       Rx   d 8 00 00 00 00 00 00 00 00
 1.064121 1  CFF21CAx        Rx   d 8 02 00 80 0C 4B 44 00 28
 1.064742 1  18F100D0x       Rx   d 8 0C FF FF FF FF FF FF FF
 1.065299 1  18F11CF3x       Rx   d 8 00 00 00 00 00 00 00 00
 1.066274 1  18F100F3x       Rx   d 8 03 11 7D 95 C8 FA 14 00
 1.067413 1  18F102F3x       Rx   d 8 0F 58 0F 51 10 09 00 07
 1.068797 1  18F106F3x       Rx   d 8 45 E0 FC FF FF FF FF FF
 1.070194 1  18F107F3x       Rx   d 8 38 A4 2B 2A 01 61 00 52
 1.072253 1  18F108F3x       Rx   d 8 00 00 00 00 00 00 00 00
 1.073099 1  18F11DF3x       Rx   d 8 00 00 00 00 00 00 00 00
 1.074114 1  18F11EF3x       Rx   d 8 00 00 00 00 00 00 00 00
 1.075192 1  18F11FF3x       Rx   d 8 00 00 00 00 00 00 00 00
 1.076008 1  18F120F3x       Rx   d 8 00 00 00 00 00 00 00 00
 1.076369 1  CFF21CAx        Rx   d 8 02 00 80 0C 4B 44 00 28
 1.077252 1  18F121F3x       Rx   d 8 00 00 00 00 00 00 00 00
 1.078154 1  18F122F3x       Rx   d 8 00 00 00 00 00 00 00 00
 1.079000 1  18F123F3x       Rx   d 8 00 00 00 00 00 00 00 00
 1.079949 1  18F124F3x       Rx   d 8 00 00 00 00 00 00 00 00
 1.080906 1  18F125F3x       Rx   d 8 00 00 00 00 00 00 00 00
 1.082018 1  18F126F3x       Rx   d 8 00 00 00 00 00 00 00 00
 1.082973 1  18F127F3x       Rx   d 8 00 00 00 00 00 00 00 00
 1.083665 1  18F128F3x       Rx   d 8 00 00 00 00 00 00 00 00
 1.084743 1  18F129F3x       Rx   d 8 00 00 00 00 00 00 00 00
 1.085727 1  18F12AF3x       Rx   d 8 00 00 00 00 00 00 00 00
 1.086617 1  18F12BF3x       Rx   d 8 00 00 00 00 00 00 00 00
 1.087646 1  18F12CF3x       Rx   d 8 00 00 00 00 00 00 00 00
 1.088414 1  CFF21CAx        Rx   d 8 02 00 80 0C 4B 44 00 28
 1.088913 1  18F12DF3x       Rx   d 8 00 00 00 00 00 00 00 00
 1.089960 1  18F12EF3x       Rx   d 8 00 00 00 00 00 00 00 00
 1.090861 1  18F12FF3x       Rx   d 8 00 00 00 00 00 00 00 00
 1.091985 1  18F130F3x       Rx   d 8 00 00 00 00 00 00 00 00
 1.092703 1  18F131F3x       Rx   d 8 00 00 00 00 00 00 00 00
 1.093302 1  18F100D0x       Rx   d 8 0C FF FF FF FF FF FF FF
 1.094031 1  18F132F3x       Rx   d 8 00 00 00 00 00 00 00 00
 1.094734 1  18F133F3x       Rx   d 8 00 00 00 00 00 00 00 00
 1.095738 1  18F134F3x       Rx   d 8 00 00 00 00 00 00 00 00
 1.096550 1  18F135F3x       Rx   d 8 00 00 00 00 00 00 00 00
 1.097477 1  18F136F3x       Rx   d 8 00 00 00 00 00 00 00 00
 1.098397 1  18F137F3x       Rx   d 8 00 00 00 00 00 00 00 00
 1.099425 1  18F138F3x       Rx   d 8 00 00 00 00 00 00 00 00
 1.100236 1  18F139F3x       Rx   d 8 00 00 00 00 00 00 00 00
 1.100686 1  CFF21CAx        Rx   d 8 02 00 80 0C 4B 44 00 28
 1.101311 1  18F13AF3x       Rx   d 8 00 00 00 00 00 00 00 00
 1.102243 1  18F13BF3x       Rx   d 8 00 00 00 00 00 00 00 00
 1.103054 1  18F13CF3x       Rx   d 8 00 00 00 00 00 00 00 00
 1.103987 1  18F155F3x       Rx   d 8 36 35 36 35 35 38 37 00
 1.104787 1  18F156F3x       Rx   d 8 00 00 00 00 00 00 00 00
 1.105721 1  18F157F3x       Rx   d 8 00 00 00 00 00 00 00 00
 1.106639 1  18F158F3x       Rx   d 8 00 00 00 00 00 00 00 00
 1.107576 1  18F159F3x       Rx   d 8 00 00 00 00 00 00 00 00
 1.108456 1  18F15AF3x       Rx   d 8 00 00 00 00 00 00 00 00
 1.109336 1  18F15BF3x       Rx   d 7 00 00 00 00 00 00 00
 1.110281 1  18F15CF3x       Rx   d 8 00 00 00 00 00 00 00 00
 1.111124 1  18F15DF3x       Rx   d 8 00 00 00 00 00 00 00 00
 1.111863 1  18F15EF3x       Rx   d 8 00 00 00 00 00 00 00 00
 1.112433 1  CFF21CAx        Rx   d 8 02 00 80 0C 4B 44 00 28
