date Sat May 09 06:29:01.281 2026
base hex  timestamps absolute
internal events logged
Begin Triggerblock Sat May 09 06:29:01.286 2026
 0.000000 Start of measurement
 0.000000 1  18F156F3x       Rx   d 8 00 00 00 00 00 00 00 00
 0.000161 1  18F157F3x       Rx   d 8 00 00 00 00 00 00 00 00
 0.000278 1  18F158F3x       Rx   d 8 00 00 00 00 00 00 00 00
 0.000361 1  18F159F3x       Rx   d 8 00 00 00 00 00 00 00 00
 0.000437 1  18F15AF3x       Rx   d 8 00 00 00 00 00 00 00 00
 0.000512 1  18F15BF3x       Rx   d 7 00 00 00 00 00 00 00
 0.000876 1  18F15CF3x       Rx   d 8 00 00 00 00 00 00 00 00
 0.000979 1  18F15DF3x       Rx   d 8 00 00 00 00 00 00 00 00
 0.001061 1  18F15EF3x       Rx   d 8 00 00 00 00 00 00 00 00
 0.003122 1  1806E5F4x       Rx   d 8 00 00 00 00 01 FF FF FF
 0.053194 1  1806E5F4x       Rx   d 8 00 00 00 00 01 FF FF FF
 0.068568 1  18F100F3x       Rx   d 8 03 41 7D 00 FA FA 14 00
 0.069390 1  18F102F3x       Rx   d 8 10 49 10 43 10 06 00 06
 0.070692 1  18F106F3x       Rx   d 8 80 C4 FC FF FF FF FF FF
 0.071867 1  18F107F3x       Rx   d 8 27 10 27 10 00 00 00 00
 0.073687 1  18F108F3x       Rx   d 8 10 00 04 00 00 00 00 B9
 0.074458 1  18F155F3x       Rx   d 8 38 38 39 39 39 3A 39 00
 0.075371 1  18F156F3x       Rx   d 8 00 00 00 00 00 00 00 00
 0.076279 1  18F157F3x       Rx   d 8 00 00 00 00 00 00 00 00
 0.077219 1  18F158F3x       Rx   d 8 00 00 00 00 00 00 00 00
 0.078382 1  18F159F3x       Rx   d 8 00 00 00 00 00 00 00 00
 0.079254 1  18F15AF3x       Rx   d 8 00 00 00 00 00 00 00 00
 0.080142 1  18F15BF3x       Rx   d 7 00 00 00 00 00 00 00
 0.081059 1  18F15CF3x       Rx   d 8 00 00 00 00 00 00 00 00
 0.081887 1  18F15DF3x       Rx   d 8 00 00 00 00 00 00 00 00
 0.082766 1  18F15EF3x       Rx   d 8 00 00 00 00 00 00 00 00
 0.103117 1  1806E5F4x       Rx   d 8 00 00 00 00 01 FF FF FF
 0.153388 1  1806E5F4x       Rx   d 8 00 00 00 00 01 FF FF FF
 0.168711 1  18F100F3x       Rx   d 8 03 41 7D 00 FA FA 14 00
 0.169547 1  18F102F3x       Rx   d 8 10 49 10 43 10 06 00 06
 0.170840 1  18F106F3x       Rx   d 8 80 C4 FC FF FF FF FF FF
 0.172000 1  18F107F3x       Rx   d 8 27 10 27 10 00 00 00 00
 0.173836 1  18F108F3x       Rx   d 8 10 00 04 00 00 00 00 B9
 0.174637 1  18F155F3x       Rx   d 8 38 38 39 39 39 3A 39 00
 0.175536 1  18F156F3x       Rx   d 8 00 00 00 00 00 00 00 00
 0.176412 1  18F157F3x       Rx   d 8 00 00 00 00 00 00 00 00
 0.177325 1  18F158F3x       Rx   d 8 00 00 00 00 00 00 00 00
 0.178528 1  18F159F3x       Rx   d 8 00 00 00 00 00 00 00 00
 0.179450 1  18F15AF3x       Rx   d 8 00 00 00 00 00 00 00 00
 0.180255 1  18F15BF3x       Rx   d 7 00 00 00 00 00 00 00
 0.181175 1  18F15CF3x       Rx   d 8 00 00 00 00 00 00 00 00
 0.182027 1  18F15DF3x       Rx   d 8 00 00 00 00 00 00 00 00
 0.182872 1  18F15EF3x       Rx   d 8 00 00 00 00 00 00 00 00
 0.212121 1  1806E5F4x       Rx   d 8 00 00 00 00 01 FF FF FF
 0.257272 1  1806E5F4x       Rx   d 8 00 00 00 00 01 FF FF FF
 0.268507 1  18F100F3x       Rx   d 8 03 41 7D 00 FA FA 14 00
 0.269376 1  18F102F3x       Rx   d 8 10 49 10 43 10 06 00 06
 0.270677 1  18F106F3x       Rx   d 8 80 C4 FC FF FF FF FF FF
 0.271926 1  18F107F3x       Rx   d 8 27 10 27 10 00 00 00 00
 0.273737 1  18F108F3x       Rx   d 8 10 00 04 00 00 00 00 B9
 0.274597 1  18F155F3x       Rx   d 8 38 38 39 39 39 3A 39 00
 0.275494 1  18F156F3x       Rx   d 8 00 00 00 00 00 00 00 00
 0.276374 1  18F157F3x       Rx   d 8 00 00 00 00 00 00 00 00
 0.277319 1  18F158F3x       Rx   d 8 00 00 00 00 00 00 00 00
 0.278476 1  18F159F3x       Rx   d 8 00 00 00 00 00 00 00 00
 0.279365 1  18F15AF3x       Rx   d 8 00 00 00 00 00 00 00 00
 0.280222 1  18F15BF3x       Rx   d 7 00 00 00 00 00 00 00
 0.281138 1  18F15CF3x       Rx   d 8 00 00 00 00 00 00 00 00
 0.282024 1  18F15DF3x       Rx   d 8 00 00 00 00 00 00 00 00
 0.282981 1  18F15EF3x       Rx   d 8 00 00 00 00 00 00 00 00
 0.307318 1  1806E5F4x       Rx   d 8 00 00 00 00 01 FF FF FF
 0.357377 1  1806E5F4x       Rx   d 8 00 00 00 00 01 FF FF FF
 0.368722 1  18F100F3x       Rx   d 8 03 41 7D 00 FA FA 14 00
 0.369546 1  18F102F3x       Rx   d 8 10 49 10 43 10 06 00 06
 0.370851 1  18F106F3x       Rx   d 8 80 C4 FC FF FF FF FF FF
 0.372012 1  18F107F3x       Rx   d 8 27 10 27 10 00 00 00 00
 0.373836 1  18F108F3x       Rx   d 8 10 00 04 00 00 00 00 B9
 0.374657 1  18F155F3x       Rx   d 8 38 38 39 39 39 3A 39 00
 0.375540 1  18F156F3x       Rx   d 8 00 00 00 00 00 00 00 00
 0.376423 1  18F157F3x       Rx   d 8 00 00 00 00 00 00 00 00
 0.377348 1  18F158F3x       Rx   d 8 00 00 00 00 00 00 00 00
 0.378539 1  18F159F3x       Rx   d 8 00 00 00 00 00 00 00 00
 0.379412 1  18F15AF3x       Rx   d 8 00 00 00 00 00 00 00 00
 0.380272 1  18F15BF3x       Rx   d 7 00 00 00 00 00 00 00
 0.381182 1  18F15CF3x       Rx   d 8 00 00 00 00 00 00 00 00
 0.382038 1  18F15DF3x       Rx   d 8 00 00 00 00 00 00 00 00
 0.382880 1  18F15EF3x       Rx   d 8 00 00 00 00 00 00 00 00
 0.407462 1  1806E5F4x       Rx   d 8 00 00 00 00 01 FF FF FF
 0.457275 1  1806E5F4x       Rx   d 8 00 00 00 00 01 FF FF FF
 0.468660 1  18F100F3x       Rx   d 8 03 41 7D 00 FA FA 14 00
 0.469399 1  18F102F3x       Rx   d 8 10 49 10 43 10 06 00 06
 0.470739 1  18F106F3x       Rx   d 8 80 C4 FC FF FF FF FF FF
 0.471922 1  18F107F3x       Rx   d 8 27 10 27 10 00 00 00 00
 0.473683 1  18F108F3x       Rx   d 8 10 00 04 00 00 00 00 B9
 0.474531 1  18F155F3x       Rx   d 8 38 38 39 39 39 3A 39 00
 0.475376 1  18F156F3x       Rx   d 8 00 00 00 00 00 00 00 00
 0.476354 1  18F157F3x       Rx   d 8 00 00 00 00 00 00 00 00
 0.477234 1  18F158F3x       Rx   d 8 00 00 00 00 00 00 00 00
 0.478427 1  18F159F3x       Rx   d 8 00 00 00 00 00 00 00 00
 0.479284 1  18F15AF3x       Rx   d 8 00 00 00 00 00 00 00 00
 0.480181 1  18F15BF3x       Rx   d 7 00 00 00 00 00 00 00
 0.481091 1  18F15CF3x       Rx   d 8 00 00 00 00 00 00 00 00
 0.481893 1  18F15DF3x       Rx   d 8 00 00 00 00 00 00 00 00
 0.482792 1  18F15EF3x       Rx   d 8 00 00 00 00 00 00 00 00
 0.507362 1  1806E5F4x       Rx   d 8 00 00 00 00 01 FF FF FF
 0.557376 1  1806E5F4x       Rx   d 8 00 00 00 00 01 FF FF FF
 0.568720 1  18F100F3x       Rx   d 8 03 41 7D 00 FA FA 14 00
 0.569564 1  18F102F3x       Rx   d 8 10 49 10 43 10 06 00 06
 0.570830 1  18F106F3x       Rx   d 8 80 C4 FC FF FF FF FF FF
 0.572028 1  18F107F3x       Rx   d 8 27 10 27 10 00 00 00 00
 0.573848 1  18F108F3x       Rx   d 8 10 00 04 00 00 00 00 B9
 0.574691 1  18F155F3x       Rx   d 8 38 38 39 39 39 3A 39 00
 0.575567 1  18F156F3x       Rx   d 8 00 00 00 00 00 00 00 00
 0.576451 1  18F157F3x       Rx   d 8 00 00 00 00 00 00 00 00
 0.577362 1  18F158F3x       Rx   d 8 00 00 00 00 00 00 00 00
 0.578558 1  18F159F3x       Rx   d 8 00 00 00 00 00 00 00 00
 0.579438 1  18F15AF3x       Rx   d 8 00 00 00 00 00 00 00 00
 0.580282 1  18F15BF3x       Rx   d 7 00 00 00 00 00 00 00
 0.581206 1  18F15CF3x       Rx   d 8 00 00 00 00 00 00 00 00
 0.582056 1  18F15DF3x       Rx   d 8 00 00 00 00 00 00 00 00
 0.582888 1  18F15EF3x       Rx   d 8 00 00 00 00 00 00 00 00
 0.607350 1  1806E5F4x       Rx   d 8 00 00 00 00 01 FF FF FF
 0.657218 1  1806E5F4x       Rx   d 8 00 00 00 00 01 FF FF FF
 0.658992 1  18FF50E5x       Rx   d 8 00 02 00 00 08 00 00 00
 0.668645 1  18F100F3x       Rx   d 8 03 41 7D 00 FA FA 14 00
 0.669476 1  18F102F3x       Rx   d 8 10 49 10 43 10 06 00 06
 0.670774 1  18F106F3x       Rx   d 8 80 C4 FC FF FF FF FF FF
 0.671960 1  18F107F3x       Rx   d 8 27 10 27 10 00 00 00 00
 0.673835 1  18F108F3x       Rx   d 8 10 00 04 00 00 00 00 B9
 0.674656 1  18F155F3x       Rx   d 8 38 38 39 39 39 3A 39 00
 0.675388 1  18F156F3x       Rx   d 8 00 00 00 00 00 00 00 00
 0.676289 1  18F157F3x       Rx   d 8 00 00 00 00 00 00 00 00
 0.677196 1  18F158F3x       Rx   d 8 00 00 00 00 00 00 00 00
 0.678386 1  18F159F3x       Rx   d 8 00 00 00 00 00 00 00 00
 0.679348 1  18F15AF3x       Rx   d 8 00 00 00 00 00 00 00 00
 0.680170 1  18F15BF3x       Rx   d 7 00 00 00 00 00 00 00
 0.681198 1  18F15CF3x       Rx   d 8 00 00 00 00 00 00 00 00
 0.681956 1  18F15DF3x       Rx   d 8 00 00 00 00 00 00 00 00
 0.682791 1  18F15EF3x       Rx   d 8 00 00 00 00 00 00 00 00
 0.707416 1  1806E5F4x       Rx   d 8 00 00 00 00 01 FF FF FF
 0.757404 1  1806E5F4x       Rx   d 8 00 00 00 00 01 FF FF FF
 0.768734 1  18F100F3x       Rx   d 8 03 41 7D 00 FA FA 14 00
 0.769574 1  18F102F3x       Rx   d 8 10 49 10 43 10 06 00 06
 0.770855 1  18F106F3x       Rx   d 8 80 C4 FC FF FF FF FF FF
 0.772056 1  18F107F3x       Rx   d 8 27 10 27 10 00 00 00 00
 0.773847 1  18F108F3x       Rx   d 8 10 00 04 00 00 00 00 B9
 0.774726 1  18F155F3x       Rx   d 8 38 38 39 39 39 3A 39 00
 0.775616 1  18F156F3x       Rx   d 8 00 00 00 00 00 00 00 00
 0.776517 1  18F157F3x       Rx   d 8 00 00 00 00 00 00 00 00
 0.777428 1  18F158F3x       Rx   d 8 00 00 00 00 00 00 00 00
 0.778593 1  18F159F3x       Rx   d 8 00 00 00 00 00 00 00 00
 0.779476 1  18F15AF3x       Rx   d 8 00 00 00 00 00 00 00 00
 0.780318 1  18F15BF3x       Rx   d 7 00 00 00 00 00 00 00
 0.781245 1  18F15CF3x       Rx   d 8 00 00 00 00 00 00 00 00
 0.782140 1  18F15DF3x       Rx   d 8 00 00 00 00 00 00 00 00
 0.783057 1  18F15EF3x       Rx   d 8 00 00 00 00 00 00 00 00
 0.807349 1  1806E5F4x       Rx   d 8 00 00 00 00 01 FF FF FF
 0.857279 1  1806E5F4x       Rx   d 8 00 00 00 00 01 FF FF FF
 0.868641 1  18F100F3x       Rx   d 8 03 41 7D 00 FA FA 14 00
 0.869439 1  18F102F3x       Rx   d 8 10 49 10 43 10 06 00 06
 0.870747 1  18F106F3x       Rx   d 8 80 C4 FC FF FF FF FF FF
 0.872002 1  18F107F3x       Rx   d 8 27 10 27 10 00 00 00 00
 0.873744 1  18F108F3x       Rx   d 8 10 00 04 00 00 00 00 B9
 0.874628 1  18F155F3x       Rx   d 8 38 38 39 39 39 3A 39 00
 0.875548 1  18F156F3x       Rx   d 8 00 00 00 00 00 00 00 00
 0.877012 1  18F104F3x       Rx   d 8 3A 38 06 01 02 FF FF FF
 0.877530 1  18F113F3x       Rx   d 8 10 45 10 46 10 46 10 46
 0.878550 1  18F114F3x       Rx   d 8 10 44 10 43 10 47 10 46
 0.879467 1  18F115F3x       Rx   d 8 10 43 10 43 10 44 10 43
 0.880382 1  18F116F3x       Rx   d 8 10 46 10 45 10 47 10 49
 0.881324 1  18F117F3x       Rx   d 8 10 44 10 45 10 49 10 49
 0.882276 1  18F118F3x       Rx   d 8 00 00 00 00 00 00 00 00
 0.883318 1  18F119F3x       Rx   d 8 00 00 00 00 00 00 00 00
 0.884263 1  18F11AF3x       Rx   d 8 00 00 00 00 00 00 00 00
 0.885259 1  18F11BF3x       Rx   d 8 00 00 00 00 00 00 00 00
 0.886224 1  18F11CF3x       Rx   d 8 00 00 00 00 00 00 00 00
 0.887189 1  18F11DF3x       Rx   d 8 00 00 00 00 00 00 00 00
 0.888347 1  18F11EF3x       Rx   d 8 00 00 00 00 00 00 00 00
 0.889300 1  18F11FF3x       Rx   d 8 00 00 00 00 00 00 00 00
 0.890255 1  18F120F3x       Rx   d 8 00 00 00 00 00 00 00 00
 0.891204 1  18F121F3x       Rx   d 8 00 00 00 00 00 00 00 00
 0.892167 1  18F122F3x       Rx   d 8 00 00 00 00 00 00 00 00
 0.893127 1  18F123F3x       Rx   d 8 00 00 00 00 00 00 00 00
 0.894163 1  18F124F3x       Rx   d 8 00 00 00 00 00 00 00 00
 0.895018 1  18F125F3x       Rx   d 8 00 00 00 00 00 00 00 00
 0.895966 1  18F126F3x       Rx   d 8 00 00 00 00 00 00 00 00
 0.896937 1  18F127F3x       Rx   d 8 00 00 00 00 00 00 00 00
 0.897837 1  18F128F3x       Rx   d 8 00 00 00 00 00 00 00 00
 0.898733 1  18F129F3x       Rx   d 8 00 00 00 00 00 00 00 00
 0.899620 1  18F12AF3x       Rx   d 8 00 00 00 00 00 00 00 00
 0.900463 1  18F12BF3x       Rx   d 8 00 00 00 00 00 00 00 00
 0.901411 1  18F12CF3x       Rx   d 8 00 00 00 00 00 00 00 00
 0.902332 1  18F12DF3x       Rx   d 8 00 00 00 00 00 00 00 00
 0.903262 1  18F12EF3x       Rx   d 8 00 00 00 00 00 00 00 00
 0.904133 1  18F12FF3x       Rx   d 8 00 00 00 00 00 00 00 00
 0.905110 1  18F130F3x       Rx   d 8 00 00 00 00 00 00 00 00
 0.906001 1  18F131F3x       Rx   d 8 00 00 00 00 00 00 00 00
 0.906960 1  18F132F3x       Rx   d 8 00 00 00 00 00 00 00 00
 0.907766 1  18F133F3x       Rx   d 8 00 00 00 00 00 00 00 00
 0.908729 1  18F134F3x       Rx   d 8 00 00 00 00 00 00 00 00
 0.909226 1  1806E5F4x       Rx   d 8 00 00 00 00 01 FF FF FF
 0.909814 1  18F135F3x       Rx   d 8 00 00 00 00 00 00 00 00
 0.910739 1  18F136F3x       Rx   d 8 00 00 00 00 00 00 00 00
 0.911554 1  18F137F3x       Rx   d 8 00 00 00 00 00 00 00 00
 0.912476 1  18F138F3x       Rx   d 8 00 00 00 00 00 00 00 00
 0.913313 1  18F139F3x       Rx   d 8 00 00 00 00 00 00 00 00
 0.914261 1  18F13AF3x       Rx   d 8 00 00 00 00 00 00 00 00
 0.915116 1  18F13BF3x       Rx   d 8 00 00 00 00 00 00 00 00
 0.916047 1  18F13CF3x       Rx   d 8 00 00 00 00 00 00 00 00
 0.916896 1  18F157F3x       Rx   d 8 00 00 00 00 00 00 00 00
 0.917858 1  18F158F3x       Rx   d 8 00 00 00 00 00 00 00 00
 0.918754 1  18F159F3x       Rx   d 8 00 00 00 00 00 00 00 00
 0.919592 1  18F15AF3x       Rx   d 8 00 00 00 00 00 00 00 00
 0.920392 1  18F15BF3x       Rx   d 7 00 00 00 00 00 00 00
 0.921291 1  18F15CF3x       Rx   d 8 00 00 00 00 00 00 00 00
 0.922204 1  18F15DF3x       Rx   d 8 00 00 00 00 00 00 00 00
 0.923087 1  18F15EF3x       Rx   d 8 00 00 00 00 00 00 00 00
 0.958597 1  1806E5F4x       Rx   d 8 00 00 00 00 01 FF FF FF
 0.968736 1  18F100F3x       Rx   d 8 03 41 7D 00 FA FA 14 00
 0.969578 1  18F102F3x       Rx   d 8 10 49 10 43 10 06 00 06
 0.970821 1  18F106F3x       Rx   d 8 80 C4 FC FF FF FF FF FF
 0.972036 1  18F107F3x       Rx   d 8 27 10 27 10 00 00 00 00
 0.973835 1  18F108F3x       Rx   d 8 10 00 04 00 00 00 00 B9
 0.974674 1  18F155F3x       Rx   d 8 38 38 39 39 39 3A 39 00
 0.975586 1  18F156F3x       Rx   d 8 00 00 00 00 00 00 00 00
 0.976443 1  18F157F3x       Rx   d 8 00 00 00 00 00 00 00 00
 0.977366 1  18F158F3x       Rx   d 8 00 00 00 00 00 00 00 00
 0.978561 1  18F159F3x       Rx   d 8 00 00 00 00 00 00 00 00
 0.979438 1  18F15AF3x       Rx   d 8 00 00 00 00 00 00 00 00
 0.980286 1  18F15BF3x       Rx   d 7 00 00 00 00 00 00 00
 0.981208 1  18F15CF3x       Rx   d 8 00 00 00 00 00 00 00 00
 0.982059 1  18F15DF3x       Rx   d 8 00 00 00 00 00 00 00 00
 0.982911 1  18F15EF3x       Rx   d 8 00 00 00 00 00 00 00 00
 1.008665 1  1806E5F4x       Rx   d 8 00 00 00 00 01 FF FF FF
 1.058877 1  1806E5F4x       Rx   d 8 00 00 00 00 01 FF FF FF
 1.068643 1  18F100F3x       Rx   d 8 03 41 7D 00 FA FA 14 00
 1.069523 1  18F102F3x       Rx   d 8 10 49 10 43 10 06 00 06
 1.070726 1  18F106F3x       Rx   d 8 80 C4 FC FF FF FF FF FF
 1.071943 1  18F107F3x       Rx   d 8 27 10 27 10 00 00 00 00
 1.073679 1  18F108F3x       Rx   d 8 10 00 04 00 00 00 00 B9
 1.074556 1  18F155F3x       Rx   d 8 38 38 39 39 39 3A 39 00
 1.075467 1  18F156F3x       Rx   d 8 00 00 00 00 00 00 00 00
 1.076305 1  18F157F3x       Rx   d 8 00 00 00 00 00 00 00 00
 1.077278 1  18F158F3x       Rx   d 8 00 00 00 00 00 00 00 00
 1.078460 1  18F159F3x       Rx   d 8 00 00 00 00 00 00 00 00
 1.079274 1  18F15AF3x       Rx   d 8 00 00 00 00 00 00 00 00
 1.080185 1  18F15BF3x       Rx   d 7 00 00 00 00 00 00 00
 1.081137 1  18F15CF3x       Rx   d 8 00 00 00 00 00 00 00 00
 1.081904 1  18F15DF3x       Rx   d 8 00 00 00 00 00 00 00 00
 1.082750 1  18F15EF3x       Rx   d 8 00 00 00 00 00 00 00 00
 1.108629 1  1806E5F4x       Rx   d 8 00 00 00 00 01 FF FF FF
 1.158741 1  1806E5F4x       Rx   d 8 00 00 00 00 01 FF FF FF
 1.168757 1  18F100F3x       Rx   d 8 03 41 7D 00 FA FA 14 00
 1.169600 1  18F102F3x       Rx   d 8 10 49 10 43 10 06 00 06
 1.170839 1  18F106F3x       Rx   d 8 80 C4 FC FF FF FF FF FF
 1.172051 1  18F107F3x       Rx   d 8 27 10 27 10 00 00 00 00
 1.173848 1  18F108F3x       Rx   d 8 10 00 04 00 00 00 00 B9
 1.174685 1  18F155F3x       Rx   d 8 38 38 39 39 39 3A 39 00
 1.175579 1  18F156F3x       Rx   d 8 00 00 00 00 00 00 00 00
 1.176457 1  18F157F3x       Rx   d 8 00 00 00 00 00 00 00 00
 1.177416 1  18F158F3x       Rx   d 8 00 00 00 00 00 00 00 00
 1.178572 1  18F159F3x       Rx   d 8 00 00 00 00 00 00 00 00
 1.179440 1  18F15AF3x       Rx   d 8 00 00 00 00 00 00 00 00
 1.180301 1  18F15BF3x       Rx   d 7 00 00 00 00 00 00 00
 1.181240 1  18F15CF3x       Rx   d 8 00 00 00 00 00 00 00 00
 1.182085 1  18F15DF3x       Rx   d 8 00 00 00 00 00 00 00 00
 1.182911 1  18F15EF3x       Rx   d 8 00 00 00 00 00 00 00 00
 1.208753 1  1806E5F4x       Rx   d 8 00 00 00 00 01 FF FF FF
 1.258720 1  1806E5F4x       Rx   d 8 00 00 00 00 01 FF FF FF
 1.274849 1  18F100F3x       Rx   d 8 03 41 7D 00 FA FA 14 00
 1.275008 1  18F102F3x       Rx   d 8 10 49 10 43 10 06 00 06
 1.275122 1  18F106F3x       Rx   d 8 80 C4 FC FF FF FF FF FF
 1.275224 1  18F107F3x       Rx   d 8 27 10 27 10 00 00 00 00
 1.275416 1  18F108F3x       Rx   d 8 10 00 04 00 00 00 00 B9
 1.275519 1  18F155F3x       Rx   d 8 38 38 39 39 39 3A 39 00
 1.275622 1  18F156F3x       Rx   d 8 00 00 00 00 00 00 00 00
 1.276388 1  18F157F3x       Rx   d 8 00 00 00 00 00 00 00 00
 1.277335 1  18F158F3x       Rx   d 8 00 00 00 00 00 00 00 00
 1.278502 1  18F159F3x       Rx   d 8 00 00 00 00 00 00 00 00
 1.279355 1  18F15AF3x       Rx   d 8 00 00 00 00 00 00 00 00
 1.280237 1  18F15BF3x       Rx   d 7 00 00 00 00 00 00 00
 1.281147 1  18F15CF3x       Rx   d 8 00 00 00 00 00 00 00 00
 1.282035 1  18F15DF3x       Rx   d 8 00 00 00 00 00 00 00 00
 1.282953 1  18F15EF3x       Rx   d 8 00 00 00 00 00 00 00 00
 1.335868 1  1806E5F4x       Rx   d 8 00 00 00 00 01 FF FF FF
 1.368810 1  18F100F3x       Rx   d 8 03 41 7D 00 FA FA 14 00
 1.369636 1  18F102F3x       Rx   d 8 10 49 10 43 10 06 00 06
 1.370861 1  18F106F3x       Rx   d 8 80 C4 FC FF FF FF FF FF
 1.372055 1  18F107F3x       Rx   d 8 27 10 27 10 00 00 00 00
 1.373840 1  18F108F3x       Rx   d 8 10 00 04 00 00 00 00 B9
 1.374706 1  18F155F3x       Rx   d 8 38 38 39 39 39 3A 39 00
 1.375585 1  18F156F3x       Rx   d 8 00 00 00 00 00 00 00 00
 1.376460 1  18F157F3x       Rx   d 8 00 00 00 00 00 00 00 00
 1.377370 1  18F158F3x       Rx   d 8 00 00 00 00 00 00 00 00
 1.378577 1  18F159F3x       Rx   d 8 00 00 00 00 00 00 00 00
 1.379449 1  18F15AF3x       Rx   d 8 00 00 00 00 00 00 00 00
 1.380310 1  18F15BF3x       Rx   d 7 00 00 00 00 00 00 00
 1.381255 1  18F15CF3x       Rx   d 8 00 00 00 00 00 00 00 00
 1.382073 1  18F15DF3x       Rx   d 8 00 00 00 00 00 00 00 00
 1.382913 1  18F15EF3x       Rx   d 8 00 00 00 00 00 00 00 00
 1.385273 1  1806E5F4x       Rx   d 8 00 00 00 00 01 FF FF FF
 1.435474 1  1806E5F4x       Rx   d 8 00 00 00 00 01 FF FF FF
 1.468664 1  18F100F3x       Rx   d 8 03 41 7D 00 FA FA 14 00
 1.469483 1  18F102F3x       Rx   d 8 10 49 10 43 10 06 00 06
 1.470658 1  18F106F3x       Rx   d 8 80 C4 FC FF FF FF FF FF
 1.471943 1  18F107F3x       Rx   d 8 27 10 27 10 00 00 00 00
 1.473662 1  18F108F3x       Rx   d 8 10 00 04 00 00 00 00 B9
 1.474578 1  18F155F3x       Rx   d 8 38 38 39 39 39 3A 39 00
 1.475462 1  18F156F3x       Rx   d 8 00 00 00 00 00 00 00 00
 1.476301 1  18F157F3x       Rx   d 8 00 00 00 00 00 00 00 00
 1.480374 1  18F158F3x       Rx   d 8 00 00 00 00 00 00 00 00
 1.480427 1  18F159F3x       Rx   d 8 00 00 00 00 00 00 00 00
 1.480478 1  18F15AF3x       Rx   d 8 00 00 00 00 00 00 00 00
 1.480522 1  18F15BF3x       Rx   d 7 00 00 00 00 00 00 00
 1.481104 1  18F15CF3x       Rx   d 8 00 00 00 00 00 00 00 00
 1.481987 1  18F15DF3x       Rx   d 8 00 00 00 00 00 00 00 00
 1.482801 1  18F15EF3x       Rx   d 8 00 00 00 00 00 00 00 00
 1.485106 1  1806E5F4x       Rx   d 8 00 00 00 00 01 FF FF FF
 1.535392 1  1806E5F4x       Rx   d 8 00 00 00 00 01 FF FF FF
 1.568901 1  18F100F3x       Rx   d 8 03 41 7D 00 FA FA 14 00
 1.569635 1  18F102F3x       Rx   d 8 10 49 10 43 10 06 00 06
 1.570883 1  18F106F3x       Rx   d 8 80 C4 FC FF FF FF FF FF
 1.572085 1  18F107F3x       Rx   d 8 27 10 27 10 00 00 00 00
 1.573846 1  18F108F3x       Rx   d 8 10 00 04 00 00 00 00 B9
 1.574702 1  18F155F3x       Rx   d 8 38 38 39 39 39 3A 39 00
 1.575609 1  18F156F3x       Rx   d 8 00 00 00 00 00 00 00 00
 1.576477 1  18F157F3x       Rx   d 8 00 00 00 00 00 00 00 00
 1.577414 1  18F158F3x       Rx   d 8 00 00 00 00 00 00 00 00
 1.578591 1  18F159F3x       Rx   d 8 00 00 00 00 00 00 00 00
 1.579473 1  18F15AF3x       Rx   d 8 00 00 00 00 00 00 00 00
 1.580321 1  18F15BF3x       Rx   d 7 00 00 00 00 00 00 00
 1.581234 1  18F15CF3x       Rx   d 8 00 00 00 00 00 00 00 00
 1.582093 1  18F15DF3x       Rx   d 8 00 00 00 00 00 00 00 00
 1.582941 1  18F15EF3x       Rx   d 8 00 00 00 00 00 00 00 00
 1.585275 1  1806E5F4x       Rx   d 8 00 00 00 00 01 FF FF FF
 1.635390 1  1806E5F4x       Rx   d 8 00 00 00 00 01 FF FF FF
 1.659577 1  18FF50E5x       Rx   d 8 00 02 00 00 08 00 00 00
 1.668832 1  18F100F3x       Rx   d 8 03 41 7D 00 FA FA 14 00
 1.669594 1  18F102F3x       Rx   d 8 10 49 10 43 10 06 00 06
 1.670870 1  18F106F3x       Rx   d 8 80 C4 FC FF FF FF FF FF
 1.672350 1  18F107F3x       Rx   d 8 27 10 27 10 00 00 00 00
 1.673845 1  18F108F3x       Rx   d 8 10 00 04 00 00 00 00 B9
 1.674703 1  18F155F3x       Rx   d 8 38 38 39 39 39 3A 39 00
 1.675591 1  18F156F3x       Rx   d 8 00 00 00 00 00 00 00 00
 1.676464 1  18F157F3x       Rx   d 8 00 00 00 00 00 00 00 00
 1.677386 1  18F158F3x       Rx   d 8 00 00 00 00 00 00 00 00
 1.678607 1  18F159F3x       Rx   d 8 00 00 00 00 00 00 00 00
 1.679461 1  18F15AF3x       Rx   d 8 00 00 00 00 00 00 00 00
 1.680312 1  18F15BF3x       Rx   d 7 00 00 00 00 00 00 00
 1.681241 1  18F15CF3x       Rx   d 8 00 00 00 00 00 00 00 00
 1.682076 1  18F15DF3x       Rx   d 8 00 00 00 00 00 00 00 00
 1.682943 1  18F15EF3x       Rx   d 8 00 00 00 00 00 00 00 00
 1.697532 1  1806E5F4x       Rx   d 8 00 00 00 00 01 FF FF FF
 1.735393 1  1806E5F4x       Rx   d 8 00 00 00 00 01 FF FF FF
 1.768791 1  18F100F3x       Rx   d 8 03 41 7D 00 FA FA 14 00
 1.769506 1  18F102F3x       Rx   d 8 10 49 10 43 10 06 00 06
 1.770782 1  18F106F3x       Rx   d 8 80 C4 FC FF FF FF FF FF
 1.771999 1  18F107F3x       Rx   d 8 27 10 27 10 00 00 00 00
 1.773704 1  18F108F3x       Rx   d 8 10 00 04 00 00 00 00 B9
 1.774771 1  18F155F3x       Rx   d 8 38 38 39 39 39 3A 39 00
 1.775588 1  18F156F3x       Rx   d 8 00 00 00 00 00 00 00 00
 1.776503 1  18F157F3x       Rx   d 8 00 00 00 00 00 00 00 00
 1.777437 1  18F158F3x       Rx   d 8 00 00 00 00 00 00 00 00
 1.778575 1  18F159F3x       Rx   d 8 00 00 00 00 00 00 00 00
 1.779354 1  18F15AF3x       Rx   d 8 00 00 00 00 00 00 00 00
 1.780370 1  18F15BF3x       Rx   d 7 00 00 00 00 00 00 00
 1.781282 1  18F15CF3x       Rx   d 8 00 00 00 00 00 00 00 00
 1.782052 1  18F15DF3x       Rx   d 8 00 00 00 00 00 00 00 00
 1.783105 1  18F15EF3x       Rx   d 8 00 00 00 00 00 00 00 00
 1.787672 1  1806E5F4x       Rx   d 8 00 00 00 00 01 FF FF FF
 1.837416 1  1806E5F4x       Rx   d 8 00 00 00 00 01 FF FF FF
 1.868854 1  18F100F3x       Rx   d 8 03 41 7D 00 FA FA 14 00
 1.869477 1  18F102F3x       Rx   d 8 10 49 10 43 10 06 00 06
 1.870897 1  18F106F3x       Rx   d 8 80 C4 FC FF FF FF FF FF
 1.872159 1  18F107F3x       Rx   d 8 27 10 27 10 00 00 00 00
 1.875104 1  18F108F3x       Rx   d 8 10 00 04 00 00 00 00 B9
 1.875412 1  18F155F3x       Rx   d 8 38 38 39 39 39 3A 39 00
 1.875686 1  18F156F3x       Rx   d 8 00 00 00 00 00 00 00 00
 1.877143 1  18F104F3x       Rx   d 8 3A 38 06 01 02 FF FF FF
 1.877706 1  18F113F3x       Rx   d 8 10 45 10 46 10 46 10 46
 1.878728 1  18F114F3x       Rx   d 8 10 44 10 43 10 46 10 46
 1.879627 1  18F115F3x       Rx   d 8 10 43 10 44 10 44 10 43
 1.880519 1  18F116F3x       Rx   d 8 10 46 10 45 10 47 10 49
 1.881467 1  18F117F3x       Rx   d 8 10 44 10 45 10 49 10 49
 1.882443 1  18F118F3x       Rx   d 8 00 00 00 00 00 00 00 00
 1.883438 1  18F119F3x       Rx   d 8 00 00 00 00 00 00 00 00
 1.884420 1  18F11AF3x       Rx   d 8 00 00 00 00 00 00 00 00
 1.885407 1  18F11BF3x       Rx   d 8 00 00 00 00 00 00 00 00
 1.886231 1  18F11CF3x       Rx   d 8 00 00 00 00 00 00 00 00
 1.887359 1  18F11DF3x       Rx   d 8 00 00 00 00 00 00 00 00
 1.888626 1  18F11EF3x       Rx   d 8 00 00 00 00 00 00 00 00
 1.889533 1  18F11FF3x       Rx   d 8 00 00 00 00 00 00 00 00
 1.890482 1  18F120F3x       Rx   d 8 00 00 00 00 00 00 00 00
 1.891466 1  18F121F3x       Rx   d 8 00 00 00 00 00 00 00 00
 1.892446 1  18F122F3x       Rx   d 8 00 00 00 00 00 00 00 00
 1.893421 1  18F123F3x       Rx   d 8 00 00 00 00 00 00 00 00
 1.894356 1  18F124F3x       Rx   d 8 00 00 00 00 00 00 00 00
 1.895361 1  18F125F3x       Rx   d 8 00 00 00 00 00 00 00 00
 1.896283 1  18F126F3x       Rx   d 8 00 00 00 00 00 00 00 00
 1.897223 1  18F127F3x       Rx   d 8 00 00 00 00 00 00 00 00
 1.898437 1  18F128F3x       Rx   d 8 00 00 00 00 00 00 00 00
 1.899389 1  18F129F3x       Rx   d 8 00 00 00 00 00 00 00 00
 1.900324 1  18F12AF3x       Rx   d 8 00 00 00 00 00 00 00 00
 1.900909 1  1806E5F4x       Rx   d 8 00 00 00 00 01 FF FF FF
 1.901517 1  18F12BF3x       Rx   d 8 00 00 00 00 00 00 00 00
 1.902442 1  18F12CF3x       Rx   d 8 00 00 00 00 00 00 00 00
 1.903217 1  18F12DF3x       Rx   d 8 00 00 00 00 00 00 00 00
 1.915952 1  18F12EF3x       Rx   d 8 00 00 00 00 00 00 00 00
 1.916115 1  18F12FF3x       Rx   d 8 00 00 00 00 00 00 00 00
 1.916238 1  18F130F3x       Rx   d 8 00 00 00 00 00 00 00 00
 1.916355 1  18F131F3x       Rx   d 8 00 00 00 00 00 00 00 00
