date Sat May 09 06:30:16.694 2026
base hex  timestamps absolute
internal events logged
Begin Triggerblock Sat May 09 06:30:16.699 2026
 0.000000 Start of measurement
 0.000000 1  18FF50E5x       Rx   d 8 00 02 00 00 0C 00 00 00
 0.000202 1  18FF50E5x       Rx   d 8 00 02 00 00 0C 00 00 00
 0.000312 1  18FF50E5x       Rx   d 8 00 02 00 00 0C 00 00 00
 0.000406 1  18FF50E5x       Rx   d 8 00 02 00 00 0C 00 00 00
 0.008111 1  18FF50E5x       Rx   d 8 00 02 00 00 0C 00 00 00
 0.018113 1  18FF50E5x       Rx   d 8 00 02 00 00 1C 00 00 00
 0.028113 1  18FF50E5x       Rx   d 8 00 02 00 00 1C 00 00 00
 0.038093 1  18FF50E5x       Rx   d 8 00 02 00 00 1C 00 00 00
 0.048128 1  18FF50E5x       Rx   d 8 00 02 00 00 1C 00 00 00
 0.058247 1  18FF50E5x       Rx   d 8 00 02 00 00 1C 00 00 00
 0.068165 1  18FF50E5x       Rx   d 8 00 02 00 00 1C 00 00 00
 0.078141 1  18FF50E5x       Rx   d 8 00 02 00 00 1C 00 00 00
 0.088151 1  18FF50E5x       Rx   d 8 00 02 00 00 1C 00 00 00
 0.098155 1  18FF50E5x       Rx   d 8 00 02 00 00 1C 00 00 00
 0.108153 1  18FF50E5x       Rx   d 8 00 02 00 00 1C 00 00 00
 0.118163 1  18FF50E5x       Rx   d 8 00 02 00 00 1C 00 00 00
 0.128182 1  18FF50E5x       Rx   d 8 00 02 00 00 1C 00 00 00
 0.278434 1  18FF50E5x       Rx   d 8 00 02 00 00 1C 00 00 00
 1.282288 1  18FF50E5x       Rx   d 8 00 02 00 00 1C 00 00 00
 2.279413 1  18FF50E5x       Rx   d 8 00 02 00 00 1C 00 00 00
 3.279849 1  18FF50E5x       Rx   d 8 00 02 00 00 1C 00 00 00
 4.280251 1  18FF50E5x       Rx   d 8 00 02 00 00 1C 00 00 00
 5.280729 1  18FF50E5x       Rx   d 8 00 02 00 00 1C 00 00 00
 6.281240 1  18FF50E5x       Rx   d 8 00 02 00 00 1C 00 00 00
 7.281721 1  18FF50E5x       Rx   d 8 00 02 00 00 1C 00 00 00
 7.519880 1  41              Rx   d 8 20 12 01 00 00 00 01 11
 7.676399 1  18F100F3x       Rx   d 8 03 41 7D 00 FA FA 14 00
 7.676596 1  18F102F3x       Rx   d 8 00 00 00 00 00 00 00 00
 7.676734 1  18F106F3x       Rx   d 8 00 80 FC FF FF FF FF FF
 7.676858 1  18F107F3x       Rx   d 8 27 10 27 10 00 00 00 00
 7.677932 1  18F108F3x       Rx   d 8 00 00 00 00 00 00 00 00
 7.678848 1  18F155F3x       Rx   d 8 00 00 00 00 00 00 00 00
 7.679702 1  18F156F3x       Rx   d 8 00 00 00 00 00 00 00 00
 7.680665 1  18F157F3x       Rx   d 8 00 00 00 00 00 00 00 00
 7.681661 1  18F158F3x       Rx   d 8 00 00 00 00 00 00 00 00
 7.682528 1  18F159F3x       Rx   d 8 00 00 00 00 00 00 00 00
 7.683453 1  18F15AF3x       Rx   d 8 00 00 00 00 00 00 00 00
 7.684329 1  18F15BF3x       Rx   d 7 00 00 00 00 00 00 00
 7.685168 1  18F15CF3x       Rx   d 8 00 00 00 00 00 00 00 00
 7.686040 1  18F15DF3x       Rx   d 8 00 00 00 00 00 00 00 00
 7.686874 1  18F15EF3x       Rx   d 8 00 00 00 00 00 00 00 00
 7.757015 1  18FF2112x       Rx   d 8 00 00 00 00 00 00 00 00
 7.772769 1  18F100F3x       Rx   d 8 03 41 7D 00 FA FA 14 00
 7.773831 1  18F102F3x       Rx   d 8 00 00 00 00 00 00 00 00
 7.774917 1  18F106F3x       Rx   d 8 00 80 FC FF FF FF FF FF
 7.776280 1  18F107F3x       Rx   d 8 27 10 27 10 00 00 00 00
 7.777905 1  18F108F3x       Rx   d 8 00 00 00 00 00 00 00 00
 7.778924 1  18F155F3x       Rx   d 8 00 00 00 00 00 00 00 00
 7.779675 1  18F156F3x       Rx   d 8 00 00 00 00 00 00 00 00
 7.780658 1  18F157F3x       Rx   d 8 00 00 00 00 00 00 00 00
 7.781649 1  18F158F3x       Rx   d 8 00 00 00 00 00 00 00 00
 7.782526 1  18F159F3x       Rx   d 8 00 00 00 00 00 00 00 00
 7.783558 1  18F15AF3x       Rx   d 8 00 00 00 00 00 00 00 00
 7.784368 1  18F15BF3x       Rx   d 7 00 00 00 00 00 00 00
 7.785536 1  18F15CF3x       Rx   d 8 00 00 00 00 00 00 00 00
 7.786578 1  18F15DF3x       Rx   d 8 00 00 00 00 00 00 00 00
 7.787397 1  18F15EF3x       Rx   d 8 00 00 00 00 00 00 00 00
 7.854094 1  18FF2112x       Rx   d 8 00 00 00 00 00 00 00 00
 7.872883 1  18F100F3x       Rx   d 8 03 41 7D 00 FA FA 14 00
 7.873790 1  18F102F3x       Rx   d 8 00 00 00 00 00 00 00 00
 7.874908 1  18F106F3x       Rx   d 8 00 80 FC FF FF FF FF FF
 7.876276 1  18F107F3x       Rx   d 8 27 10 27 10 00 00 00 00
 7.878052 1  18F108F3x       Rx   d 8 00 00 00 00 00 00 00 00
 7.878934 1  18F155F3x       Rx   d 8 00 00 00 00 00 00 00 00
 7.879678 1  18F156F3x       Rx   d 8 00 00 00 00 00 00 00 00
 7.880647 1  18F157F3x       Rx   d 8 00 00 00 00 00 00 00 00
 7.881526 1  18F158F3x       Rx   d 8 00 00 00 00 00 00 00 00
 7.894457 1  18F159F3x       Rx   d 8 00 00 00 00 00 00 00 00
 7.894603 1  18F15AF3x       Rx   d 8 00 00 00 00 00 00 00 00
 7.894713 1  18F15BF3x       Rx   d 7 00 00 00 00 00 00 00
 7.894829 1  18F15CF3x       Rx   d 8 00 00 00 00 00 00 00 00
 7.894945 1  18F15DF3x       Rx   d 8 00 00 00 00 00 00 00 00
 7.895063 1  18F15EF3x       Rx   d 8 00 00 00 00 00 00 00 00
 7.951395 1  18FF2112x       Rx   d 8 00 00 00 00 00 00 00 00
 7.972894 1  18F100F3x       Rx   d 8 03 41 7D 00 FA FA 14 00
 7.973848 1  18F102F3x       Rx   d 8 10 4A 10 43 10 06 00 07
 7.975108 1  18F106F3x       Rx   d 8 00 80 FC FF FF FF FF FF
 7.976311 1  18F107F3x       Rx   d 8 27 10 27 10 00 00 00 00
 7.978064 1  18F108F3x       Rx   d 8 00 00 00 00 00 00 00 00
 7.978883 1  18F155F3x       Rx   d 8 38 38 39 39 39 3A 39 00
 7.979763 1  18F156F3x       Rx   d 8 00 00 00 00 00 00 00 00
 7.980741 1  18F157F3x       Rx   d 8 00 00 00 00 00 00 00 00
 7.981775 1  18F158F3x       Rx   d 8 00 00 00 00 00 00 00 00
 7.982526 1  18F159F3x       Rx   d 8 00 00 00 00 00 00 00 00
 7.983432 1  18F15AF3x       Rx   d 8 00 00 00 00 00 00 00 00
 7.984228 1  18F15BF3x       Rx   d 7 00 00 00 00 00 00 00
 7.985103 1  18F15CF3x       Rx   d 8 00 00 00 00 00 00 00 00
 7.985958 1  18F15DF3x       Rx   d 8 00 00 00 00 00 00 00 00
 7.986768 1  18F15EF3x       Rx   d 8 00 00 00 00 00 00 00 00
 8.048683 1  18FF2112x       Rx   d 8 00 00 00 00 00 00 00 00
 8.072953 1  18F100F3x       Rx   d 8 03 41 7D 00 FA FA 14 00
 8.073808 1  18F102F3x       Rx   d 8 10 4A 10 43 10 06 00 07
 8.074913 1  18F106F3x       Rx   d 8 44 E0 FC FF FF FF FF FF
 8.076353 1  18F107F3x       Rx   d 8 2E E0 27 10 00 A7 00 00
 8.078160 1  18F108F3x       Rx   d 8 00 00 00 00 00 00 00 00
 8.078982 1  18F155F3x       Rx   d 8 38 38 39 39 39 3A 39 00
 8.079737 1  18F156F3x       Rx   d 8 00 00 00 00 00 00 00 00
 8.080656 1  18F157F3x       Rx   d 8 00 00 00 00 00 00 00 00
 8.081546 1  18F158F3x       Rx   d 8 00 00 00 00 00 00 00 00
 8.082476 1  18F159F3x       Rx   d 8 00 00 00 00 00 00 00 00
 8.083404 1  18F15AF3x       Rx   d 8 00 00 00 00 00 00 00 00
 8.084225 1  18F15BF3x       Rx   d 7 00 00 00 00 00 00 00
 8.085071 1  18F15CF3x       Rx   d 8 00 00 00 00 00 00 00 00
 8.086072 1  18F15DF3x       Rx   d 8 00 00 00 00 00 00 00 00
 8.086919 1  18F15EF3x       Rx   d 8 00 00 00 00 00 00 00 00
 8.145908 1  18FF2112x       Rx   d 8 00 00 00 00 00 00 00 00
 8.172899 1  18F100F3x       Rx   d 8 03 41 7D 00 FA FA 14 00
 8.173666 1  18F102F3x       Rx   d 8 10 4A 10 43 10 06 00 07
 8.174940 1  18F106F3x       Rx   d 8 45 E0 FC FF FF FF FF FF
 8.176274 1  18F107F3x       Rx   d 8 2E E0 27 10 00 A7 00 00
 8.178016 1  18F108F3x       Rx   d 8 00 00 00 00 00 00 00 00
 8.179018 1  18F155F3x       Rx   d 8 38 38 39 39 39 3A 39 00
 8.179813 1  18F156F3x       Rx   d 8 00 00 00 00 00 00 00 00
 8.180742 1  18F157F3x       Rx   d 8 00 00 00 00 00 00 00 00
 8.181583 1  18F158F3x       Rx   d 8 00 00 00 00 00 00 00 00
 8.182498 1  18F159F3x       Rx   d 8 00 00 00 00 00 00 00 00
 8.183414 1  18F15AF3x       Rx   d 8 00 00 00 00 00 00 00 00
 8.184323 1  18F15BF3x       Rx   d 7 00 00 00 00 00 00 00
 8.185112 1  18F15CF3x       Rx   d 8 00 00 00 00 00 00 00 00
 8.185982 1  18F15DF3x       Rx   d 8 00 00 00 00 00 00 00 00
 8.186859 1  18F15EF3x       Rx   d 8 00 00 00 00 00 00 00 00
 8.243330 1  18FF2112x       Rx   d 8 00 00 00 00 00 00 00 00
 8.272809 1  18F100F3x       Rx   d 8 03 41 7D 0B FA FA 14 00
 8.273792 1  18F102F3x       Rx   d 8 10 4A 10 43 10 06 00 07
 8.274964 1  18F106F3x       Rx   d 8 45 E0 FC FF FF FF FF FF
 8.276355 1  18F107F3x       Rx   d 8 2E E0 27 10 00 A7 00 00
 8.278149 1  18F108F3x       Rx   d 8 00 00 00 00 00 00 00 00
 8.278971 1  18F155F3x       Rx   d 8 38 38 39 39 39 3A 39 00
 8.279740 1  18F156F3x       Rx   d 8 00 00 00 00 00 00 00 00
 8.280650 1  18F157F3x       Rx   d 8 00 00 00 00 00 00 00 00
 8.281560 1  18F158F3x       Rx   d 8 00 00 00 00 00 00 00 00
 8.282134 1  18FF50E5x       Rx   d 8 00 16 00 00 14 00 00 00
 8.282829 1  18F159F3x       Rx   d 8 00 00 00 00 00 00 00 00
 8.283638 1  18F15AF3x       Rx   d 8 00 00 00 00 00 00 00 00
 8.284480 1  18F15BF3x       Rx   d 7 00 00 00 00 00 00 00
 8.285815 1  18F15CF3x       Rx   d 8 00 00 00 00 00 00 00 00
 8.286772 1  18F15DF3x       Rx   d 8 00 00 00 00 00 00 00 00
 8.287451 1  18F15EF3x       Rx   d 8 00 00 00 00 00 00 00 00
 8.340568 1  18FF2112x       Rx   d 8 00 00 00 00 00 00 00 00
 8.372847 1  18F100F3x       Rx   d 8 03 41 7D 0B FA FA 14 00
 8.373667 1  18F102F3x       Rx   d 8 10 4A 10 43 10 06 00 07
 8.374955 1  18F106F3x       Rx   d 8 45 E0 FC FF FF FF FF FF
 8.376259 1  18F107F3x       Rx   d 8 2E E0 27 10 00 A7 00 00
 8.378020 1  18F108F3x       Rx   d 8 00 00 00 00 00 00 00 00
 8.378911 1  18F155F3x       Rx   d 8 38 38 39 39 39 3A 39 00
 8.379780 1  18F156F3x       Rx   d 8 00 00 00 00 00 00 00 00
 8.380673 1  18F157F3x       Rx   d 8 00 00 00 00 00 00 00 00
 8.381657 1  18F158F3x       Rx   d 8 00 00 00 00 00 00 00 00
 8.382491 1  18F159F3x       Rx   d 8 00 00 00 00 00 00 00 00
 8.383422 1  18F15AF3x       Rx   d 8 00 00 00 00 00 00 00 00
 8.384267 1  18F15BF3x       Rx   d 7 00 00 00 00 00 00 00
 8.385131 1  18F15CF3x       Rx   d 8 00 00 00 00 00 00 00 00
 8.385963 1  18F15DF3x       Rx   d 8 00 00 00 00 00 00 00 00
 8.386826 1  18F15EF3x       Rx   d 8 00 00 00 00 00 00 00 00
 8.437750 1  18FF2112x       Rx   d 8 01 00 00 00 00 00 00 00
 8.472980 1  18F100F3x       Rx   d 8 03 41 7D 0B FA FA 14 00
 8.473805 1  18F102F3x       Rx   d 8 10 4A 10 43 10 06 00 07
 8.474953 1  18F106F3x       Rx   d 8 45 E0 FC FF FF FF FF FF
 8.476365 1  18F107F3x       Rx   d 8 2E E0 27 10 00 A7 00 00
 8.478157 1  18F108F3x       Rx   d 8 00 00 00 00 00 00 00 00
 8.478975 1  18F155F3x       Rx   d 8 38 38 39 39 39 3A 39 00
 8.479747 1  18F156F3x       Rx   d 8 00 00 00 00 00 00 00 00
 8.480658 1  18F157F3x       Rx   d 8 00 00 00 00 00 00 00 00
 8.481655 1  18F158F3x       Rx   d 8 00 00 00 00 00 00 00 00
 8.482494 1  18F159F3x       Rx   d 8 00 00 00 00 00 00 00 00
 8.483419 1  18F15AF3x       Rx   d 8 00 00 00 00 00 00 00 00
 8.484232 1  18F15BF3x       Rx   d 7 00 00 00 00 00 00 00
 8.485094 1  18F15CF3x       Rx   d 8 00 00 00 00 00 00 00 00
 8.486082 1  18F15DF3x       Rx   d 8 00 00 00 00 00 00 00 00
 8.486934 1  18F15EF3x       Rx   d 8 00 00 00 00 00 00 00 00
 8.535520 1  18FF2112x       Rx   d 8 01 00 00 00 00 00 00 00
 8.572798 1  18F100F3x       Rx   d 8 03 41 7D 27 FA FA 14 00
 8.573852 1  18F102F3x       Rx   d 8 10 4A 10 43 10 06 00 07
 8.574657 1  18F106F3x       Rx   d 8 45 E0 FC FF FF FF FF FF
 8.576349 1  18F107F3x       Rx   d 8 36 B0 27 10 01 4D 00 00
 8.578213 1  18F108F3x       Rx   d 8 00 00 00 00 00 00 00 00
 8.579199 1  18F104F3x       Rx   d 8 3A 38 06 01 02 FF FF FF
 8.580127 1  18F113F3x       Rx   d 8 10 45 10 47 10 47 10 46
 8.581022 1  18F114F3x       Rx   d 8 10 44 10 43 10 46 10 46
 8.581955 1  18F115F3x       Rx   d 8 10 44 10 44 10 44 10 43
 8.582899 1  18F116F3x       Rx   d 8 10 47 10 46 10 49 10 4A
 8.583834 1  18F117F3x       Rx   d 8 10 44 10 44 10 49 10 49
 8.584822 1  18F118F3x       Rx   d 8 00 00 00 00 00 00 00 00
 8.585915 1  18F119F3x       Rx   d 8 00 00 00 00 00 00 00 00
 8.586808 1  18F11AF3x       Rx   d 8 00 00 00 00 00 00 00 00
 8.587758 1  18F11BF3x       Rx   d 8 00 00 00 00 00 00 00 00
 8.588743 1  18F11CF3x       Rx   d 8 00 00 00 00 00 00 00 00
 8.589770 1  18F11DF3x       Rx   d 8 00 00 00 00 00 00 00 00
 8.590312 1  18F100D0x       Rx   d 8 00 FF FF FF FF FF FF FF
 8.590880 1  18F11EF3x       Rx   d 8 00 00 00 00 00 00 00 00
 8.591811 1  18F11FF3x       Rx   d 8 00 00 00 00 00 00 00 00
 8.592781 1  18F120F3x       Rx   d 8 00 00 00 00 00 00 00 00
 8.593725 1  18F121F3x       Rx   d 8 00 00 00 00 00 00 00 00
 8.594633 1  18F122F3x       Rx   d 8 00 00 00 00 00 00 00 00
 8.595854 1  18F123F3x       Rx   d 8 00 00 00 00 00 00 00 00
 8.596780 1  18F124F3x       Rx   d 8 00 00 00 00 00 00 00 00
 8.597728 1  18F125F3x       Rx   d 8 00 00 00 00 00 00 00 00
 8.598691 1  18F126F3x       Rx   d 8 00 00 00 00 00 00 00 00
 8.599664 1  18F127F3x       Rx   d 8 00 00 00 00 00 00 00 00
 8.600623 1  18F128F3x       Rx   d 8 00 00 00 00 00 00 00 00
 8.601486 1  18F129F3x       Rx   d 8 00 00 00 00 00 00 00 00
 8.602472 1  18F12AF3x       Rx   d 8 00 00 00 00 00 00 00 00
 8.603434 1  18F12BF3x       Rx   d 8 00 00 00 00 00 00 00 00
 8.604276 1  18F12CF3x       Rx   d 8 00 00 00 00 00 00 00 00
 8.605259 1  18F12DF3x       Rx   d 8 00 00 00 00 00 00 00 00
 8.606159 1  18F12EF3x       Rx   d 8 00 00 00 00 00 00 00 00
 8.606676 1  CFF21CAx        Rx   d 8 00 00 80 0C 28 35 00 14
 8.607248 1  18F12FF3x       Rx   d 8 00 00 00 00 00 00 00 00
 8.608164 1  18F130F3x       Rx   d 8 00 00 00 00 00 00 00 00
 8.609078 1  18F131F3x       Rx   d 8 00 00 00 00 00 00 00 00
 8.609952 1  18F132F3x       Rx   d 8 00 00 00 00 00 00 00 00
 8.610839 1  18F133F3x       Rx   d 8 00 00 00 00 00 00 00 00
 8.611728 1  18F134F3x       Rx   d 8 00 00 00 00 00 00 00 00
 8.612629 1  18F135F3x       Rx   d 8 00 00 00 00 00 00 00 00
 8.613496 1  18F136F3x       Rx   d 8 00 00 00 00 00 00 00 00
 8.614075 1  18F100D0x       Rx   d 8 0C FF FF FF FF FF FF FF
 8.614670 1  18F137F3x       Rx   d 8 00 00 00 00 00 00 00 00
 8.615831 1  18F138F3x       Rx   d 8 00 00 00 00 00 00 00 00
 8.616718 1  18F139F3x       Rx   d 8 00 00 00 00 00 00 00 00
 8.617694 1  18F13AF3x       Rx   d 8 00 00 00 00 00 00 00 00
 8.618209 1  CFF21CAx        Rx   d 8 00 00 80 0C 28 35 00 14
 8.618762 1  18F13BF3x       Rx   d 8 00 00 00 00 00 00 00 00
 8.619624 1  18F13CF3x       Rx   d 8 00 00 00 00 00 00 00 00
 8.620638 1  18F155F3x       Rx   d 8 38 38 39 39 39 3A 39 00
 8.621471 1  18F156F3x       Rx   d 8 00 00 00 00 00 00 00 00
 8.622537 1  18F157F3x       Rx   d 8 00 00 00 00 00 00 00 00
 8.623413 1  18F158F3x       Rx   d 8 00 00 00 00 00 00 00 00
 8.624291 1  18F159F3x       Rx   d 8 00 00 00 00 00 00 00 00
 8.625021 1  18F15AF3x       Rx   d 8 00 00 00 00 00 00 00 00
 8.625977 1  18F15BF3x       Rx   d 7 00 00 00 00 00 00 00
 8.626845 1  18F15CF3x       Rx   d 8 00 00 00 00 00 00 00 00
 8.627793 1  18F15DF3x       Rx   d 8 00 00 00 00 00 00 00 00
 8.628627 1  18F15EF3x       Rx   d 8 00 00 00 00 00 00 00 00
 8.630281 1  CFF21CAx        Rx   d 8 00 00 80 0C 28 35 00 14
 8.634241 1  18F100D0x       Rx   d 8 0C FF FF FF FF FF FF FF
 8.642202 1  CFF21CAx        Rx   d 8 01 00 80 0C 28 35 00 14
 8.654332 1  CFF21CAx        Rx   d 8 01 00 80 0C 28 35 00 14
 8.654847 1  18F100D0x       Rx   d 8 0C FF FF FF FF FF FF FF
 8.666387 1  CFF21CAx        Rx   d 8 01 00 80 0C 28 35 00 14
 8.672894 1  18F100F3x       Rx   d 8 03 41 7D 27 FA FA 14 00
 8.673771 1  18F102F3x       Rx   d 8 10 4A 10 43 10 06 00 07
 8.674465 1  18F100D0x       Rx   d 8 0C FF FF FF FF FF FF FF
 8.675044 1  18F106F3x       Rx   d 8 45 E0 FC FF FF FF FF FF
 8.676498 1  18F107F3x       Rx   d 8 36 B0 27 10 01 4D 00 00
 8.678274 1  18F108F3x       Rx   d 8 00 00 00 00 00 00 00 00
 8.678831 1  CFF21CAx        Rx   d 8 03 00 80 0C 28 35 00 14
 8.679238 1  18F155F3x       Rx   d 8 38 38 39 39 39 3A 39 00
 8.680134 1  18F156F3x       Rx   d 8 00 00 00 00 00 00 00 00
 8.681022 1  18F157F3x       Rx   d 8 00 00 00 00 00 00 00 00
 8.681893 1  18F158F3x       Rx   d 8 00 00 00 00 00 00 00 00
 8.682877 1  18F159F3x       Rx   d 8 00 00 00 00 00 00 00 00
 8.683652 1  18F15AF3x       Rx   d 8 00 00 00 00 00 00 00 00
 8.684517 1  18F15BF3x       Rx   d 7 00 00 00 00 00 00 00
 8.685832 1  18F15CF3x       Rx   d 8 00 00 00 00 00 00 00 00
 8.686769 1  18F15DF3x       Rx   d 8 00 00 00 00 00 00 00 00
 8.687477 1  18F15EF3x       Rx   d 8 00 00 00 00 00 00 00 00
 8.690490 1  CFF21CAx        Rx   d 8 03 00 80 0C 28 35 00 14
 8.698516 1  18F100D0x       Rx   d 8 0C FF FF FF FF FF FF FF
 8.702615 1  CFF21CAx        Rx   d 8 03 00 80 0C 28 35 00 14
 8.714449 1  CFF21CAx        Rx   d 8 03 00 80 0C 28 35 00 14
 8.718676 1  18F100D0x       Rx   d 8 0C FF FF FF FF FF FF FF
 8.726777 1  CFF21CAx        Rx   d 8 03 00 80 0C 28 35 00 14
 8.731645 1  18FF2112x       Rx   d 8 01 00 00 00 00 00 00 00
 8.744920 1  CFF21CAx        Rx   d 8 03 00 80 0C 28 35 00 14
 8.745040 1  18F100D0x       Rx   d 8 0C FF FF FF FF FF FF FF
 8.750737 1  CFF21CAx        Rx   d 8 03 00 80 0C 28 35 00 14
 8.762654 1  CFF21CAx        Rx   d 8 03 00 80 0C 28 35 00 14
 8.763198 1  18F100D0x       Rx   d 8 0C FF FF FF FF FF FF FF
 8.772770 1  18F100F3x       Rx   d 8 03 41 7D 2A FA FA 14 00
 8.773734 1  18F102F3x       Rx   d 8 10 48 10 41 10 0C 00 07
 8.774812 1  CFF21CAx        Rx   d 8 03 00 80 0C 28 35 00 14
 8.775314 1  18F106F3x       Rx   d 8 45 E0 FC FF FF FF FF FF
 8.776631 1  18F107F3x       Rx   d 8 36 B0 27 10 01 4D 00 00
 8.778515 1  18F108F3x       Rx   d 8 00 00 00 00 00 00 00 00
 8.779344 1  18F155F3x       Rx   d 8 38 38 39 39 39 3A 39 00
 8.780265 1  18F156F3x       Rx   d 8 00 00 00 00 00 00 00 00
 8.781182 1  18F157F3x       Rx   d 8 00 00 00 00 00 00 00 00
 8.782011 1  18F158F3x       Rx   d 8 00 00 00 00 00 00 00 00
 8.782920 1  18F159F3x       Rx   d 8 00 00 00 00 00 00 00 00
 8.783753 1  18F15AF3x       Rx   d 8 00 00 00 00 00 00 00 00
 8.784612 1  18F15BF3x       Rx   d 7 00 00 00 00 00 00 00
 8.785750 1  18F15CF3x       Rx   d 8 00 00 00 00 00 00 00 00
 8.786607 1  18F15DF3x       Rx   d 8 00 00 00 00 00 00 00 00
 8.787156 1  CFF21CAx        Rx   d 8 03 00 80 0C 28 35 00 14
 8.787761 1  18F100D0x       Rx   d 8 0C FF FF FF FF FF FF FF
 8.788332 1  18F15EF3x       Rx   d 8 00 00 00 00 00 00 00 00
 8.798856 1  CFF21CAx        Rx   d 8 03 00 80 0C 28 35 00 14
 8.806894 1  18F100D0x       Rx   d 8 0C FF FF FF FF FF FF FF
 8.810913 1  CFF21CAx        Rx   d 8 03 00 80 0C 28 35 00 14
 8.823078 1  CFF21CAx        Rx   d 8 03 00 80 0C 28 35 00 14
 8.828939 1  18FF2112x       Rx   d 8 01 00 00 00 00 00 00 00
 8.831140 1  18F100D0x       Rx   d 8 0C FF FF FF FF FF FF FF
 8.835068 1  CFF21CAx        Rx   d 8 02 00 80 0C 28 35 00 14
 8.847032 1  CFF21CAx        Rx   d 8 02 00 80 0C 28 35 00 14
 8.855320 1  18F100D0x       Rx   d 8 0C FF FF FF FF FF FF FF
 8.859186 1  CFF21CAx        Rx   d 8 02 00 80 0C 28 35 00 14
 8.871097 1  CFF21CAx        Rx   d 8 02 00 80 0C 28 35 00 14
 8.872893 1  18F100F3x       Rx   d 8 03 41 7D 2A FA FA 14 00
 8.873786 1  18F102F3x       Rx   d 8 10 48 10 41 10 0C 00 07
 8.874933 1  18F106F3x       Rx   d 8 45 E0 FC FF FF FF FF FF
 8.876373 1  18F107F3x       Rx   d 8 36 B0 27 10 01 4D 00 00
 8.878159 1  18F108F3x       Rx   d 8 00 00 00 00 00 00 00 00
 8.878979 1  18F155F3x       Rx   d 8 38 38 39 39 39 3A 39 00
 8.879459 1  18F100D0x       Rx   d 8 0C FF FF FF FF FF FF FF
 8.880028 1  18F156F3x       Rx   d 8 00 00 00 00 00 00 00 00
 8.880919 1  18F157F3x       Rx   d 8 00 00 00 00 00 00 00 00
 8.881787 1  18F158F3x       Rx   d 8 00 00 00 00 00 00 00 00
 8.882777 1  18F159F3x       Rx   d 8 00 00 00 00 00 00 00 00
 8.883249 1  CFF21CAx        Rx   d 8 02 00 80 0C 28 35 00 14
 8.883810 1  18F15AF3x       Rx   d 8 00 00 00 00 00 00 00 00
 8.884629 1  18F15BF3x       Rx   d 7 00 00 00 00 00 00 00
 8.885947 1  18F15CF3x       Rx   d 8 00 00 00 00 00 00 00 00
 8.886807 1  18F15DF3x       Rx   d 8 00 00 00 00 00 00 00 00
 8.887621 1  18F15EF3x       Rx   d 8 00 00 00 00 00 00 00 00
 8.895389 1  CFF21CAx        Rx   d 8 02 00 80 0C 28 35 00 14
 8.903353 1  18F100D0x       Rx   d 8 0C FF FF FF FF FF FF FF
 8.907364 1  CFF21CAx        Rx   d 8 02 00 80 0C 28 35 00 14
 8.919459 1  CFF21CAx        Rx   d 8 02 00 80 0C 28 35 00 14
 8.923447 1  18F100D0x       Rx   d 8 0C FF FF FF FF FF FF FF
 8.926209 1  18FF2112x       Rx   d 8 01 00 00 00 00 00 00 00
 8.931497 1  CFF21CAx        Rx   d 8 02 00 80 0C 28 35 00 14
 8.943585 1  CFF21CAx        Rx   d 8 02 00 80 0C 28 35 00 14
 8.947406 1  18F100D0x       Rx   d 8 0C FF FF FF FF FF FF FF
 8.964584 1  CFF21CAx        Rx   d 8 02 00 80 0C 28 35 00 14
 8.967492 1  CFF21CAx        Rx   d 8 01 00 80 0C 28 35 00 14
 8.971486 1  18F100D0x       Rx   d 8 0C FF FF FF FF FF FF FF
 8.972769 1  18F100F3x       Rx   d 8 03 41 7D 2A FA FA 14 00
 8.973666 1  18F102F3x       Rx   d 8 10 48 10 41 10 0C 00 07
 8.974935 1  18F106F3x       Rx   d 8 45 E0 FC FF FF FF FF FF
 8.976257 1  18F107F3x       Rx   d 8 36 B0 27 10 01 4D 00 00
 8.978027 1  18F108F3x       Rx   d 8 00 00 00 00 00 00 00 00
 8.978898 1  18F155F3x       Rx   d 8 38 38 39 39 39 3A 39 00
 8.979622 1  CFF21CAx        Rx   d 8 01 00 80 0C 28 35 00 14
 8.980120 1  18F156F3x       Rx   d 8 00 00 00 00 00 00 00 00
 8.981031 1  18F157F3x       Rx   d 8 00 00 00 00 00 00 00 00
 8.981910 1  18F158F3x       Rx   d 8 00 00 00 00 00 00 00 00
 8.982794 1  18F159F3x       Rx   d 8 00 00 00 00 00 00 00 00
 8.983677 1  18F15AF3x       Rx   d 8 00 00 00 00 00 00 00 00
 8.984528 1  18F15BF3x       Rx   d 7 00 00 00 00 00 00 00
 8.985733 1  18F15CF3x       Rx   d 8 00 00 00 00 00 00 00 00
 8.986690 1  18F15DF3x       Rx   d 8 00 00 00 00 00 00 00 00
 8.987484 1  18F15EF3x       Rx   d 8 00 00 00 00 00 00 00 00
 8.991657 1  CFF21CAx        Rx   d 8 01 00 80 0C 28 35 00 14
 8.995655 1  18F100D0x       Rx   d 8 0C FF FF FF FF FF FF FF
 9.003670 1  CFF21CAx        Rx   d 8 01 00 80 0C 28 35 00 14
 9.015678 1  CFF21CAx        Rx   d 8 01 00 80 0C 28 35 00 14
 9.019703 1  18F100D0x       Rx   d 8 0C FF FF FF FF FF FF FF
 9.023379 1  18FF2112x       Rx   d 8 01 00 00 00 00 00 00 00
 9.027748 1  CFF21CAx        Rx   d 8 02 00 80 0C 28 35 00 14
 9.039873 1  CFF21CAx        Rx   d 8 02 00 80 0C 28 35 00 14
 9.043845 1  18F100D0x       Rx   d 8 0C FF FF FF FF FF FF FF
 9.051835 1  CFF21CAx        Rx   d 8 02 00 80 0C 28 35 00 14
 9.064016 1  CFF21CAx        Rx   d 8 02 00 80 0C 28 35 00 14
 9.064601 1  18F100D0x       Rx   d 8 0C FF FF FF FF FF FF FF
 9.072910 1  18F100F3x       Rx   d 8 03 41 7D 4A FA FA 14 00
 9.073802 1  18F102F3x       Rx   d 8 10 48 10 41 10 0C 00 07
 9.074946 1  18F106F3x       Rx   d 8 45 E0 FC FF FF FF FF FF
 9.076069 1  CFF21CAx        Rx   d 8 02 00 80 0C 28 35 00 14
 9.076633 1  18F107F3x       Rx   d 8 38 A4 27 10 01 77 00 00
 9.078416 1  18F108F3x       Rx   d 8 00 00 00 00 00 00 00 00
 9.079137 1  18F155F3x       Rx   d 8 38 38 39 39 39 3A 39 00
 9.080042 1  18F156F3x       Rx   d 8 00 00 00 00 00 00 00 00
 9.080924 1  18F157F3x       Rx   d 8 00 00 00 00 00 00 00 00
 9.081794 1  18F158F3x       Rx   d 8 00 00 00 00 00 00 00 00
 9.082689 1  18F159F3x       Rx   d 8 00 00 00 00 00 00 00 00
 9.083719 1  18F15AF3x       Rx   d 8 00 00 00 00 00 00 00 00
 9.084640 1  18F15BF3x       Rx   d 7 00 00 00 00 00 00 00
 9.085851 1  18F15CF3x       Rx   d 8 00 00 00 00 00 00 00 00
 9.086774 1  18F15DF3x       Rx   d 8 00 00 00 00 00 00 00 00
 9.087620 1  18F15EF3x       Rx   d 8 00 00 00 00 00 00 00 00
 9.088282 1  CFF21CAx        Rx   d 8 02 00 80 0C 28 35 00 14
 9.088865 1  18F100D0x       Rx   d 8 0C FF FF FF FF FF FF FF
 9.099982 1  CFF21CAx        Rx   d 8 02 00 80 0C 28 35 00 14
 9.112180 1  CFF21CAx        Rx   d 8 02 00 80 0C 28 35 00 14
 9.112621 1  18F100D0x       Rx   d 8 0C FF FF FF FF FF FF FF
 9.120712 1  18FF2112x       Rx   d 8 01 00 00 00 00 00 00 00
 9.124233 1  CFF21CAx        Rx   d 8 02 00 80 0C 28 35 00 14
 9.136273 1  CFF21CAx        Rx   d 8 02 00 80 0C 28 35 00 14
 9.136843 1  18F100D0x       Rx   d 8 0C FF FF FF FF FF FF FF
 9.148190 1  CFF21CAx        Rx   d 8 02 00 80 0C 28 35 00 14
 9.156426 1  18F100D0x       Rx   d 8 0C FF FF FF FF FF FF FF
 9.160399 1  CFF21CAx        Rx   d 8 02 00 80 0C 28 35 00 14
 9.182700 1  CFF21CAx        Rx   d 8 02 00 80 0C 28 35 00 14
 9.182822 1  18F100F3x       Rx   d 8 03 41 7D 4A FA FA 14 00
 9.182924 1  18F102F3x       Rx   d 8 10 47 10 41 0D 0C 00 06
 9.183026 1  18F106F3x       Rx   d 8 45 E0 FC FF FF FF FF FF
 9.183126 1  18F107F3x       Rx   d 8 38 A4 27 10 01 77 00 00
 9.183223 1  18F108F3x       Rx   d 8 00 00 00 00 00 00 00 00
 9.183338 1  18F155F3x       Rx   d 8 38 38 39 39 39 3A 39 00
 9.183442 1  18F156F3x       Rx   d 8 00 00 00 00 00 00 00 00
 9.183555 1  18F100D0x       Rx   d 8 0C FF FF FF FF FF FF FF
 9.183653 1  18F157F3x       Rx   d 8 00 00 00 00 00 00 00 00
 9.183797 1  18F158F3x       Rx   d 8 00 00 00 00 00 00 00 00
 9.183938 1  18F159F3x       Rx   d 8 00 00 00 00 00 00 00 00
 9.184049 1  18F15AF3x       Rx   d 8 00 00 00 00 00 00 00 00
 9.184347 1  CFF21CAx        Rx   d 8 02 00 80 0C 28 35 00 14
 9.184849 1  18F15BF3x       Rx   d 7 00 00 00 00 00 00 00
 9.185866 1  18F15CF3x       Rx   d 8 00 00 00 00 00 00 00 00
 9.186722 1  18F15DF3x       Rx   d 8 00 00 00 00 00 00 00 00
 9.187632 1  18F15EF3x       Rx   d 8 00 00 00 00 00 00 00 00
 9.196373 1  CFF21CAx        Rx   d 8 02 00 80 0C 28 35 00 14
 9.204418 1  18F100D0x       Rx   d 8 0C FF FF FF FF FF FF FF
 9.208422 1  CFF21CAx        Rx   d 8 02 00 80 0C 28 35 00 14
 9.217904 1  18FF2112x       Rx   d 8 01 00 00 00 00 00 00 00
 9.220516 1  CFF21CAx        Rx   d 8 01 00 80 0C 28 35 00 14
 9.224536 1  18F100D0x       Rx   d 8 0C FF FF FF FF FF FF FF
 9.232524 1  CFF21CAx        Rx   d 8 01 00 80 0C 28 35 00 14
 9.244683 1  CFF21CAx        Rx   d 8 01 00 80 0C 28 35 00 14
 9.248618 1  18F100D0x       Rx   d 8 0C FF FF FF FF FF FF FF
 9.256710 1  CFF21CAx        Rx   d 8 02 00 80 0C 28 35 00 14
 9.268747 1  CFF21CAx        Rx   d 8 02 00 80 0C 28 35 00 14
 9.272747 1  18F100D0x       Rx   d 8 0C FF FF FF FF FF FF FF
 9.273277 1  18F100F3x       Rx   d 8 03 41 7D 1E FA FA 14 00
 9.274148 1  18F102F3x       Rx   d 8 10 47 10 41 0D 0C 00 06
 9.275690 1  18F106F3x       Rx   d 8 45 E0 FC FF FF FF FF FF
 9.277076 1  18F107F3x       Rx   d 8 38 A4 27 10 01 77 00 00
 9.278818 1  18F108F3x       Rx   d 8 00 00 00 00 00 00 00 00
 9.279661 1  18F155F3x       Rx   d 8 38 38 39 39 39 3A 39 00
 9.280629 1  18F156F3x       Rx   d 8 00 00 00 00 00 00 00 00
 9.281172 1  CFF21CAx        Rx   d 8 02 00 80 0C 28 35 00 14
 9.281729 1  18F157F3x       Rx   d 8 00 00 00 00 00 00 00 00
 9.282492 1  18FF50E5x       Rx   d 8 00 CE 00 00 14 00 00 00
 9.283181 1  18F158F3x       Rx   d 8 00 00 00 00 00 00 00 00
 9.283945 1  18F159F3x       Rx   d 8 00 00 00 00 00 00 00 00
 9.284811 1  18F15AF3x       Rx   d 8 00 00 00 00 00 00 00 00
 9.285941 1  18F15BF3x       Rx   d 7 00 00 00 00 00 00 00
 9.286821 1  18F15CF3x       Rx   d 8 00 00 00 00 00 00 00 00
 9.287616 1  18F15DF3x       Rx   d 8 00 00 00 00 00 00 00 00
 9.288653 1  18F15EF3x       Rx   d 8 00 00 00 00 00 00 00 00
 9.292908 1  CFF21CAx        Rx   d 8 02 00 80 0C 28 35 00 14
 9.293484 1  18F100D0x       Rx   d 8 0C FF FF FF FF FF FF FF
 9.304961 1  CFF21CAx        Rx   d 8 02 00 80 0C 28 35 00 14
 9.315169 1  18FF2112x       Rx   d 8 01 00 00 00 00 00 00 00
 9.316882 1  CFF21CAx        Rx   d 8 02 00 80 0C 28 35 00 14
 9.317513 1  18F100D0x       Rx   d 8 0C FF FF FF FF FF FF FF
 9.328994 1  CFF21CAx        Rx   d 8 02 00 80 0C 28 35 00 14
 9.341104 1  CFF21CAx        Rx   d 8 02 00 80 0C 28 35 00 14
 9.341566 1  18F100D0x       Rx   d 8 0C FF FF FF FF FF FF FF
 9.353190 1  CFF21CAx        Rx   d 8 02 00 80 0C 28 35 00 14
 9.366056 1  CFF21CAx        Rx   d 8 02 00 80 0C 28 35 00 14
 9.366543 1  18F100D0x       Rx   d 8 0C FF FF FF FF FF FF FF
 9.372932 1  18F100F3x       Rx   d 8 03 41 7D 1E FA FA 14 00
 9.373802 1  18F102F3x       Rx   d 8 10 47 10 41 0D 0C 00 06
 9.374933 1  18F106F3x       Rx   d 8 45 E0 FC FF FF FF FF FF
 9.376228 1  18F107F3x       Rx   d 8 38 A4 27 10 01 77 00 00
 9.377307 1  CFF21CAx        Rx   d 8 16 00 80 0C 28 35 00 14
 9.378019 1  18F108F3x       Rx   d 8 00 00 00 00 00 00 00 00
 9.378937 1  18F155F3x       Rx   d 8 38 38 39 39 39 3A 39 00
 9.379784 1  18F156F3x       Rx   d 8 00 00 00 00 00 00 00 00
 9.380678 1  18F157F3x       Rx   d 8 00 00 00 00 00 00 00 00
 9.381618 1  18F158F3x       Rx   d 8 00 00 00 00 00 00 00 00
 9.382640 1  18F159F3x       Rx   d 8 00 00 00 00 00 00 00 00
 9.383454 1  18F15AF3x       Rx   d 8 00 00 00 00 00 00 00 00
 9.384255 1  18F15BF3x       Rx   d 7 00 00 00 00 00 00 00
 9.385174 1  18F15CF3x       Rx   d 8 00 00 00 00 00 00 00 00
 9.385980 1  18F15DF3x       Rx   d 8 00 00 00 00 00 00 00 00
 9.386842 1  18F15EF3x       Rx   d 8 00 00 00 00 00 00 00 00
 9.400603 1  CFF21CAx        Rx   d 8 16 00 80 0C 28 35 00 14
 9.400723 1  18F100D0x       Rx   d 8 0C FF FF FF FF FF FF FF
 9.401325 1  CFF21CAx        Rx   d 8 16 00 80 0C 28 35 00 14
 9.409365 1  18F100D0x       Rx   d 8 0C FF FF FF FF FF FF FF
 9.412630 1  18FF2112x       Rx   d 8 01 00 00 00 00 00 00 00
 9.413379 1  CFF21CAx        Rx   d 8 28 00 80 0C 28 35 00 14
 9.425428 1  CFF21CAx        Rx   d 8 28 00 80 0C 28 35 00 14
 9.429672 1  18F100D0x       Rx   d 8 0C FF FF FF FF FF FF FF
 9.437475 1  CFF21CAx        Rx   d 8 28 00 80 0C 28 35 00 14
 9.449518 1  CFF21CAx        Rx   d 8 34 00 80 0C 28 35 00 14
 9.450085 1  18F100D0x       Rx   d 8 0C FF FF FF FF FF FF FF
 9.461672 1  CFF21CAx        Rx   d 8 34 00 80 0C 28 35 00 14
 9.472808 1  18F100F3x       Rx   d 8 03 41 7D 1E FA FA 14 00
 9.473658 1  18F102F3x       Rx   d 8 10 47 10 41 0D 0C 00 06
 9.474204 1  CFF21CAx        Rx   d 8 34 00 80 0C 28 35 00 14
 9.474949 1  18F106F3x       Rx   d 8 45 E0 FC FF FF FF FF FF
 9.476286 1  18F107F3x       Rx   d 8 38 A4 27 10 01 77 00 00
 9.478037 1  18F108F3x       Rx   d 8 00 00 00 00 00 00 00 00
 9.478619 1  18F100D0x       Rx   d 8 0C FF FF FF FF FF FF FF
 9.479162 1  18F155F3x       Rx   d 8 38 38 39 39 39 3A 39 00
 9.480124 1  18F156F3x       Rx   d 8 00 00 00 00 00 00 00 00
 9.480997 1  18F157F3x       Rx   d 8 00 00 00 00 00 00 00 00
 9.481875 1  18F158F3x       Rx   d 8 00 00 00 00 00 00 00 00
 9.482743 1  18F159F3x       Rx   d 8 00 00 00 00 00 00 00 00
 9.483663 1  18F15AF3x       Rx   d 8 00 00 00 00 00 00 00 00
 9.484524 1  18F15BF3x       Rx   d 7 00 00 00 00 00 00 00
 9.485720 1  18F15CF3x       Rx   d 8 00 00 00 00 00 00 00 00
 9.486352 1  CFF21CAx        Rx   d 8 27 00 80 0C 28 35 00 14
 9.486857 1  18F15DF3x       Rx   d 8 00 00 00 00 00 00 00 00
 9.487710 1  18F15EF3x       Rx   d 8 00 00 00 00 00 00 00 00
 9.498056 1  CFF21CAx        Rx   d 8 27 00 80 0C 28 35 00 14
 9.498634 1  18F100D0x       Rx   d 8 0C FF FF FF FF FF FF FF
 9.509856 1  18FF2112x       Rx   d 8 01 00 00 00 00 00 00 00
 9.510395 1  CFF21CAx        Rx   d 8 1E 00 80 0C 28 35 00 14
 9.522190 1  CFF21CAx        Rx   d 8 1E 00 80 0C 28 35 00 14
 9.530175 1  18F100D0x       Rx   d 8 0C FF FF FF FF FF FF FF
 9.534633 1  CFF21CAx        Rx   d 8 1E 00 80 0C 28 35 00 14
 9.546099 1  CFF21CAx        Rx   d 8 17 00 80 0C 28 35 00 14
 9.550231 1  18F100D0x       Rx   d 8 0C FF FF FF FF FF FF FF
 9.558685 1  CFF21CAx        Rx   d 8 17 00 80 0C 28 35 00 14
 9.570349 1  CFF21CAx        Rx   d 8 12 00 80 0C 28 35 00 14
 9.572919 1  18F100F3x       Rx   d 8 03 41 7D 2C FA FA 14 00
 9.573954 1  18F102F3x       Rx   d 8 10 47 10 41 0D 0C 00 06
 9.574798 1  18F100D0x       Rx   d 8 0C FF FF FF FF FF FF FF
 9.575219 1  18F106F3x       Rx   d 8 45 E0 FC FF FF FF FF FF
 9.576768 1  18F107F3x       Rx   d 8 38 A4 27 10 01 77 00 00
 9.578675 1  18F108F3x       Rx   d 8 00 00 00 00 00 00 00 00
 9.579510 1  18F104F3x       Rx   d 8 3A 38 06 01 02 FF FF FF
 9.580493 1  18F113F3x       Rx   d 8 10 44 10 44 10 46 10 44
 9.581454 1  18F114F3x       Rx   d 8 10 43 10 43 10 45 10 45
 9.582847 1  CFF21CAx        Rx   d 8 12 00 80 0C 28 35 00 14
 9.583003 1  18F115F3x       Rx   d 8 10 42 10 43 10 44 10 41
 9.583837 1  18F116F3x       Rx   d 8 10 47 10 43 10 46 10 47
 9.584739 1  18F117F3x       Rx   d 8 10 43 10 43 10 46 10 47
 9.586075 1  18F118F3x       Rx   d 8 00 00 00 00 00 00 00 00
 9.587027 1  18F119F3x       Rx   d 8 00 00 00 00 00 00 00 00
 9.587813 1  18F11AF3x       Rx   d 8 00 00 00 00 00 00 00 00
 9.588902 1  18F11BF3x       Rx   d 8 00 00 00 00 00 00 00 00
 9.589899 1  18F11CF3x       Rx   d 8 00 00 00 00 00 00 00 00
 9.590843 1  18F11DF3x       Rx   d 8 00 00 00 00 00 00 00 00
 9.591684 1  18F11EF3x       Rx   d 8 00 00 00 00 00 00 00 00
 9.592649 1  18F11FF3x       Rx   d 8 00 00 00 00 00 00 00 00
 9.593620 1  18F120F3x       Rx   d 8 00 00 00 00 00 00 00 00
 9.594432 1  CFF21CAx        Rx   d 8 12 00 80 0C 28 35 00 14
 9.595028 1  18F100D0x       Rx   d 8 0C FF FF FF FF FF FF FF
 9.595626 1  18F121F3x       Rx   d 8 00 00 00 00 00 00 00 00
 9.596041 1  18FECACAx       Rx   d 8 00 00 00 00 00 00 FF FF
 9.596707 1  18F122F3x       Rx   d 8 00 00 00 00 00 00 00 00
 9.597687 1  18F123F3x       Rx   d 8 00 00 00 00 00 00 00 00
 9.599243 1  18F124F3x       Rx   d 8 00 00 00 00 00 00 00 00
 9.599688 1  18F125F3x       Rx   d 8 00 00 00 00 00 00 00 00
 9.600645 1  18F126F3x       Rx   d 8 00 00 00 00 00 00 00 00
 9.601589 1  18F127F3x       Rx   d 8 00 00 00 00 00 00 00 00
 9.602597 1  18F128F3x       Rx   d 8 00 00 00 00 00 00 00 00
 9.603546 1  18F129F3x       Rx   d 8 00 00 00 00 00 00 00 00
 9.604291 1  18F12AF3x       Rx   d 8 00 00 00 00 00 00 00 00
 9.605339 1  18F12BF3x       Rx   d 8 00 00 00 00 00 00 00 00
 9.606242 1  18F12CF3x       Rx   d 8 00 00 00 00 00 00 00 00
 9.617913 1  CFF21CAx        Rx   d 8 0E 00 80 0C 28 35 00 14
 9.618020 1  18F12DF3x       Rx   d 8 00 00 00 00 00 00 00 00
 9.618118 1  18FF2112x       Rx   d 8 01 00 00 00 00 00 00 00
 9.618233 1  18F12EF3x       Rx   d 8 00 00 00 00 00 00 00 00
 9.618334 1  18F12FF3x       Rx   d 8 00 00 00 00 00 00 00 00
 9.618430 1  18F130F3x       Rx   d 8 00 00 00 00 00 00 00 00
 9.618527 1  18F131F3x       Rx   d 8 00 00 00 00 00 00 00 00
 9.618625 1  18F132F3x       Rx   d 8 00 00 00 00 00 00 00 00
 9.618738 1  18F133F3x       Rx   d 8 00 00 00 00 00 00 00 00
 9.618873 1  18F134F3x       Rx   d 8 00 00 00 00 00 00 00 00
 9.618981 1  18F135F3x       Rx   d 8 00 00 00 00 00 00 00 00
 9.619079 1  18F136F3x       Rx   d 8 00 00 00 00 00 00 00 00
 9.619180 1  18F137F3x       Rx   d 8 00 00 00 00 00 00 00 00
 9.619277 1  18F138F3x       Rx   d 8 00 00 00 00 00 00 00 00
 9.619375 1  CFF21CAx        Rx   d 8 0E 00 80 0C 28 35 00 14
 9.619476 1  18F100D0x       Rx   d 8 0C FF FF FF FF FF FF FF
 9.620045 1  18F139F3x       Rx   d 8 00 00 00 00 00 00 00 00
 9.620889 1  18F13AF3x       Rx   d 8 00 00 00 00 00 00 00 00
 9.621781 1  18F13BF3x       Rx   d 8 00 00 00 00 00 00 00 00
 9.622686 1  18F13CF3x       Rx   d 8 00 00 00 00 00 00 00 00
 9.623632 1  18F155F3x       Rx   d 8 38 38 39 39 39 3A 39 00
 9.624529 1  18F156F3x       Rx   d 8 00 00 00 00 00 00 00 00
 9.625706 1  18F157F3x       Rx   d 8 00 00 00 00 00 00 00 00
 9.626644 1  18F158F3x       Rx   d 8 00 00 00 00 00 00 00 00
 9.627634 1  18F159F3x       Rx   d 8 00 00 00 00 00 00 00 00
 9.628487 1  18F15AF3x       Rx   d 8 00 00 00 00 00 00 00 00
 9.629270 1  18F15BF3x       Rx   d 7 00 00 00 00 00 00 00
 9.630172 1  18F15CF3x       Rx   d 8 00 00 00 00 00 00 00 00
 9.630904 1  CFF21CAx        Rx   d 8 0E 00 80 0C 28 35 00 14
 9.631483 1  18F15DF3x       Rx   d 8 00 00 00 00 00 00 00 00
 9.632327 1  18F15EF3x       Rx   d 8 00 00 00 00 00 00 00 00
 9.638545 1  18F100D0x       Rx   d 8 0C FF FF FF FF FF FF FF
 9.642514 1  CFF21CAx        Rx   d 8 0B 00 80 0C 28 35 00 14
 9.654636 1  CFF21CAx        Rx   d 8 0B 00 80 0C 28 35 00 14
 9.663031 1  18F100D0x       Rx   d 8 0C FF FF FF FF FF FF FF
 9.666654 1  CFF21CAx        Rx   d 8 0B 00 80 0C 28 35 00 14
 9.672844 1  18F100F3x       Rx   d 8 03 41 7D 2C FA FA 14 00
 9.673713 1  18F102F3x       Rx   d 8 10 47 10 41 0D 0C 00 06
 9.674977 1  18F106F3x       Rx   d 8 45 E0 FC FF FF FF FF FF
 9.676288 1  18F107F3x       Rx   d 8 38 A4 27 10 01 77 00 00
 9.678086 1  18F108F3x       Rx   d 8 00 00 00 00 00 00 00 00
 9.678942 1  18F155F3x       Rx   d 8 38 38 39 39 39 3A 39 00
 9.679476 1  CFF21CAx        Rx   d 8 09 00 80 0C 28 35 00 14
 9.680061 1  18F156F3x       Rx   d 8 00 00 00 00 00 00 00 00
 9.680953 1  18F157F3x       Rx   d 8 00 00 00 00 00 00 00 00
 9.681835 1  18F158F3x       Rx   d 8 00 00 00 00 00 00 00 00
 9.682680 1  18F100D0x       Rx   d 8 0C FF FF FF FF FF FF FF
 9.683241 1  18F159F3x       Rx   d 8 00 00 00 00 00 00 00 00
 9.684155 1  18F15AF3x       Rx   d 8 00 00 00 00 00 00 00 00
 9.684953 1  18F15BF3x       Rx   d 7 00 00 00 00 00 00 00
 9.685899 1  18F15CF3x       Rx   d 8 00 00 00 00 00 00 00 00
 9.686765 1  18F15DF3x       Rx   d 8 00 00 00 00 00 00 00 00
 9.687724 1  18F15EF3x       Rx   d 8 00 00 00 00 00 00 00 00
 9.690667 1  CFF21CAx        Rx   d 8 09 00 80 0C 28 35 00 14
 9.702780 1  CFF21CAx        Rx   d 8 08 00 80 0C 28 35 00 14
 9.703371 1  18F100D0x       Rx   d 8 0C FF FF FF FF FF FF FF
 9.704258 1  18FF2112x       Rx   d 8 01 00 00 00 00 00 00 00
 9.714799 1  CFF21CAx        Rx   d 8 08 00 80 0C 28 35 00 14
 9.722983 1  18F100D0x       Rx   d 8 0C FF FF FF FF FF FF FF
 9.727408 1  CFF21CAx        Rx   d 8 08 00 80 0C 28 35 00 14
 9.739050 1  CFF21CAx        Rx   d 8 07 00 80 0C 28 35 00 14
 9.746925 1  18F100D0x       Rx   d 8 0C FF FF FF FF FF FF FF
 9.751638 1  CFF21CAx        Rx   d 8 07 00 80 0C 28 35 00 14
 9.762986 1  CFF21CAx        Rx   d 8 07 00 80 0C 28 35 00 14
 9.767028 1  18F100D0x       Rx   d 8 0C FF FF FF FF FF FF FF
 9.772927 1  18F100F3x       Rx   d 8 03 41 7D 21 FA FA 14 00
 9.773811 1  18F102F3x       Rx   d 8 10 47 10 41 10 06 00 06
 9.774958 1  18F106F3x       Rx   d 8 45 E0 FC FF FF FF FF FF
 9.775550 1  CFF21CAx        Rx   d 8 06 00 80 0C 28 35 00 14
 9.776397 1  18F107F3x       Rx   d 8 38 A4 27 10 01 77 00 00
 9.778189 1  18F108F3x       Rx   d 8 10 00 00 00 00 00 00 01
 9.779002 1  18F155F3x       Rx   d 8 38 38 39 39 39 3A 39 00
 9.779798 1  18F156F3x       Rx   d 8 00 00 00 00 00 00 00 00
 9.780693 1  18F157F3x       Rx   d 8 00 00 00 00 00 00 00 00
 9.781622 1  18F158F3x       Rx   d 8 00 00 00 00 00 00 00 00
 9.782699 1  18F159F3x       Rx   d 8 00 00 00 00 00 00 00 00
 9.783464 1  18F15AF3x       Rx   d 8 00 00 00 00 00 00 00 00
 9.784259 1  18F15BF3x       Rx   d 7 00 00 00 00 00 00 00
 9.785267 1  18F15CF3x       Rx   d 8 00 00 00 00 00 00 00 00
 9.786126 1  18F15DF3x       Rx   d 8 00 00 00 00 00 00 00 00
 9.786980 1  18F15EF3x       Rx   d 8 00 00 00 00 00 00 00 00
 9.787423 1  CFF21CAx        Rx   d 8 06 00 80 0C 28 35 00 14
 9.788581 1  18F100D0x       Rx   d 8 0C FF FF FF FF FF FF FF
 9.799312 1  CFF21CAx        Rx   d 8 05 00 80 0C 28 35 00 14
 9.801829 1  18FF2112x       Rx   d 8 01 00 00 00 00 00 00 00
 9.807350 1  18F100D0x       Rx   d 8 0C FF FF FF FF FF FF FF
 9.811311 1  CFF21CAx        Rx   d 8 05 00 80 0C 28 35 00 14
 9.823852 1  CFF21CAx        Rx   d 8 05 00 80 0C 28 35 00 14
 9.836428 1  18F100D0x       Rx   d 8 0C FF FF FF FF FF FF FF
 9.836566 1  CFF21CAx        Rx   d 8 05 00 80 0C 28 35 00 14
 9.847433 1  CFF21CAx        Rx   d 8 05 00 80 0C 28 35 00 14
 9.855838 1  18F100D0x       Rx   d 8 0C FF FF FF FF FF FF FF
 9.859485 1  CFF21CAx        Rx   d 8 05 00 80 0C 28 35 00 14
 9.871507 1  CFF21CAx        Rx   d 8 04 00 80 0C 28 35 00 14
 9.872807 1  18F100F3x       Rx   d 8 03 41 7D 21 FA FA 14 00
 9.873676 1  18F102F3x       Rx   d 8 10 47 10 41 10 06 00 06
 9.874946 1  18F106F3x       Rx   d 8 45 E0 FC FF FF FF FF FF
 9.876288 1  18F107F3x       Rx   d 8 38 A4 27 10 01 77 00 00
 9.878083 1  18F108F3x       Rx   d 8 10 00 00 00 00 00 00 01
 9.878916 1  18F155F3x       Rx   d 8 38 38 39 39 39 3A 39 00
 9.879496 1  18F100D0x       Rx   d 8 0C FF FF FF FF FF FF FF
 9.880095 1  18F156F3x       Rx   d 8 00 00 00 00 00 00 00 00
 9.880979 1  18F157F3x       Rx   d 8 00 00 00 00 00 00 00 00
 9.881850 1  18F158F3x       Rx   d 8 00 00 00 00 00 00 00 00
 9.882727 1  18F159F3x       Rx   d 8 00 00 00 00 00 00 00 00
 9.883486 1  CFF21CAx        Rx   d 8 04 00 80 0C 28 35 00 14
 9.884048 1  18F15AF3x       Rx   d 8 00 00 00 00 00 00 00 00
 9.884871 1  18F15BF3x       Rx   d 7 00 00 00 00 00 00 00
 9.885890 1  18F15CF3x       Rx   d 8 00 00 00 00 00 00 00 00
 9.886765 1  18F15DF3x       Rx   d 8 00 00 00 00 00 00 00 00
 9.887636 1  18F15EF3x       Rx   d 8 00 00 00 00 00 00 00 00
 9.895563 1  CFF21CAx        Rx   d 8 04 00 80 0C 3A 35 00 14
 9.899133 1  18FF2112x       Rx   d 8 01 00 00 00 00 00 00 00
 9.899660 1  18F100D0x       Rx   d 8 0C FF FF FF FF FF FF FF
 9.907647 1  CFF21CAx        Rx   d 8 04 00 80 0C 3A 35 00 14
 9.920257 1  CFF21CAx        Rx   d 8 04 00 80 0C 3A 35 00 14
 9.920697 1  18F100D0x       Rx   d 8 0C FF FF FF FF FF FF FF
 9.931822 1  CFF21CAx        Rx   d 8 04 00 80 0C 3A 35 00 14
 9.939847 1  18F100D0x       Rx   d 8 0C FF FF FF FF FF FF FF
 9.943726 1  CFF21CAx        Rx   d 8 04 00 80 0C 3A 35 00 14
 9.955930 1  CFF21CAx        Rx   d 8 04 00 80 0C 3A 35 00 14
 9.959934 1  18F100D0x       Rx   d 8 0C FF FF FF FF FF FF FF
 9.967946 1  CFF21CAx        Rx   d 8 04 00 80 0C 3A 35 00 14
 9.972941 1  18F100F3x       Rx   d 8 03 41 7D 21 FA FA 14 00
 9.973832 1  18F102F3x       Rx   d 8 10 47 10 41 10 06 00 06
 9.974963 1  18F106F3x       Rx   d 8 45 E0 FC FF FF FF FF FF
 9.976410 1  18F107F3x       Rx   d 8 38 A4 27 10 01 77 00 00
 9.978188 1  18F108F3x       Rx   d 8 10 00 00 00 00 00 00 01
 9.979000 1  18F155F3x       Rx   d 8 38 38 39 39 39 3A 39 00
 9.979806 1  18F156F3x       Rx   d 8 00 00 00 00 00 00 00 00
 9.980377 1  CFF21CAx        Rx   d 8 04 00 80 0C 3A 35 00 14
 9.980954 1  18F100D0x       Rx   d 8 0C FF FF FF FF FF FF FF
 9.981521 1  18F157F3x       Rx   d 8 00 00 00 00 00 00 00 00
 9.982590 1  18F158F3x       Rx   d 8 00 00 00 00 00 00 00 00
 9.983340 1  18F159F3x       Rx   d 8 00 00 00 00 00 00 00 00
 9.984216 1  18F15AF3x       Rx   d 8 00 00 00 00 00 00 00 00
 9.985158 1  18F15BF3x       Rx   d 7 00 00 00 00 00 00 00
 9.986035 1  18F15CF3x       Rx   d 8 00 00 00 00 00 00 00 00
 9.986878 1  18F15DF3x       Rx   d 8 00 00 00 00 00 00 00 00
 9.987637 1  18F15EF3x       Rx   d 8 00 00 00 00 00 00 00 00
 9.991895 1  CFF21CAx        Rx   d 8 04 00 80 0C 3A 35 00 14
 9.996078 1  18FF2112x       Rx   d 8 01 00 00 00 00 00 00 00
 10.004020 1  CFF21CAx        Rx   d 8 04 00 80 0C 3A 35 00 14
 10.004519 1  18F100D0x       Rx   d 8 0C FF FF FF FF FF FF FF
 10.016030 1  CFF21CAx        Rx   d 8 04 00 80 0C 3A 35 00 14
 10.024204 1  18F100D0x       Rx   d 8 0C FF FF FF FF FF FF FF
 10.028195 1  CFF21CAx        Rx   d 8 04 00 80 0C 3A 35 00 14
 10.040383 1  CFF21CAx        Rx   d 8 04 00 80 0C 3A 35 00 14
 10.055088 1  18F100D0x       Rx   d 8 0C FF FF FF FF FF FF FF
 10.055201 1  CFF21CAx        Rx   d 8 04 00 80 0C 3A 35 00 14
 10.064221 1  CFF21CAx        Rx   d 8 04 00 80 0C 3A 35 00 14
 10.064794 1  18F100D0x       Rx   d 8 0C FF FF FF FF FF FF FF
 10.072835 1  18F100F3x       Rx   d 8 03 41 7D 20 FA FA 14 00
 10.073701 1  18F102F3x       Rx   d 8 10 47 10 41 10 06 00 06
 10.074987 1  18F106F3x       Rx   d 8 45 E0 FC FF FF FF FF FF
 10.076320 1  CFF21CAx        Rx   d 8 04 00 80 0C 3A 35 00 14
 10.076868 1  18F107F3x       Rx   d 8 38 A4 27 10 01 77 00 00
 10.078654 1  18F108F3x       Rx   d 8 10 00 04 00 00 00 00 01
 10.079524 1  18F155F3x       Rx   d 8 38 38 39 39 39 3A 39 00
 10.080469 1  18F156F3x       Rx   d 8 00 00 00 00 00 00 00 00
 10.081463 1  18F157F3x       Rx   d 8 00 00 00 00 00 00 00 00
 10.082351 1  18F158F3x       Rx   d 8 00 00 00 00 00 00 00 00
 10.083250 1  18F159F3x       Rx   d 8 00 00 00 00 00 00 00 00
 10.084102 1  18F15AF3x       Rx   d 8 00 00 00 00 00 00 00 00
 10.084713 1  18F100D0x       Rx   d 8 0C FF FF FF FF FF FF FF
 10.085239 1  18F15BF3x       Rx   d 7 00 00 00 00 00 00 00
 10.086091 1  18F15CF3x       Rx   d 8 00 00 00 00 00 00 00 00
 10.086963 1  18F15DF3x       Rx   d 8 00 00 00 00 00 00 00 00
 10.087782 1  18F15EF3x       Rx   d 8 00 00 00 00 00 00 00 00
 10.088340 1  CFF21CAx        Rx   d 8 03 00 80 0C 3A 35 00 14
 10.093385 1  18FF2112x       Rx   d 8 01 00 00 00 00 00 00 00
 10.100355 1  CFF21CAx        Rx   d 8 03 00 80 0C 3A 35 00 14
 10.112415 1  CFF21CAx        Rx   d 8 03 00 80 0C 3A 35 00 14
 10.112956 1  18F100D0x       Rx   d 8 0C FF FF FF FF FF FF FF
 10.124545 1  CFF21CAx        Rx   d 8 03 00 80 0C 3A 35 00 14
 10.132519 1  18F100D0x       Rx   d 8 0C FF FF FF FF FF FF FF
 10.136577 1  CFF21CAx        Rx   d 8 03 00 80 0C 3A 35 00 14
 10.148592 1  CFF21CAx        Rx   d 8 03 00 80 0C 3A 35 00 14
 10.156803 1  18F100D0x       Rx   d 8 0C FF FF FF FF FF FF FF
 10.160781 1  CFF21CAx        Rx   d 8 03 00 80 0C 3A 35 00 14
 10.172794 1  CFF21CAx        Rx   d 8 03 00 80 0C 3A 35 00 14
 10.173977 1  18F100F3x       Rx   d 8 03 41 7D 20 FA FA 14 00
 10.174812 1  18F102F3x       Rx   d 8 10 49 10 41 10 0C 00 08
 10.176391 1  18F106F3x       Rx   d 8 45 E0 FC FF FF FF FF FF
 10.177756 1  18F107F3x       Rx   d 8 38 A4 27 10 01 77 00 00
 10.179320 1  18F108F3x       Rx   d 8 10 00 04 00 00 00 00 01
 10.180183 1  18F155F3x       Rx   d 8 38 38 39 39 39 3A 39 00
 10.181076 1  18F156F3x       Rx   d 8 00 00 00 00 00 00 00 00
 10.181952 1  18F157F3x       Rx   d 8 00 00 00 00 00 00 00 00
 10.182858 1  18F158F3x       Rx   d 8 00 00 00 00 00 00 00 00
 10.183714 1  18F159F3x       Rx   d 8 00 00 00 00 00 00 00 00
 10.184634 1  18F15AF3x       Rx   d 8 00 00 00 00 00 00 00 00
 10.185325 1  CFF21CAx        Rx   d 8 03 00 80 0C 3A 35 00 14
 10.185904 1  18F100D0x       Rx   d 8 0C FF FF FF FF FF FF FF
 10.186449 1  18F15BF3x       Rx   d 7 00 00 00 00 00 00 00
 10.187296 1  18F15CF3x       Rx   d 8 00 00 00 00 00 00 00 00
 10.188016 1  18F15DF3x       Rx   d 8 00 00 00 00 00 00 00 00
 10.189003 1  18F15EF3x       Rx   d 8 00 00 00 00 00 00 00 00
 10.190776 1  18FF2112x       Rx   d 8 01 00 00 00 00 00 00 00
 10.196726 1  CFF21CAx        Rx   d 8 03 00 80 0C 3A 35 00 14
 10.204918 1  18F100D0x       Rx   d 8 0C FF FF FF FF FF FF FF
 10.208754 1  CFF21CAx        Rx   d 8 03 00 80 0C 3A 35 00 14
 10.220863 1  CFF21CAx        Rx   d 8 03 00 80 0C 3A 35 00 14
 10.228946 1  18F100D0x       Rx   d 8 0C FF FF FF FF FF FF FF
 10.232970 1  CFF21CAx        Rx   d 8 03 00 80 0C 3A 35 00 14
 10.245079 1  CFF21CAx        Rx   d 8 03 00 80 0C 3A 35 00 14
 10.257173 1  CFF21CAx        Rx   d 8 03 00 80 0C 3A 35 00 14
 10.257764 1  18F100D0x       Rx   d 8 0C FF FF FF FF FF FF FF
 10.272078 1  CFF21CAx        Rx   d 8 03 00 80 0C 3A 35 00 14
 10.273831 1  18F100F3x       Rx   d 8 03 41 7D 20 FA FA 14 00
 10.274708 1  18F102F3x       Rx   d 8 10 49 10 41 10 0C 00 08
 10.276257 1  18F106F3x       Rx   d 8 45 E0 FC FF FF FF FF FF
 10.277137 1  18F100D0x       Rx   d 8 0C FF FF FF FF FF FF FF
 10.277683 1  18F107F3x       Rx   d 8 38 A4 27 10 01 77 00 00
 10.279495 1  18F108F3x       Rx   d 8 10 00 04 00 00 00 00 01
 10.280402 1  18F155F3x       Rx   d 8 38 38 39 39 39 3A 39 00
 10.281093 1  CFF21CAx        Rx   d 8 03 00 80 0C 3A 35 00 14
 10.281667 1  18F156F3x       Rx   d 8 00 00 00 00 00 00 00 00
 10.282620 1  18F157F3x       Rx   d 8 00 00 00 00 00 00 00 00
 10.283200 1  18FF50E5x       Rx   d 8 01 55 00 00 14 00 00 00
 10.283756 1  18F158F3x       Rx   d 8 00 00 00 00 00 00 00 00
 10.284695 1  18F159F3x       Rx   d 8 00 00 00 00 00 00 00 00
 10.285913 1  18F15AF3x       Rx   d 8 00 00 00 00 00 00 00 00
 10.286737 1  18F15BF3x       Rx   d 7 00 00 00 00 00 00 00
 10.287626 1  18F15CF3x       Rx   d 8 00 00 00 00 00 00 00 00
 10.288235 1  18FF2112x       Rx   d 8 01 00 00 00 00 00 00 00
 10.288791 1  18F15DF3x       Rx   d 8 00 00 00 00 00 00 00 00
 10.289700 1  18F15EF3x       Rx   d 8 00 00 00 00 00 00 00 00
 10.293169 1  CFF21CAx        Rx   d 8 03 00 80 0C 3A 35 00 14
 10.297181 1  18F100D0x       Rx   d 8 0C FF FF FF FF FF FF FF
 10.305159 1  CFF21CAx        Rx   d 8 03 00 80 0C 3A 35 00 14
 10.317266 1  CFF21CAx        Rx   d 8 03 00 80 0C 3A 35 00 14
 10.321235 1  18F100D0x       Rx   d 8 0C FF FF FF FF FF FF FF
 10.329337 1  CFF21CAx        Rx   d 8 03 00 80 0C 3A 35 00 14
 10.341412 1  CFF21CAx        Rx   d 8 03 00 80 0C 3A 35 00 14
 10.349534 1  18F100D0x       Rx   d 8 0C FF FF FF FF FF FF FF
 10.353437 1  CFF21CAx        Rx   d 8 03 00 80 0C 3A 35 00 14
 10.365585 1  CFF21CAx        Rx   d 8 03 00 80 0C 3A 35 00 14
 10.373817 1  18F100F3x       Rx   d 8 03 41 7D 20 FA FA 14 00
 10.374692 1  18F102F3x       Rx   d 8 10 49 10 41 10 0C 00 08
 10.376255 1  18F106F3x       Rx   d 8 45 E0 FC FF FF FF FF FF
 10.377539 1  CFF21CAx        Rx   d 8 03 00 80 0C 3A 35 00 14
 10.378062 1  18F100D0x       Rx   d 8 0C FF FF FF FF FF FF FF
 10.378631 1  18F107F3x       Rx   d 8 38 A4 27 10 01 77 00 00
 10.380449 1  18F108F3x       Rx   d 8 10 00 04 00 00 00 00 01
 10.381357 1  18F155F3x       Rx   d 8 38 38 39 39 39 3A 39 00
 10.382228 1  18F156F3x       Rx   d 8 00 00 00 00 00 00 00 00
 10.383152 1  18F157F3x       Rx   d 8 00 00 00 00 00 00 00 00
 10.384015 1  18F158F3x       Rx   d 8 00 00 00 00 00 00 00 00
 10.384871 1  18F159F3x       Rx   d 8 00 00 00 00 00 00 00 00
 10.385443 1  18FF2112x       Rx   d 8 01 00 00 00 00 00 00 00
 10.386024 1  18F15AF3x       Rx   d 8 00 00 00 00 00 00 00 00
 10.386861 1  18F15BF3x       Rx   d 7 00 00 00 00 00 00 00
 10.387680 1  18F15CF3x       Rx   d 8 00 00 00 00 00 00 00 00
 10.388632 1  18F15DF3x       Rx   d 8 00 00 00 00 00 00 00 00
 10.389493 1  18F15EF3x       Rx   d 8 00 00 00 00 00 00 00 00
 10.390093 1  CFF21CAx        Rx   d 8 03 00 80 0C 3A 35 00 14
 10.397789 1  18F100D0x       Rx   d 8 0C FF FF FF FF FF FF FF
 10.401765 1  CFF21CAx        Rx   d 8 03 00 80 0C 3A 35 00 14
 10.413623 1  CFF21CAx        Rx   d 8 03 00 80 0C 3A 35 00 14
 10.421869 1  18F100D0x       Rx   d 8 0C FF FF FF FF FF FF FF
 10.425809 1  CFF21CAx        Rx   d 8 03 00 80 0C 3A 35 00 14
 10.437749 1  CFF21CAx        Rx   d 8 03 00 80 0C 3A 35 00 14
 10.450097 1  CFF21CAx        Rx   d 8 03 00 80 0C 3A 35 00 14
 10.450373 1  18F100D0x       Rx   d 8 0C FF FF FF FF FF FF FF
 10.461987 1  CFF21CAx        Rx   d 8 03 00 80 0C 3A 35 00 14
 10.473975 1  18F100F3x       Rx   d 8 03 41 7D 20 FA FA 14 00
 10.474524 1  CFF21CAx        Rx   d 8 03 00 80 0C 3A 35 00 14
 10.474974 1  18F100D0x       Rx   d 8 0C FF FF FF FF FF FF FF
 10.475539 1  18F102F3x       Rx   d 8 10 49 10 41 10 0C 00 08
 10.476955 1  18F106F3x       Rx   d 8 45 E0 FC FF FF FF FF FF
 10.490876 1  18F107F3x       Rx   d 8 38 A4 27 10 01 77 00 00
 10.490999 1  18F108F3x       Rx   d 8 10 00 04 00 00 00 00 01
 10.491095 1  18F155F3x       Rx   d 8 38 38 39 39 39 3A 39 00
 10.491196 1  18F156F3x       Rx   d 8 00 00 00 00 00 00 00 00
 10.491294 1  18FF2112x       Rx   d 8 01 00 00 00 00 00 00 00
 10.491390 1  18F157F3x       Rx   d 8 00 00 00 00 00 00 00 00
 10.491487 1  18F158F3x       Rx   d 8 00 00 00 00 00 00 00 00
 10.491586 1  18F159F3x       Rx   d 8 00 00 00 00 00 00 00 00
 10.491706 1  18F15AF3x       Rx   d 8 00 00 00 00 00 00 00 00
 10.491811 1  CFF21CAx        Rx   d 8 03 00 80 0C 3A 35 00 14
 10.491903 1  18F15BF3x       Rx   d 7 00 00 00 00 00 00 00
 10.492003 1  18F15CF3x       Rx   d 8 00 00 00 00 00 00 00 00
 10.492099 1  18F15DF3x       Rx   d 8 00 00 00 00 00 00 00 00
 10.492195 1  18F15EF3x       Rx   d 8 00 00 00 00 00 00 00 00
 10.494416 1  18F100D0x       Rx   d 8 0C FF FF FF FF FF FF FF
 10.497955 1  CFF21CAx        Rx   d 8 03 00 80 0C 3A 35 00 14
 10.510464 1  CFF21CAx        Rx   d 8 03 00 80 0C 3A 35 00 14
 10.514035 1  18F100D0x       Rx   d 8 0C FF FF FF FF FF FF FF
 10.522079 1  CFF21CAx        Rx   d 8 03 00 80 0C 3A 35 00 14
 10.534125 1  CFF21CAx        Rx   d 8 03 00 80 0C 3A 35 00 14
 10.534727 1  18F100D0x       Rx   d 8 0C FF FF FF FF FF FF FF
 10.546168 1  CFF21CAx        Rx   d 8 02 00 80 0C 3A 35 00 14
 10.554262 1  18F100D0x       Rx   d 8 0C FF FF FF FF FF FF FF
 10.558672 1  CFF21CAx        Rx   d 8 02 00 80 0C 3A 35 00 14
 10.570355 1  CFF21CAx        Rx   d 8 02 00 80 0C 3A 35 00 14
 10.573446 1  18F104F3x       Rx   d 8 3A 38 06 01 02 FF FF FF
 10.574413 1  18F100F3x       Rx   d 8 03 41 7D 1F FA FA 14 00
 10.575276 1  18F102F3x       Rx   d 8 10 49 10 41 10 0C 00 08
 10.576774 1  18F106F3x       Rx   d 8 45 E0 FC FF FF FF FF FF
 10.578108 1  18F107F3x       Rx   d 8 38 A4 27 10 01 77 00 00
 10.578765 1  18F100D0x       Rx   d 8 0C FF FF FF FF FF FF FF
 10.580052 1  18F108F3x       Rx   d 8 10 00 04 00 00 00 00 01
 10.580979 1  18F113F3x       Rx   d 8 10 44 10 45 10 45 10 46
 10.581874 1  18F114F3x       Rx   d 8 10 43 10 43 10 45 10 46
 10.582881 1  18F115F3x       Rx   d 8 10 42 10 43 10 43 10 41
 10.583666 1  CFF21CAx        Rx   d 8 02 00 80 0C 3A 35 00 14
 10.584011 1  18F116F3x       Rx   d 8 10 46 10 44 10 46 10 49
 10.584902 1  18F117F3x       Rx   d 8 10 43 10 44 10 48 10 48
 10.586107 1  18F118F3x       Rx   d 8 00 00 00 00 00 00 00 00
 10.587152 1  18F119F3x       Rx   d 8 00 00 00 00 00 00 00 00
 10.587966 1  18F11AF3x       Rx   d 8 00 00 00 00 00 00 00 00
 10.589021 1  18F11BF3x       Rx   d 8 00 00 00 00 00 00 00 00
 10.589996 1  18F11CF3x       Rx   d 8 00 00 00 00 00 00 00 00
 10.590928 1  18F11DF3x       Rx   d 8 00 00 00 00 00 00 00 00
 10.591862 1  18F11EF3x       Rx   d 8 00 00 00 00 00 00 00 00
 10.592903 1  18F11FF3x       Rx   d 8 00 00 00 00 00 00 00 00
 10.593874 1  18F120F3x       Rx   d 8 00 00 00 00 00 00 00 00
 10.594458 1  CFF21CAx        Rx   d 8 02 00 80 0C 3A 35 00 14
 10.595057 1  18F121F3x       Rx   d 8 00 00 00 00 00 00 00 00
 10.595975 1  18F122F3x       Rx   d 8 00 00 00 00 00 00 00 00
 10.596964 1  18F123F3x       Rx   d 8 00 00 00 00 00 00 00 00
 10.597921 1  18F124F3x       Rx   d 8 00 00 00 00 00 00 00 00
 10.598528 1  18F100D0x       Rx   d 8 0C FF FF FF FF FF FF FF
 10.599118 1  18F125F3x       Rx   d 8 00 00 00 00 00 00 00 00
 10.599921 1  18F126F3x       Rx   d 8 00 00 00 00 00 00 00 00
 10.600816 1  18F127F3x       Rx   d 8 00 00 00 00 00 00 00 00
 10.601774 1  18F128F3x       Rx   d 8 00 00 00 00 00 00 00 00
 10.602836 1  18F129F3x       Rx   d 8 00 00 00 00 00 00 00 00
 10.603782 1  18F12AF3x       Rx   d 8 00 00 00 00 00 00 00 00
 10.604626 1  18F12BF3x       Rx   d 8 00 00 00 00 00 00 00 00
 10.606032 1  18F12CF3x       Rx   d 8 00 00 00 00 00 00 00 00
 10.606489 1  CFF21CAx        Rx   d 8 03 00 80 0C 3A 35 00 14
 10.607206 1  18F12DF3x       Rx   d 8 00 00 00 00 00 00 00 00
 10.607956 1  18F12EF3x       Rx   d 8 00 00 00 00 00 00 00 00
 10.608854 1  18F12FF3x       Rx   d 8 00 00 00 00 00 00 00 00
 10.609896 1  18F130F3x       Rx   d 8 00 00 00 00 00 00 00 00
 10.610546 1  18FECACAx       Rx   d 8 00 00 00 00 00 00 FF FF
 10.611119 1  18F131F3x       Rx   d 8 00 00 00 00 00 00 00 00
 10.612017 1  18F132F3x       Rx   d 8 00 00 00 00 00 00 00 00
 10.612786 1  18F133F3x       Rx   d 8 00 00 00 00 00 00 00 00
 10.613713 1  18F134F3x       Rx   d 8 00 00 00 00 00 00 00 00
 10.614649 1  18F135F3x       Rx   d 8 00 00 00 00 00 00 00 00
 10.615861 1  18F136F3x       Rx   d 8 00 00 00 00 00 00 00 00
 10.616831 1  18F137F3x       Rx   d 8 00 00 00 00 00 00 00 00
 10.617712 1  18F138F3x       Rx   d 8 00 00 00 00 00 00 00 00
 10.618468 1  CFF21CAx        Rx   d 8 03 00 80 0C 3A 35 00 14
 10.619160 1  18F100D0x       Rx   d 8 0C FF FF FF FF FF FF FF
 10.619756 1  18F139F3x       Rx   d 8 00 00 00 00 00 00 00 00
 10.620631 1  18F13AF3x       Rx   d 8 00 00 00 00 00 00 00 00
 10.621454 1  18F13BF3x       Rx   d 8 00 00 00 00 00 00 00 00
 10.622370 1  18F13CF3x       Rx   d 8 00 00 00 00 00 00 00 00
 10.623234 1  18F155F3x       Rx   d 8 38 38 39 39 39 3A 39 00
 10.624125 1  18F156F3x       Rx   d 8 00 00 00 00 00 00 00 00
 10.624907 1  18F157F3x       Rx   d 8 00 00 00 00 00 00 00 00
 10.626078 1  18F158F3x       Rx   d 8 00 00 00 00 00 00 00 00
 10.626829 1  18F159F3x       Rx   d 8 00 00 00 00 00 00 00 00
 10.627855 1  18F15AF3x       Rx   d 8 00 00 00 00 00 00 00 00
 10.628727 1  18F15BF3x       Rx   d 7 00 00 00 00 00 00 00
 10.629508 1  18F15CF3x       Rx   d 8 00 00 00 00 00 00 00 00
 10.630460 1  18F15DF3x       Rx   d 8 00 00 00 00 00 00 00 00
 10.631034 1  CFF21CAx        Rx   d 8 02 00 80 0C 3A 35 00 14
 10.631623 1  18F15EF3x       Rx   d 8 00 00 00 00 00 00 00 00
 10.642661 1  CFF21CAx        Rx   d 8 02 00 80 0C 3A 35 00 14
 10.643136 1  18F100D0x       Rx   d 8 0C FF FF FF FF FF FF FF
 10.655250 1  CFF21CAx        Rx   d 8 02 00 80 0C 3A 35 00 14
 10.662693 1  18F100D0x       Rx   d 8 0C FF FF FF FF FF FF FF
 10.666669 1  CFF21CAx        Rx   d 8 02 00 80 0C 3A 35 00 14
 10.673970 1  18F100F3x       Rx   d 8 03 41 7D 1F FA FA 14 00
 10.674812 1  18F102F3x       Rx   d 8 10 49 10 41 10 0C 00 08
 10.676297 1  18F106F3x       Rx   d 8 45 E0 FC FF FF FF FF FF
 10.677028 1  18FF2112x       Rx   d 8 01 00 00 00 00 00 00 00
 10.677626 1  18F107F3x       Rx   d 8 38 A4 27 10 01 77 00 00
 10.679138 1  CFF21CAx        Rx   d 8 03 00 80 0C 3A 35 00 14
 10.679716 1  18F108F3x       Rx   d 8 10 00 04 00 00 00 00 01
 10.680624 1  18F155F3x       Rx   d 8 38 38 39 39 39 3A 39 00
 10.681745 1  18F156F3x       Rx   d 8 00 00 00 00 00 00 00 00
 10.682611 1  18F157F3x       Rx   d 8 00 00 00 00 00 00 00 00
 10.683139 1  18F100D0x       Rx   d 8 0C FF FF FF FF FF FF FF
 10.683638 1  18F158F3x       Rx   d 8 00 00 00 00 00 00 00 00
 10.684623 1  18F159F3x       Rx   d 8 00 00 00 00 00 00 00 00
 10.685864 1  18F15AF3x       Rx   d 8 00 00 00 00 00 00 00 00
 10.686730 1  18F15BF3x       Rx   d 7 00 00 00 00 00 00 00
 10.687518 1  18F15CF3x       Rx   d 8 00 00 00 00 00 00 00 00
 10.688487 1  18F15DF3x       Rx   d 8 00 00 00 00 00 00 00 00
 10.689330 1  18F15EF3x       Rx   d 8 00 00 00 00 00 00 00 00
 10.690847 1  CFF21CAx        Rx   d 8 03 00 80 0C 3A 35 00 14
 10.709962 1  CFF21CAx        Rx   d 8 03 00 80 0C 3A 35 00 14
 10.710085 1  18F100D0x       Rx   d 8 0C FF FF FF FF FF FF FF
 10.714868 1  CFF21CAx        Rx   d 8 03 00 80 0C 3A 35 00 14
 10.726945 1  CFF21CAx        Rx   d 8 03 00 80 0C 3A 35 00 14
 10.734982 1  18F100D0x       Rx   d 8 0C FF FF FF FF FF FF FF
 10.738966 1  CFF21CAx        Rx   d 8 03 00 80 0C 3A 35 00 14
 10.751448 1  CFF21CAx        Rx   d 8 03 00 80 0C 3A 35 00 14
 10.763044 1  CFF21CAx        Rx   d 8 03 00 80 0C 3A 35 00 14
 10.763683 1  18F100D0x       Rx   d 8 0C FF FF FF FF FF FF FF
 10.773937 1  18F100F3x       Rx   d 8 03 41 7D 1F FA FA 14 00
 10.774437 1  18FF2112x       Rx   d 8 01 00 00 00 00 00 00 00
 10.775012 1  18F102F3x       Rx   d 8 10 49 10 41 10 0C 00 08
 10.775682 1  CFF21CAx        Rx   d 8 03 00 80 0C 3A 35 00 14
 10.776294 1  18F106F3x       Rx   d 8 45 E0 FC FF FF FF FF FF
 10.777626 1  18F107F3x       Rx   d 8 38 A4 27 10 01 77 00 00
 10.779542 1  18F108F3x       Rx   d 8 10 00 04 00 00 00 00 01
 10.780249 1  18F155F3x       Rx   d 8 38 38 39 39 39 3A 39 00
 10.781179 1  18F156F3x       Rx   d 8 00 00 00 00 00 00 00 00
 10.782004 1  18F157F3x       Rx   d 8 00 00 00 00 00 00 00 00
 10.782883 1  18F158F3x       Rx   d 8 00 00 00 00 00 00 00 00
 10.783807 1  18F159F3x       Rx   d 8 00 00 00 00 00 00 00 00
 10.784735 1  18F15AF3x       Rx   d 8 00 00 00 00 00 00 00 00
 10.785868 1  18F15BF3x       Rx   d 7 00 00 00 00 00 00 00
 10.786731 1  18F15CF3x       Rx   d 8 00 00 00 00 00 00 00 00
 10.787286 1  CFF21CAx        Rx   d 8 03 00 80 0C 3A 35 00 14
 10.787863 1  18F100D0x       Rx   d 8 0C FF FF FF FF FF FF FF
 10.788443 1  18F15DF3x       Rx   d 8 00 00 00 00 00 00 00 00
 10.789277 1  18F15EF3x       Rx   d 8 00 00 00 00 00 00 00 00
 10.799411 1  CFF21CAx        Rx   d 8 02 00 80 0C 3A 35 00 14
 10.807420 1  18F100D0x       Rx   d 8 0C FF FF FF FF FF FF FF
 10.811384 1  CFF21CAx        Rx   d 8 02 00 80 0C 3A 35 00 14
 10.823441 1  CFF21CAx        Rx   d 8 03 00 80 0C 3A 35 00 14
 10.835341 1  CFF21CAx        Rx   d 8 03 00 80 0C 3A 35 00 14
 10.836060 1  18F100D0x       Rx   d 8 0C FF FF FF FF FF FF FF
 10.847971 1  CFF21CAx        Rx   d 8 03 00 80 0C 3A 35 00 14
 10.855559 1  18F100D0x       Rx   d 8 0C FF FF FF FF FF FF FF
 10.859494 1  CFF21CAx        Rx   d 8 03 00 80 0C 3A 35 00 14
 10.871640 1  CFF21CAx        Rx   d 8 03 00 80 0C 3A 35 00 14
 10.872216 1  18FF2112x       Rx   d 8 01 00 00 00 00 00 00 00
 10.873973 1  18F100F3x       Rx   d 8 03 41 7D 1F FA FA 14 00
 10.874822 1  18F102F3x       Rx   d 8 10 49 10 41 10 0C 00 08
 10.875628 1  18F100D0x       Rx   d 8 0C FF FF FF FF FF FF FF
 10.876492 1  18F106F3x       Rx   d 8 45 E0 FC FF FF FF FF FF
 10.877799 1  18F107F3x       Rx   d 8 38 A4 27 10 01 77 00 00
 10.879649 1  18F108F3x       Rx   d 8 10 00 04 00 00 00 00 01
 10.880595 1  18F155F3x       Rx   d 8 38 38 39 39 39 3A 39 00
 10.881513 1  18F156F3x       Rx   d 8 00 00 00 00 00 00 00 00
 10.882401 1  18F157F3x       Rx   d 8 00 00 00 00 00 00 00 00
 10.883208 1  18F158F3x       Rx   d 8 00 00 00 00 00 00 00 00
 10.883724 1  CFF21CAx        Rx   d 8 03 00 80 0C 3A 35 00 14
 10.884394 1  18F159F3x       Rx   d 8 00 00 00 00 00 00 00 00
 10.885172 1  18F15AF3x       Rx   d 8 00 00 00 00 00 00 00 00
 10.886094 1  18F15BF3x       Rx   d 7 00 00 00 00 00 00 00
 10.886973 1  18F15CF3x       Rx   d 8 00 00 00 00 00 00 00 00
 10.887726 1  18F15DF3x       Rx   d 8 00 00 00 00 00 00 00 00
 10.888749 1  18F15EF3x       Rx   d 8 00 00 00 00 00 00 00 00
 10.895720 1  CFF21CAx        Rx   d 8 02 00 80 0C 3A 35 00 14
 10.896246 1  18F100D0x       Rx   d 8 0C FF FF FF FF FF FF FF
 10.907762 1  CFF21CAx        Rx   d 8 02 00 80 0C 3A 35 00 14
 10.927147 1  CFF21CAx        Rx   d 8 02 00 80 0C 3A 35 00 14
 10.927844 1  18F100D0x       Rx   d 8 0C FF FF FF FF FF FF FF
 10.931733 1  CFF21CAx        Rx   d 8 02 00 80 0C 3A 35 00 14
 10.944236 1  CFF21CAx        Rx   d 8 02 00 80 0C 3A 35 00 14
 10.947803 1  18F100D0x       Rx   d 8 0C FF FF FF FF FF FF FF
 10.955875 1  CFF21CAx        Rx   d 8 03 00 80 0C 3A 35 00 14
 10.967869 1  CFF21CAx        Rx   d 8 03 00 80 0C 3A 35 00 14
 10.968457 1  18F100D0x       Rx   d 8 0C FF FF FF FF FF FF FF
 10.969042 1  18FF2112x       Rx   d 8 01 00 00 00 00 00 00 00
 10.973876 1  18F100F3x       Rx   d 8 03 41 7D 1F FA FA 14 00
 10.974752 1  18F102F3x       Rx   d 8 10 49 10 41 10 0C 00 08
 10.976281 1  18F106F3x       Rx   d 8 45 E0 FC FF FF FF FF FF
 10.977611 1  18F107F3x       Rx   d 8 38 A4 27 10 01 77 00 00
 10.979359 1  18F108F3x       Rx   d 8 10 00 04 00 00 00 00 01
 10.979925 1  CFF21CAx        Rx   d 8 03 00 80 0C 3A 35 00 14
 10.980479 1  18F155F3x       Rx   d 8 38 38 39 39 39 3A 39 00
 10.981378 1  18F156F3x       Rx   d 8 00 00 00 00 00 00 00 00
 10.982259 1  18F157F3x       Rx   d 8 00 00 00 00 00 00 00 00
 10.983135 1  18F158F3x       Rx   d 8 00 00 00 00 00 00 00 00
 10.984033 1  18F159F3x       Rx   d 8 00 00 00 00 00 00 00 00
 10.984874 1  18F15AF3x       Rx   d 8 00 00 00 00 00 00 00 00
 10.985928 1  18F15BF3x       Rx   d 7 00 00 00 00 00 00 00
 10.986784 1  18F15CF3x       Rx   d 8 00 00 00 00 00 00 00 00
 10.987669 1  18F15DF3x       Rx   d 8 00 00 00 00 00 00 00 00
 10.988271 1  18F100D0x       Rx   d 8 0C FF FF FF FF FF FF FF
 10.988847 1  18F15EF3x       Rx   d 8 00 00 00 00 00 00 00 00
 10.991957 1  CFF21CAx        Rx   d 8 03 00 80 0C 3A 35 00 14
 11.004048 1  CFF21CAx        Rx   d 8 03 00 80 0C 3A 35 00 14
 11.012071 1  18F100D0x       Rx   d 8 0C FF FF FF FF FF FF FF
 11.016118 1  CFF21CAx        Rx   d 8 03 00 80 0C 3A 35 00 14
 11.028269 1  CFF21CAx        Rx   d 8 03 00 80 0C 3A 35 00 14
 11.032284 1  18F100D0x       Rx   d 8 0C FF FF FF FF FF FF FF
 11.040439 1  CFF21CAx        Rx   d 8 03 00 80 0C 3A 35 00 14
 11.052379 1  CFF21CAx        Rx   d 8 02 00 80 0C 3A 35 00 14
 11.052926 1  18F100D0x       Rx   d 8 0C FF FF FF FF FF FF FF
 11.064411 1  CFF21CAx        Rx   d 8 02 00 80 0C 3A 35 00 14
 11.066260 1  18FF2112x       Rx   d 8 01 00 00 00 00 00 00 00
 11.074000 1  18F100F3x       Rx   d 8 03 41 7D 1F FA FA 14 00
 11.074864 1  18F102F3x       Rx   d 8 10 49 10 41 10 0C 00 08
 11.076300 1  18F106F3x       Rx   d 8 45 E0 FC FF FF FF FF FF
 11.076847 1  CFF21CAx        Rx   d 8 02 00 80 0C 3A 35 00 14
 11.077599 1  18F107F3x       Rx   d 8 38 A4 27 10 01 77 00 00
 11.079373 1  18F108F3x       Rx   d 8 10 00 04 00 00 00 00 01
 11.080394 1  18F155F3x       Rx   d 8 38 38 39 39 39 3A 39 00
 11.081100 1  18F156F3x       Rx   d 8 00 00 00 00 00 00 00 00
 11.082129 1  18F157F3x       Rx   d 8 00 00 00 00 00 00 00 00
 11.083009 1  18F158F3x       Rx   d 8 00 00 00 00 00 00 00 00
 11.083769 1  18F159F3x       Rx   d 8 00 00 00 00 00 00 00 00
 11.084387 1  18F100D0x       Rx   d 8 0C FF FF FF FF FF FF FF
 11.084932 1  18F15AF3x       Rx   d 8 00 00 00 00 00 00 00 00
 11.086020 1  18F15BF3x       Rx   d 7 00 00 00 00 00 00 00
 11.086883 1  18F15CF3x       Rx   d 8 00 00 00 00 00 00 00 00
 11.087670 1  18F15DF3x       Rx   d 8 00 00 00 00 00 00 00 00
 11.088464 1  CFF21CAx        Rx   d 8 03 00 80 0C 3A 35 00 14
 11.089057 1  18F15EF3x       Rx   d 8 00 00 00 00 00 00 00 00
 11.100420 1  CFF21CAx        Rx   d 8 03 00 80 0C 3A 35 00 14
 11.112494 1  CFF21CAx        Rx   d 8 03 00 80 0C 3A 35 00 14
 11.113057 1  18F100D0x       Rx   d 8 0C FF FF FF FF FF FF FF
 11.124645 1  CFF21CAx        Rx   d 8 02 00 80 0C 3A 35 00 14
 11.132753 1  18F100D0x       Rx   d 8 0C FF FF FF FF FF FF FF
 11.146748 1  CFF21CAx        Rx   d 8 02 00 80 0C 3A 35 00 14
 11.148663 1  CFF21CAx        Rx   d 8 02 00 80 0C 3A 35 00 14
 11.156677 1  18F100D0x       Rx   d 8 0C FF FF FF FF FF FF FF
 11.160675 1  CFF21CAx        Rx   d 8 02 00 80 0C 3A 35 00 14
 11.163425 1  18FF2112x       Rx   d 8 01 00 00 00 00 00 00 00
 11.172708 1  CFF21CAx        Rx   d 8 02 00 80 0C 3A 35 00 14
 11.173885 1  18F100F3x       Rx   d 8 03 41 7D 1F FA FA 14 00
 11.174712 1  18F102F3x       Rx   d 8 10 48 10 41 10 0C 00 07
 11.176309 1  18F106F3x       Rx   d 8 45 E0 FC FF FF FF FF FF
 11.176872 1  18F100D0x       Rx   d 8 0C FF FF FF FF FF FF FF
 11.177738 1  18F107F3x       Rx   d 8 38 A4 27 10 01 77 00 00
 11.179600 1  18F108F3x       Rx   d 8 10 00 04 00 00 00 00 01
 11.180442 1  18F155F3x       Rx   d 8 38 38 39 39 39 3A 39 00
 11.181393 1  18F156F3x       Rx   d 8 00 00 00 00 00 00 00 00
 11.182218 1  18F157F3x       Rx   d 8 00 00 00 00 00 00 00 00
 11.183158 1  18F158F3x       Rx   d 8 00 00 00 00 00 00 00 00
 11.183969 1  18F159F3x       Rx   d 8 00 00 00 00 00 00 00 00
 11.184721 1  CFF21CAx        Rx   d 8 03 00 80 0C 3A 35 00 14
 11.185293 1  18F15AF3x       Rx   d 8 00 00 00 00 00 00 00 00
 11.186088 1  18F15BF3x       Rx   d 7 00 00 00 00 00 00 00
 11.186967 1  18F15CF3x       Rx   d 8 00 00 00 00 00 00 00 00
 11.187868 1  18F15DF3x       Rx   d 8 00 00 00 00 00 00 00 00
 11.188747 1  18F15EF3x       Rx   d 8 00 00 00 00 00 00 00 00
 11.196807 1  CFF21CAx        Rx   d 8 03 00 80 0C 3A 35 00 14
 11.197388 1  18F100D0x       Rx   d 8 0C FF FF FF FF FF FF FF
 11.208878 1  CFF21CAx        Rx   d 8 03 00 80 0C 3A 35 00 14
 11.220952 1  CFF21CAx        Rx   d 8 03 00 80 0C 3A 35 00 14
 11.221445 1  18F100D0x       Rx   d 8 0C FF FF FF FF FF FF FF
 11.232951 1  CFF21CAx        Rx   d 8 03 00 80 0C 3A 35 00 14
 11.241041 1  18F100D0x       Rx   d 8 0C FF FF FF FF FF FF FF
 11.245078 1  CFF21CAx        Rx   d 8 03 00 80 0C 3A 35 00 14
 11.257194 1  CFF21CAx        Rx   d 8 02 00 80 0C 3A 35 00 14
 11.260701 1  18FF2112x       Rx   d 8 01 00 00 00 00 00 00 00
 11.261388 1  18F100D0x       Rx   d 8 0C FF FF FF FF FF FF FF
 11.269228 1  CFF21CAx        Rx   d 8 02 00 80 0C 3A 35 00 14
 11.273992 1  18F100F3x       Rx   d 8 03 41 7D 1F FA FA 14 00
 11.274851 1  18F102F3x       Rx   d 8 10 48 10 41 10 0C 00 07
 11.276338 1  18F106F3x       Rx   d 8 45 E0 FC FF FF FF FF FF
 11.277637 1  18F107F3x       Rx   d 8 38 A4 27 10 01 77 00 00
 11.279397 1  18F108F3x       Rx   d 8 10 00 04 00 00 00 00 01
 11.280324 1  18F155F3x       Rx   d 8 38 38 39 39 39 3A 39 00
 11.281154 1  18F156F3x       Rx   d 8 00 00 00 00 00 00 00 00
 11.281819 1  CFF21CAx        Rx   d 8 03 00 80 0C 3A 35 00 14
 11.282396 1  18F100D0x       Rx   d 8 0C FF FF FF FF FF FF FF
 11.282967 1  18F157F3x       Rx   d 8 00 00 00 00 00 00 00 00
 11.283438 1  18FF50E5x       Rx   d 8 01 B9 00 00 14 00 00 00
 11.284083 1  18F158F3x       Rx   d 8 00 00 00 00 00 00 00 00
 11.284894 1  18F159F3x       Rx   d 8 00 00 00 00 00 00 00 00
 11.286096 1  18F15AF3x       Rx   d 8 00 00 00 00 00 00 00 00
 11.286896 1  18F15BF3x       Rx   d 7 00 00 00 00 00 00 00
 11.287689 1  18F15CF3x       Rx   d 8 00 00 00 00 00 00 00 00
 11.288739 1  18F15DF3x       Rx   d 8 00 00 00 00 00 00 00 00
 11.289603 1  18F15EF3x       Rx   d 8 00 00 00 00 00 00 00 00
 11.293228 1  CFF21CAx        Rx   d 8 03 00 80 0C 3A 35 00 14
 11.301243 1  18F100D0x       Rx   d 8 0C FF FF FF FF FF FF FF
 11.305309 1  CFF21CAx        Rx   d 8 03 00 80 0C 3A 35 00 14
 11.317343 1  CFF21CAx        Rx   d 8 03 00 80 0C 3A 35 00 14
 11.325381 1  18F100D0x       Rx   d 8 0C FF FF FF FF FF FF FF
 11.329352 1  CFF21CAx        Rx   d 8 03 00 80 0C 3A 35 00 14
 11.341560 1  CFF21CAx        Rx   d 8 03 00 80 0C 3A 35 00 14
 11.365258 1  CFF21CAx        Rx   d 8 03 00 80 0C 3A 35 00 14
 11.365373 1  18F100D0x       Rx   d 8 0C FF FF FF FF FF FF FF
 11.365474 1  18FF2112x       Rx   d 8 01 00 00 00 00 00 00 00
 11.365571 1  CFF21CAx        Rx   d 8 03 00 80 0C 3A 35 00 14
 11.373538 1  18F100D0x       Rx   d 8 0C FF FF FF FF FF FF FF
 11.374096 1  18F100F3x       Rx   d 8 03 41 7D 1F FA FA 14 00
 11.374948 1  18F102F3x       Rx   d 8 10 48 10 41 10 0C 00 07
 11.376329 1  18F106F3x       Rx   d 8 45 E0 FC FF FF FF FF FF
 11.377618 1  CFF21CAx        Rx   d 8 03 00 80 0C 3A 35 00 14
 11.378103 1  18F107F3x       Rx   d 8 38 A4 27 10 01 77 00 00
 11.379918 1  18F108F3x       Rx   d 8 10 00 04 00 00 00 00 01
 11.380770 1  18F155F3x       Rx   d 8 38 38 39 39 39 3A 39 00
 11.381713 1  18F156F3x       Rx   d 8 00 00 00 00 00 00 00 00
 11.382654 1  18F157F3x       Rx   d 8 00 00 00 00 00 00 00 00
 11.383619 1  18F158F3x       Rx   d 8 00 00 00 00 00 00 00 00
 11.384411 1  18F159F3x       Rx   d 8 00 00 00 00 00 00 00 00
 11.385285 1  18F15AF3x       Rx   d 8 00 00 00 00 00 00 00 00
 11.386126 1  18F15BF3x       Rx   d 7 00 00 00 00 00 00 00
 11.386984 1  18F15CF3x       Rx   d 8 00 00 00 00 00 00 00 00
 11.387825 1  18F15DF3x       Rx   d 8 00 00 00 00 00 00 00 00
 11.388718 1  18F15EF3x       Rx   d 8 00 00 00 00 00 00 00 00
 11.389624 1  CFF21CAx        Rx   d 8 03 00 80 0C 3A 35 00 14
 11.393631 1  18F100D0x       Rx   d 8 0C FF FF FF FF FF FF FF
 11.401635 1  CFF21CAx        Rx   d 8 03 00 80 0C 3A 35 00 14
 11.414297 1  CFF21CAx        Rx   d 8 02 00 80 0C 3A 35 00 14
 11.425763 1  CFF21CAx        Rx   d 8 02 00 80 0C 3A 35 00 14
 11.426300 1  18F100D0x       Rx   d 8 0C FF FF FF FF FF FF FF
 11.437828 1  CFF21CAx        Rx   d 8 03 00 80 0C 3A 35 00 14
 11.446020 1  18F100D0x       Rx   d 8 0C FF FF FF FF FF FF FF
 11.449874 1  CFF21CAx        Rx   d 8 03 00 80 0C 3A 35 00 14
 11.455366 1  18FF2112x       Rx   d 8 01 00 00 00 00 00 00 00
 11.462027 1  CFF21CAx        Rx   d 8 03 00 80 0C 3A 35 00 14
 11.466033 1  18F100D0x       Rx   d 8 0C FF FF FF FF FF FF FF
 11.474024 1  18F100F3x       Rx   d 8 03 41 7D 1F FA FA 14 00
 11.474569 1  CFF21CAx        Rx   d 8 02 00 80 0C 3A 35 00 14
 11.475001 1  18F102F3x       Rx   d 8 10 48 10 41 10 0C 00 07
 11.476340 1  18F106F3x       Rx   d 8 45 E0 FC FF FF FF FF FF
 11.477640 1  18F107F3x       Rx   d 8 38 A4 27 10 01 77 00 00
 11.479407 1  18F108F3x       Rx   d 8 10 00 04 00 00 00 00 01
 11.480327 1  18F155F3x       Rx   d 8 38 38 39 39 39 3A 39 00
 11.481154 1  18F156F3x       Rx   d 8 00 00 00 00 00 00 00 00
 11.482184 1  18F157F3x       Rx   d 8 00 00 00 00 00 00 00 00
 11.482990 1  18F158F3x       Rx   d 8 00 00 00 00 00 00 00 00
 11.483786 1  18F159F3x       Rx   d 8 00 00 00 00 00 00 00 00
 11.484713 1  18F15AF3x       Rx   d 8 00 00 00 00 00 00 00 00
 11.485980 1  18F15BF3x       Rx   d 7 00 00 00 00 00 00 00
 11.486582 1  CFF21CAx        Rx   d 8 02 00 80 0C 3A 35 00 14
 11.487152 1  18F100D0x       Rx   d 8 0C FF FF FF FF FF FF FF
 11.487598 1  18F15CF3x       Rx   d 8 00 00 00 00 00 00 00 00
 11.488638 1  18F15DF3x       Rx   d 8 00 00 00 00 00 00 00 00
 11.489472 1  18F15EF3x       Rx   d 8 00 00 00 00 00 00 00 00
 11.498142 1  CFF21CAx        Rx   d 8 02 00 80 0C 3A 35 00 14
 11.510093 1  CFF21CAx        Rx   d 8 03 00 80 0C 3A 35 00 14
 11.510650 1  18F100D0x       Rx   d 8 0C FF FF FF FF FF FF FF
 11.522273 1  CFF21CAx        Rx   d 8 03 00 80 0C 3A 35 00 14
 11.530294 1  18F100D0x       Rx   d 8 0C FF FF FF FF FF FF FF
 11.534595 1  CFF21CAx        Rx   d 8 03 00 80 0C 3A 35 00 14
 11.546237 1  CFF21CAx        Rx   d 8 02 00 80 0C 3A 35 00 14
 11.550715 1  18F100D0x       Rx   d 8 0C FF FF FF FF FF FF FF
 11.552634 1  18FF2112x       Rx   d 8 01 00 00 00 00 00 00 00
 11.558283 1  CFF21CAx        Rx   d 8 02 00 80 0C 3A 35 00 14
 11.570431 1  CFF21CAx        Rx   d 8 02 00 80 0C 3A 35 00 14
 11.583877 1  18F104F3x       Rx   d 8 3A 38 06 01 02 FF FF FF
 11.584005 1  18F100F3x       Rx   d 8 03 41 7D 1E FA FA 14 00
 11.584112 1  18F100D0x       Rx   d 8 0C FF FF FF FF FF FF FF
 11.584214 1  18F102F3x       Rx   d 8 10 48 10 41 10 0C 00 07
 11.584325 1  18F106F3x       Rx   d 8 45 E0 FC FF FF FF FF FF
 11.584423 1  18F107F3x       Rx   d 8 38 A4 27 10 01 77 00 00
 11.584525 1  18F108F3x       Rx   d 8 10 00 04 00 00 00 00 01
 11.584682 1  18F113F3x       Rx   d 8 10 44 10 45 10 46 10 46
 11.584826 1  18F114F3x       Rx   d 8 10 43 10 43 10 45 10 46
 11.584942 1  CFF21CAx        Rx   d 8 02 00 80 0C 3A 35 00 14
 11.585045 1  18F115F3x       Rx   d 8 10 44 10 42 10 43 10 41
 11.585163 1  18F116F3x       Rx   d 8 10 47 10 45 10 47 10 48
 11.585316 1  18F117F3x       Rx   d 8 10 43 10 44 10 47 10 48
 11.586304 1  18F118F3x       Rx   d 8 00 00 00 00 00 00 00 00
 11.587240 1  18F119F3x       Rx   d 8 00 00 00 00 00 00 00 00
 11.588223 1  18F11AF3x       Rx   d 8 00 00 00 00 00 00 00 00
 11.589165 1  18F11BF3x       Rx   d 8 00 00 00 00 00 00 00 00
 11.590121 1  18F11CF3x       Rx   d 8 00 00 00 00 00 00 00 00
 11.591034 1  18F11DF3x       Rx   d 8 00 00 00 00 00 00 00 00
 11.591937 1  18F11EF3x       Rx   d 8 00 00 00 00 00 00 00 00
 11.592871 1  18F11FF3x       Rx   d 8 00 00 00 00 00 00 00 00
 11.593834 1  18F120F3x       Rx   d 8 00 00 00 00 00 00 00 00
 11.594394 1  CFF21CAx        Rx   d 8 02 00 80 0C 3A 35 00 14
 11.594989 1  18F100D0x       Rx   d 8 0C FF FF FF FF FF FF FF
 11.595612 1  18F121F3x       Rx   d 8 00 00 00 00 00 00 00 00
 11.596617 1  18F122F3x       Rx   d 8 00 00 00 00 00 00 00 00
 11.597448 1  18F123F3x       Rx   d 8 00 00 00 00 00 00 00 00
 11.598360 1  18F124F3x       Rx   d 8 00 00 00 00 00 00 00 00
 11.599280 1  18F125F3x       Rx   d 8 00 00 00 00 00 00 00 00
 11.600157 1  18F126F3x       Rx   d 8 00 00 00 00 00 00 00 00
 11.601083 1  18F127F3x       Rx   d 8 00 00 00 00 00 00 00 00
 11.601995 1  18F128F3x       Rx   d 8 00 00 00 00 00 00 00 00
 11.602894 1  18F129F3x       Rx   d 8 00 00 00 00 00 00 00 00
 11.603821 1  18F12AF3x       Rx   d 8 00 00 00 00 00 00 00 00
 11.604725 1  18F12BF3x       Rx   d 8 00 00 00 00 00 00 00 00
 11.605972 1  18F12CF3x       Rx   d 8 00 00 00 00 00 00 00 00
 11.606894 1  18F12DF3x       Rx   d 8 00 00 00 00 00 00 00 00
