date Sun May 10 09:22:41.366 2026
base hex  timestamps absolute
internal events logged
Begin Triggerblock Sun May 10 09:23:02.870 2026
 0.000000 Start of measurement
 0.000000 1  41              Rx   d 8 20 12 01 00 00 00 01 11
 0.152871 1  18F100F3x       Rx   d 8 03 39 7D 00 F3 FA 14 00
 0.153686 1  18F102F3x       Rx   d 8 00 00 00 00 00 00 00 00
 0.154933 1  18F106F3x       Rx   d 8 00 80 FC FF FF FF FF FF
 0.156182 1  18F107F3x       Rx   d 8 27 10 27 10 00 00 00 00
 0.157963 1  18F108F3x       Rx   d 8 00 00 00 00 00 00 00 00
 0.158830 1  18F155F3x       Rx   d 8 00 00 00 00 00 00 00 00
 0.159731 1  18F156F3x       Rx   d 8 00 00 00 00 00 00 00 00
 0.160646 1  18F157F3x       Rx   d 8 00 00 00 00 00 00 00 00
 0.161641 1  18F158F3x       Rx   d 8 00 00 00 00 00 00 00 00
 0.162560 1  18F159F3x       Rx   d 8 00 00 00 00 00 00 00 00
 0.163473 1  18F15AF3x       Rx   d 8 00 00 00 00 00 00 00 00
 0.164533 1  18F15BF3x       Rx   d 7 00 00 00 00 00 00 00
 0.165228 1  18F15CF3x       Rx   d 8 00 00 00 00 00 00 00 00
 0.166032 1  18F15DF3x       Rx   d 8 00 00 00 00 00 00 00 00
 0.166871 1  18F15EF3x       Rx   d 8 00 00 00 00 00 00 00 00
 0.237007 1  18FF2112x       Rx   d 8 00 00 00 00 00 00 00 00
 0.252960 1  18F100F3x       Rx   d 8 03 39 7D 00 F3 FA 14 00
 0.253811 1  18F102F3x       Rx   d 8 00 00 00 00 00 00 00 00
 0.255307 1  18F106F3x       Rx   d 8 00 80 FC FF FF FF FF FF
 0.256370 1  18F107F3x       Rx   d 8 27 10 27 10 00 00 00 00
 0.258068 1  18F108F3x       Rx   d 8 00 00 00 00 00 00 00 00
 0.258941 1  18F155F3x       Rx   d 8 00 00 00 00 00 00 00 00
 0.259824 1  18F156F3x       Rx   d 8 00 00 00 00 00 00 00 00
 0.260749 1  18F157F3x       Rx   d 8 00 00 00 00 00 00 00 00
 0.261743 1  18F158F3x       Rx   d 8 00 00 00 00 00 00 00 00
 0.262677 1  18F159F3x       Rx   d 8 00 00 00 00 00 00 00 00
 0.263698 1  18F15AF3x       Rx   d 8 00 00 00 00 00 00 00 00
 0.264565 1  18F15BF3x       Rx   d 7 00 00 00 00 00 00 00
 0.265707 1  18F15CF3x       Rx   d 8 00 00 00 00 00 00 00 00
 0.266590 1  18F15DF3x       Rx   d 8 00 00 00 00 00 00 00 00
 0.267539 1  18F15EF3x       Rx   d 8 00 00 00 00 00 00 00 00
 0.334212 1  18FF2112x       Rx   d 8 00 00 00 00 00 00 00 00
 0.353136 1  18F100F3x       Rx   d 8 03 39 7D 00 F3 FA 14 00
 0.353647 1  18F102F3x       Rx   d 8 00 00 00 00 00 00 00 00
 0.354909 1  18F106F3x       Rx   d 8 00 80 FC FF FF FF FF FF
 0.356253 1  18F107F3x       Rx   d 8 27 10 27 10 00 00 00 00
 0.357942 1  18F108F3x       Rx   d 8 00 00 00 00 00 00 00 00
 0.358838 1  18F155F3x       Rx   d 8 00 00 00 00 00 00 00 00
 0.359724 1  18F156F3x       Rx   d 8 00 00 00 00 00 00 00 00
 0.360651 1  18F157F3x       Rx   d 8 00 00 00 00 00 00 00 00
 0.361566 1  18F158F3x       Rx   d 8 00 00 00 00 00 00 00 00
 0.362491 1  18F159F3x       Rx   d 8 00 00 00 00 00 00 00 00
 0.363419 1  18F15AF3x       Rx   d 8 00 00 00 00 00 00 00 00
 0.364246 1  18F15BF3x       Rx   d 7 00 00 00 00 00 00 00
 0.365101 1  18F15CF3x       Rx   d 8 00 00 00 00 00 00 00 00
 0.365943 1  18F15DF3x       Rx   d 8 00 00 00 00 00 00 00 00
 0.366791 1  18F15EF3x       Rx   d 8 00 00 00 00 00 00 00 00
 0.431401 1  18FF2112x       Rx   d 8 00 00 00 00 00 00 00 00
 0.452913 1  18F100F3x       Rx   d 8 03 39 7D 00 F3 FA 14 00
 0.453709 1  18F102F3x       Rx   d 8 10 25 10 1C 10 0C 00 09
 0.455202 1  18F106F3x       Rx   d 8 00 80 FC FF FF FF FF FF
 0.456325 1  18F107F3x       Rx   d 8 27 10 27 10 00 00 00 00
 0.457998 1  18F108F3x       Rx   d 8 00 00 00 00 00 00 00 00
 0.458836 1  18F155F3x       Rx   d 8 36 36 36 36 36 36 35 00
 0.459737 1  18F156F3x       Rx   d 8 00 00 00 00 00 00 00 00
 0.460625 1  18F157F3x       Rx   d 8 00 00 00 00 00 00 00 00
 0.461567 1  18F158F3x       Rx   d 8 00 00 00 00 00 00 00 00
 0.462504 1  18F159F3x       Rx   d 8 00 00 00 00 00 00 00 00
 0.463528 1  18F15AF3x       Rx   d 8 00 00 00 00 00 00 00 00
 0.464314 1  18F15BF3x       Rx   d 7 00 00 00 00 00 00 00
 0.465108 1  18F15CF3x       Rx   d 8 00 00 00 00 00 00 00 00
 0.465931 1  18F15DF3x       Rx   d 8 00 00 00 00 00 00 00 00
 0.466761 1  18F15EF3x       Rx   d 8 00 00 00 00 00 00 00 00
 0.528810 1  18FF2112x       Rx   d 8 00 00 00 00 00 00 00 00
 0.552984 1  18F100F3x       Rx   d 8 03 39 7D 00 F3 FA 14 00
 0.553803 1  18F102F3x       Rx   d 8 10 25 10 1C 10 0C 00 09
 0.555205 1  18F106F3x       Rx   d 8 44 E0 FC FF FF FF FF FF
 0.556445 1  18F107F3x       Rx   d 8 2E E0 27 10 00 A5 00 00
 0.558165 1  18F108F3x       Rx   d 8 00 00 00 00 00 00 00 00
 0.559007 1  18F155F3x       Rx   d 8 36 36 36 36 36 36 35 00
 0.571565 1  18F156F3x       Rx   d 8 00 00 00 00 00 00 00 00
 0.571708 1  18F157F3x       Rx   d 8 00 00 00 00 00 00 00 00
 0.571816 1  18F158F3x       Rx   d 8 00 00 00 00 00 00 00 00
 0.571917 1  18F159F3x       Rx   d 8 00 00 00 00 00 00 00 00
 0.572015 1  18F15AF3x       Rx   d 8 00 00 00 00 00 00 00 00
 0.572109 1  18F15BF3x       Rx   d 7 00 00 00 00 00 00 00
 0.572206 1  18F15CF3x       Rx   d 8 00 00 00 00 00 00 00 00
 0.572306 1  18F15DF3x       Rx   d 8 00 00 00 00 00 00 00 00
 0.572402 1  18F15EF3x       Rx   d 8 00 00 00 00 00 00 00 00
 0.625998 1  18FF2112x       Rx   d 8 00 00 00 00 00 00 00 00
 0.652933 1  18F100F3x       Rx   d 8 03 39 7D 00 F3 FA 14 00
 0.653661 1  18F102F3x       Rx   d 8 10 25 10 1C 10 0C 00 09
 0.655113 1  18F106F3x       Rx   d 8 45 E0 FC FF FF FF FF FF
 0.656318 1  18F107F3x       Rx   d 8 2E E0 27 10 00 A5 00 00
 0.658023 1  18F108F3x       Rx   d 8 00 00 00 00 00 00 00 00
 0.658895 1  18F155F3x       Rx   d 8 36 36 36 36 36 36 35 00
 0.659830 1  18F156F3x       Rx   d 8 00 00 00 00 00 00 00 00
 0.660669 1  18F157F3x       Rx   d 8 00 00 00 00 00 00 00 00
 0.661593 1  18F158F3x       Rx   d 8 00 00 00 00 00 00 00 00
 0.662552 1  18F159F3x       Rx   d 8 00 00 00 00 00 00 00 00
 0.663551 1  18F15AF3x       Rx   d 8 00 00 00 00 00 00 00 00
 0.664271 1  18F15BF3x       Rx   d 7 00 00 00 00 00 00 00
 0.665123 1  18F15CF3x       Rx   d 8 00 00 00 00 00 00 00 00
 0.665969 1  18F15DF3x       Rx   d 8 00 00 00 00 00 00 00 00
 0.666864 1  18F15EF3x       Rx   d 8 00 00 00 00 00 00 00 00
 0.723331 1  18FF2112x       Rx   d 8 00 00 00 00 00 00 00 00
 0.752966 1  18F100F3x       Rx   d 8 03 39 7D 0A F3 FA 14 00
 0.753837 1  18F102F3x       Rx   d 8 10 25 10 1C 10 0C 00 09
 0.755182 1  18F106F3x       Rx   d 8 45 E0 FC FF FF FF FF FF
 0.756427 1  18F107F3x       Rx   d 8 2E E0 27 10 00 A5 00 00
 0.758170 1  18F108F3x       Rx   d 8 00 00 00 00 00 00 00 00
 0.759035 1  18F155F3x       Rx   d 8 36 36 36 36 36 36 35 00
 0.759899 1  18F156F3x       Rx   d 8 00 00 00 00 00 00 00 00
 0.760799 1  18F157F3x       Rx   d 8 00 00 00 00 00 00 00 00
 0.761711 1  18F158F3x       Rx   d 8 00 00 00 00 00 00 00 00
 0.762641 1  18F159F3x       Rx   d 8 00 00 00 00 00 00 00 00
 0.763579 1  18F15AF3x       Rx   d 8 00 00 00 00 00 00 00 00
 0.764416 1  18F15BF3x       Rx   d 7 00 00 00 00 00 00 00
 0.765256 1  18F15CF3x       Rx   d 8 00 00 00 00 00 00 00 00
 0.766097 1  18F15DF3x       Rx   d 8 00 00 00 00 00 00 00 00
 0.766938 1  18F15EF3x       Rx   d 8 00 00 00 00 00 00 00 00
 0.820544 1  18FF2112x       Rx   d 8 00 00 00 00 00 00 00 00
 0.852900 1  18F100F3x       Rx   d 8 03 39 7D 0A F3 FA 14 00
 0.853682 1  18F102F3x       Rx   d 8 10 25 10 1C 10 0C 00 09
 0.854986 1  18F106F3x       Rx   d 8 45 E0 FC FF FF FF FF FF
 0.856302 1  18F107F3x       Rx   d 8 2E E0 27 10 00 A5 00 00
 0.858042 1  18F108F3x       Rx   d 8 00 00 00 00 00 00 00 00
 0.858920 1  18F155F3x       Rx   d 8 36 36 36 36 36 36 35 00
 0.859805 1  18F156F3x       Rx   d 8 00 00 00 00 00 00 00 00
 0.860699 1  18F157F3x       Rx   d 8 00 00 00 00 00 00 00 00
 0.861605 1  18F158F3x       Rx   d 8 00 00 00 00 00 00 00 00
 0.862535 1  18F159F3x       Rx   d 8 00 00 00 00 00 00 00 00
 0.863460 1  18F15AF3x       Rx   d 8 00 00 00 00 00 00 00 00
 0.864436 1  18F15BF3x       Rx   d 7 00 00 00 00 00 00 00
 0.865131 1  18F15CF3x       Rx   d 8 00 00 00 00 00 00 00 00
 0.865948 1  18F15DF3x       Rx   d 8 00 00 00 00 00 00 00 00
 0.866797 1  18F15EF3x       Rx   d 8 00 00 00 00 00 00 00 00
 0.917943 1  18FF2112x       Rx   d 8 01 00 00 00 00 00 00 00
 0.953037 1  18F100F3x       Rx   d 8 03 39 7D 0A F3 FA 14 00
 0.955393 1  18F102F3x       Rx   d 8 10 25 10 1C 10 0C 00 09
 0.955763 1  18F106F3x       Rx   d 8 45 E0 FC FF FF FF FF FF
 0.956264 1  18F107F3x       Rx   d 8 2E E0 27 10 00 A5 00 00
 0.958035 1  18F108F3x       Rx   d 8 00 00 00 00 00 00 00 00
 0.958873 1  18F155F3x       Rx   d 8 36 36 36 36 36 36 35 00
 0.959828 1  18F156F3x       Rx   d 8 00 00 00 00 00 00 00 00
 0.960684 1  18F157F3x       Rx   d 8 00 00 00 00 00 00 00 00
 0.961609 1  18F158F3x       Rx   d 8 00 00 00 00 00 00 00 00
 0.962546 1  18F159F3x       Rx   d 8 00 00 00 00 00 00 00 00
 0.963522 1  18F15AF3x       Rx   d 8 00 00 00 00 00 00 00 00
 0.964282 1  18F15BF3x       Rx   d 7 00 00 00 00 00 00 00
 0.965133 1  18F15CF3x       Rx   d 8 00 00 00 00 00 00 00 00
 0.965974 1  18F15DF3x       Rx   d 8 00 00 00 00 00 00 00 00
 0.966824 1  18F15EF3x       Rx   d 8 00 00 00 00 00 00 00 00
 1.014967 1  18FF2112x       Rx   d 8 01 00 00 00 00 00 00 00
 1.052881 1  18F100F3x       Rx   d 8 03 39 7D 1F F3 FA 14 00
 1.053839 1  18F102F3x       Rx   d 8 10 25 10 1C 10 0C 00 09
 1.054709 1  18F106F3x       Rx   d 8 45 E0 FC FF FF FF FF FF
 1.056404 1  18F107F3x       Rx   d 8 36 B0 27 10 01 4A 00 00
 1.058274 1  18F108F3x       Rx   d 8 00 00 00 00 00 00 00 00
 1.059298 1  18F104F3x       Rx   d 8 36 35 01 07 01 FF FF FF
 1.060162 1  18F113F3x       Rx   d 8 10 1E 10 1F 10 1F 10 1F
 1.061078 1  18F114F3x       Rx   d 8 10 1E 10 1D 10 1F 10 1F
 1.061996 1  18F115F3x       Rx   d 8 10 1F 10 1D 10 1D 10 1C
 1.062927 1  18F116F3x       Rx   d 8 10 22 10 1F 10 22 10 25
 1.063838 1  18F117F3x       Rx   d 8 10 1E 10 1F 10 22 10 22
 1.064797 1  18F118F3x       Rx   d 8 00 00 00 00 00 00 00 00
 1.065954 1  18F119F3x       Rx   d 8 00 00 00 00 00 00 00 00
 1.066887 1  18F11AF3x       Rx   d 8 00 00 00 00 00 00 00 00
 1.067471 1  18F100D0x       Rx   d 8 00 FF FF FF FF FF FF FF
 1.068056 1  18F11BF3x       Rx   d 8 00 00 00 00 00 00 00 00
 1.068989 1  18F11CF3x       Rx   d 8 00 00 00 00 00 00 00 00
 1.069911 1  18F11DF3x       Rx   d 8 00 00 00 00 00 00 00 00
 1.070841 1  18F11EF3x       Rx   d 8 00 00 00 00 00 00 00 00
 1.071848 1  18F11FF3x       Rx   d 8 00 00 00 00 00 00 00 00
 1.072760 1  18F120F3x       Rx   d 8 00 00 00 00 00 00 00 00
 1.073736 1  18F121F3x       Rx   d 8 00 00 00 00 00 00 00 00
 1.074687 1  18F122F3x       Rx   d 8 00 00 00 00 00 00 00 00
 1.075927 1  18F123F3x       Rx   d 8 00 00 00 00 00 00 00 00
 1.076831 1  18F124F3x       Rx   d 8 00 00 00 00 00 00 00 00
 1.077739 1  18F125F3x       Rx   d 8 00 00 00 00 00 00 00 00
 1.078683 1  18F126F3x       Rx   d 8 00 00 00 00 00 00 00 00
 1.079648 1  18F127F3x       Rx   d 8 00 00 00 00 00 00 00 00
 1.080765 1  18F128F3x       Rx   d 8 00 00 00 00 00 00 00 00
 1.081545 1  18F129F3x       Rx   d 8 00 00 00 00 00 00 00 00
 1.082498 1  18F12AF3x       Rx   d 8 00 00 00 00 00 00 00 00
 1.083330 1  CFF21CAx        Rx   d 8 01 00 80 0C 28 3D 00 10
 1.083869 1  18F12BF3x       Rx   d 8 00 00 00 00 00 00 00 00
 1.084824 1  18F12CF3x       Rx   d 8 00 00 00 00 00 00 00 00
 1.085934 1  18F12DF3x       Rx   d 8 00 00 00 00 00 00 00 00
 1.086767 1  18F12EF3x       Rx   d 8 00 00 00 00 00 00 00 00
 1.087668 1  18F12FF3x       Rx   d 8 00 00 00 00 00 00 00 00
 1.088674 1  18F130F3x       Rx   d 8 00 00 00 00 00 00 00 00
 1.089524 1  18F131F3x       Rx   d 8 00 00 00 00 00 00 00 00
 1.090505 1  18F132F3x       Rx   d 8 00 00 00 00 00 00 00 00
 1.091270 1  18F100D0x       Rx   d 8 0C FF FF FF FF FF FF FF
 1.091850 1  18F133F3x       Rx   d 8 00 00 00 00 00 00 00 00
 1.092773 1  18F134F3x       Rx   d 8 00 00 00 00 00 00 00 00
 1.093651 1  18F135F3x       Rx   d 8 00 00 00 00 00 00 00 00
 1.094625 1  18F136F3x       Rx   d 8 00 00 00 00 00 00 00 00
 1.095260 1  CFF21CAx        Rx   d 8 01 00 80 0C 28 3D 00 10
 1.095849 1  18F137F3x       Rx   d 8 00 00 00 00 00 00 00 00
 1.096767 1  18F138F3x       Rx   d 8 00 00 00 00 00 00 00 00
 1.097650 1  18F139F3x       Rx   d 8 00 00 00 00 00 00 00 00
 1.098591 1  18F13AF3x       Rx   d 8 00 00 00 00 00 00 00 00
 1.099571 1  18F13BF3x       Rx   d 8 00 00 00 00 00 00 00 00
 1.100308 1  18F13CF3x       Rx   d 8 00 00 00 00 00 00 00 00
 1.101239 1  18F155F3x       Rx   d 8 36 36 36 36 36 36 35 00
 1.102050 1  18F156F3x       Rx   d 8 00 00 00 00 00 00 00 00
 1.102990 1  18F157F3x       Rx   d 8 00 00 00 00 00 00 00 00
 1.103850 1  18F158F3x       Rx   d 8 00 00 00 00 00 00 00 00
 1.104841 1  18F159F3x       Rx   d 8 00 00 00 00 00 00 00 00
 1.105938 1  18F15AF3x       Rx   d 8 00 00 00 00 00 00 00 00
 1.106696 1  18F15BF3x       Rx   d 7 00 00 00 00 00 00 00
 1.107373 1  CFF21CAx        Rx   d 8 01 00 80 0C 28 3D 00 10
 1.107950 1  18F15CF3x       Rx   d 8 00 00 00 00 00 00 00 00
 1.108871 1  18F15DF3x       Rx   d 8 00 00 00 00 00 00 00 00
 1.109696 1  18F15EF3x       Rx   d 8 00 00 00 00 00 00 00 00
 1.111396 1  18F100D0x       Rx   d 8 0C FF FF FF FF FF FF FF
 1.119621 1  CFF21CAx        Rx   d 8 02 00 80 0C 28 3D 00 10
 1.131553 1  CFF21CAx        Rx   d 8 02 00 80 0C 28 3D 00 10
 1.132094 1  18F100D0x       Rx   d 8 0C FF FF FF FF FF FF FF
 1.143827 1  CFF21CAx        Rx   d 8 02 00 80 0C 28 3D 00 10
 1.151580 1  18F100D0x       Rx   d 8 0C FF FF FF FF FF FF FF
 1.152876 1  18F100F3x       Rx   d 8 03 39 7D 1F F3 FA 14 00
 1.153738 1  18F102F3x       Rx   d 8 10 25 10 1C 10 0C 00 09
 1.155145 1  18F106F3x       Rx   d 8 45 E0 FC FF FF FF FF FF
 1.155694 1  CFF21CAx        Rx   d 8 03 00 80 0C 28 3D 00 10
 1.156328 1  18F107F3x       Rx   d 8 36 B0 27 10 01 4A 00 00
 1.158166 1  18F108F3x       Rx   d 8 00 00 00 00 00 00 00 00
 1.159037 1  18F155F3x       Rx   d 8 36 36 36 36 36 36 35 00
 1.159930 1  18F156F3x       Rx   d 8 00 00 00 00 00 00 00 00
 1.160812 1  18F157F3x       Rx   d 8 00 00 00 00 00 00 00 00
 1.161734 1  18F158F3x       Rx   d 8 00 00 00 00 00 00 00 00
 1.162665 1  18F159F3x       Rx   d 8 00 00 00 00 00 00 00 00
 1.163641 1  18F15AF3x       Rx   d 8 00 00 00 00 00 00 00 00
 1.164432 1  18F15BF3x       Rx   d 7 00 00 00 00 00 00 00
 1.165263 1  18F15CF3x       Rx   d 8 00 00 00 00 00 00 00 00
 1.166101 1  18F15DF3x       Rx   d 8 00 00 00 00 00 00 00 00
 1.166954 1  18F15EF3x       Rx   d 8 00 00 00 00 00 00 00 00
 1.167707 1  CFF21CAx        Rx   d 8 03 00 80 0C 28 3D 00 10
 1.171821 1  18F100D0x       Rx   d 8 0C FF FF FF FF FF FF FF
 1.180000 1  CFF21CAx        Rx   d 8 03 00 80 0C 28 3D 00 10
 1.191873 1  CFF21CAx        Rx   d 8 03 00 80 0C 28 3D 00 10
 1.192397 1  18F100D0x       Rx   d 8 0C FF FF FF FF FF FF FF
 1.204022 1  CFF21CAx        Rx   d 8 03 00 80 0C 28 3D 00 10
 1.226621 1  18FF2112x       Rx   d 8 01 00 00 00 00 00 00 00
 1.226759 1  18F100D0x       Rx   d 8 0C FF FF FF FF FF FF FF
 1.226854 1  CFF21CAx        Rx   d 8 03 00 80 0C 28 3D 00 10
 1.227888 1  CFF21CAx        Rx   d 8 03 00 80 0C 28 3D 00 10
 1.231836 1  18F100D0x       Rx   d 8 0C FF FF FF FF FF FF FF
 1.239870 1  CFF21CAx        Rx   d 8 03 00 80 0C 28 3D 00 10
 1.251984 1  CFF21CAx        Rx   d 8 02 00 80 0C 28 3D 00 10
 1.252525 1  18F100D0x       Rx   d 8 0C FF FF FF FF FF FF FF
 1.253077 1  18F100F3x       Rx   d 8 03 39 7D 1B F3 FA 14 00
 1.253932 1  18F102F3x       Rx   d 8 10 23 10 1C 10 05 00 07
 1.255241 1  18F106F3x       Rx   d 8 45 E0 FC FF FF FF FF FF
 1.256481 1  18F107F3x       Rx   d 8 36 B0 27 10 01 4A 00 00
 1.258269 1  18F108F3x       Rx   d 8 00 00 00 00 00 00 00 00
 1.259115 1  18F155F3x       Rx   d 8 36 36 36 36 36 36 35 00
 1.260011 1  18F156F3x       Rx   d 8 00 00 00 00 00 00 00 00
 1.260905 1  18F157F3x       Rx   d 8 00 00 00 00 00 00 00 00
 1.261767 1  18F158F3x       Rx   d 8 00 00 00 00 00 00 00 00
 1.262670 1  18F159F3x       Rx   d 8 00 00 00 00 00 00 00 00
 1.263593 1  18F15AF3x       Rx   d 8 00 00 00 00 00 00 00 00
 1.264232 1  CFF21CAx        Rx   d 8 02 00 80 0C 28 3D 00 10
 1.264694 1  18F15BF3x       Rx   d 7 00 00 00 00 00 00 00
 1.265857 1  18F15CF3x       Rx   d 8 00 00 00 00 00 00 00 00
 1.266708 1  18F15DF3x       Rx   d 8 00 00 00 00 00 00 00 00
 1.267594 1  18F15EF3x       Rx   d 8 00 00 00 00 00 00 00 00
 1.271986 1  18F100D0x       Rx   d 8 0C FF FF FF FF FF FF FF
 1.276166 1  CFF21CAx        Rx   d 8 02 00 80 0C 28 3D 00 10
 1.288064 1  CFF21CAx        Rx   d 8 02 00 80 0C 28 3D 00 10
 1.292123 1  18F100D0x       Rx   d 8 0C FF FF FF FF FF FF FF
 1.300258 1  CFF21CAx        Rx   d 8 02 00 80 0C 28 3D 00 10
 1.307788 1  18FF2112x       Rx   d 8 01 00 00 00 00 00 00 00
 1.312283 1  CFF21CAx        Rx   d 8 02 00 80 0C 28 3D 00 10
 1.312755 1  18F100D0x       Rx   d 8 0C FF FF FF FF FF FF FF
 1.324367 1  CFF21CAx        Rx   d 8 02 00 80 0C 28 3D 00 10
 1.332410 1  18F100D0x       Rx   d 8 0C FF FF FF FF FF FF FF
 1.336372 1  CFF21CAx        Rx   d 8 02 00 80 0C 28 3D 00 10
 1.348536 1  CFF21CAx        Rx   d 8 02 00 80 0C 28 3D 00 10
 1.352400 1  18F100D0x       Rx   d 8 0C FF FF FF FF FF FF FF
 1.352846 1  18F100F3x       Rx   d 8 03 39 7D 1B F3 FA 14 00
 1.353725 1  18F102F3x       Rx   d 8 10 23 10 1C 10 05 00 07
 1.355238 1  18F106F3x       Rx   d 8 45 E0 FC FF FF FF FF FF
 1.356407 1  18F107F3x       Rx   d 8 36 B0 27 10 01 4A 00 00
 1.358065 1  18F108F3x       Rx   d 8 00 00 00 00 00 00 00 00
 1.358905 1  18F155F3x       Rx   d 8 36 36 36 36 36 36 35 00
 1.359830 1  18F156F3x       Rx   d 8 00 00 00 00 00 00 00 00
 1.360375 1  CFF21CAx        Rx   d 8 02 00 80 0C 28 3D 00 10
 1.361010 1  18F157F3x       Rx   d 8 00 00 00 00 00 00 00 00
 1.361870 1  18F158F3x       Rx   d 8 00 00 00 00 00 00 00 00
 1.362767 1  18F159F3x       Rx   d 8 00 00 00 00 00 00 00 00
 1.363759 1  18F15AF3x       Rx   d 8 00 00 00 00 00 00 00 00
 1.364585 1  18F15BF3x       Rx   d 7 00 00 00 00 00 00 00
 1.365781 1  18F15CF3x       Rx   d 8 00 00 00 00 00 00 00 00
 1.366660 1  18F15DF3x       Rx   d 8 00 00 00 00 00 00 00 00
 1.367614 1  18F15EF3x       Rx   d 8 00 00 00 00 00 00 00 00
 1.372541 1  CFF21CAx        Rx   d 8 02 00 80 0C 28 3D 00 10
 1.373065 1  18F100D0x       Rx   d 8 0C FF FF FF FF FF FF FF
 1.384796 1  CFF21CAx        Rx   d 8 02 00 80 0C 28 3D 00 10
 1.396984 1  CFF21CAx        Rx   d 8 02 00 80 0C 28 3D 00 10
 1.397347 1  18F100D0x       Rx   d 8 0C FF FF FF FF FF FF FF
 1.405723 1  18FF2112x       Rx   d 8 01 00 00 00 00 00 00 00
 1.408700 1  CFF21CAx        Rx   d 8 02 00 80 0C 28 3D 00 10
 1.416751 1  18F100D0x       Rx   d 8 0C FF FF FF FF FF FF FF
 1.420839 1  CFF21CAx        Rx   d 8 02 00 80 0C 28 3D 00 10
 1.446764 1  CFF21CAx        Rx   d 8 02 00 80 0C 28 3D 00 10
 1.446917 1  18F100D0x       Rx   d 8 0C FF FF FF FF FF FF FF
 1.447025 1  CFF21CAx        Rx   d 8 01 00 80 0C 28 3D 00 10
 1.452844 1  18F100F3x       Rx   d 8 03 39 7D 1B F3 FA 14 00
 1.453681 1  18F102F3x       Rx   d 8 10 23 10 1C 10 05 00 07
 1.454979 1  18F106F3x       Rx   d 8 45 E0 FC FF FF FF FF FF
 1.456309 1  18F107F3x       Rx   d 8 36 B0 27 10 01 4A 00 00
 1.456845 1  CFF21CAx        Rx   d 8 01 00 80 0C 28 3D 00 10
 1.458067 1  18F108F3x       Rx   d 8 00 00 00 00 00 00 00 00
 1.458920 1  18F155F3x       Rx   d 8 36 36 36 36 36 36 35 00
 1.459822 1  18F156F3x       Rx   d 8 00 00 00 00 00 00 00 00
 1.460701 1  18F157F3x       Rx   d 8 00 00 00 00 00 00 00 00
 1.461276 1  18F100D0x       Rx   d 8 0C FF FF FF FF FF FF FF
 1.461869 1  18F158F3x       Rx   d 8 00 00 00 00 00 00 00 00
 1.462752 1  18F159F3x       Rx   d 8 00 00 00 00 00 00 00 00
 1.463663 1  18F15AF3x       Rx   d 8 00 00 00 00 00 00 00 00
 1.464518 1  18F15BF3x       Rx   d 7 00 00 00 00 00 00 00
 1.465716 1  18F15CF3x       Rx   d 8 00 00 00 00 00 00 00 00
 1.466601 1  18F15DF3x       Rx   d 8 00 00 00 00 00 00 00 00
 1.467494 1  18F15EF3x       Rx   d 8 00 00 00 00 00 00 00 00
 1.468853 1  CFF21CAx        Rx   d 8 01 00 80 0C 28 3D 00 10
 1.480883 1  CFF21CAx        Rx   d 8 01 00 80 0C 28 3D 00 10
 1.481432 1  18F100D0x       Rx   d 8 0C FF FF FF FF FF FF FF
 1.492985 1  CFF21CAx        Rx   d 8 01 00 80 0C 28 3D 00 10
 1.501105 1  18F100D0x       Rx   d 8 0C FF FF FF FF FF FF FF
 1.502315 1  18FF2112x       Rx   d 8 01 00 00 00 00 00 00 00
 1.504969 1  CFF21CAx        Rx   d 8 01 00 80 0C 28 3D 00 10
 1.517067 1  CFF21CAx        Rx   d 8 01 00 80 0C 28 3D 00 10
 1.525059 1  18F100D0x       Rx   d 8 0C FF FF FF FF FF FF FF
 1.529046 1  CFF21CAx        Rx   d 8 01 00 80 0C 28 3D 00 10
 1.541119 1  CFF21CAx        Rx   d 8 02 00 80 0C 28 3D 00 10
 1.545125 1  18F100D0x       Rx   d 8 0C FF FF FF FF FF FF FF
 1.552930 1  18F100F3x       Rx   d 8 03 39 7D 2F F3 FA 14 00
 1.553440 1  CFF21CAx        Rx   d 8 02 00 80 0C 28 3D 00 10
 1.553979 1  18F102F3x       Rx   d 8 10 23 10 1C 10 05 00 07
 1.556621 1  18F106F3x       Rx   d 8 45 E0 FC FF FF FF FF FF
 1.556854 1  18F107F3x       Rx   d 8 38 A4 27 10 01 73 00 00
 1.558288 1  18F108F3x       Rx   d 8 00 00 00 00 00 00 00 00
 1.559129 1  18F155F3x       Rx   d 8 36 36 36 36 36 36 35 00
 1.560042 1  18F156F3x       Rx   d 8 00 00 00 00 00 00 00 00
 1.560874 1  18F157F3x       Rx   d 8 00 00 00 00 00 00 00 00
 1.561801 1  18F158F3x       Rx   d 8 00 00 00 00 00 00 00 00
 1.562724 1  18F159F3x       Rx   d 8 00 00 00 00 00 00 00 00
 1.563676 1  18F15AF3x       Rx   d 8 00 00 00 00 00 00 00 00
 1.564489 1  18F15BF3x       Rx   d 7 00 00 00 00 00 00 00
 1.565224 1  CFF21CAx        Rx   d 8 02 00 80 0C 28 3D 00 10
 1.565738 1  18F100D0x       Rx   d 8 0C FF FF FF FF FF FF FF
 1.566308 1  18F15CF3x       Rx   d 8 00 00 00 00 00 00 00 00
 1.567255 1  18F15DF3x       Rx   d 8 00 00 00 00 00 00 00 00
 1.568007 1  18F15EF3x       Rx   d 8 00 00 00 00 00 00 00 00
 1.577232 1  CFF21CAx        Rx   d 8 02 00 80 0C 28 3D 00 10
 1.585427 1  18F100D0x       Rx   d 8 0C FF FF FF FF FF FF FF
 1.589475 1  CFF21CAx        Rx   d 8 02 00 80 0C 28 3D 00 10
 1.599762 1  18FF2112x       Rx   d 8 01 00 00 00 00 00 00 00
 1.601415 1  CFF21CAx        Rx   d 8 02 00 80 0C 28 3D 00 10
 1.605496 1  18F100D0x       Rx   d 8 0C FF FF FF FF FF FF FF
 1.613602 1  CFF21CAx        Rx   d 8 02 00 80 0C 28 3D 00 10
 1.625572 1  CFF21CAx        Rx   d 8 02 00 80 0C 28 3D 00 10
 1.629593 1  18F100D0x       Rx   d 8 0C FF FF FF FF FF FF FF
 1.637627 1  CFF21CAx        Rx   d 8 01 00 80 0C 28 3D 00 10
 1.666474 1  CFF21CAx        Rx   d 8 01 00 80 0C 28 3D 00 10
 1.666632 1  18F100F3x       Rx   d 8 03 39 7D 2F F3 FA 14 00
 1.666757 1  18F100D0x       Rx   d 8 0C FF FF FF FF FF FF FF
 1.666860 1  18F102F3x       Rx   d 8 10 22 10 1C 10 05 00 06
 1.666970 1  18F106F3x       Rx   d 8 45 E0 FC FF FF FF FF FF
 1.667071 1  18F107F3x       Rx   d 8 38 A4 27 10 01 73 00 00
 1.667175 1  18F108F3x       Rx   d 8 00 00 00 00 00 00 00 00
 1.667293 1  18F155F3x       Rx   d 8 36 36 36 36 36 36 35 00
 1.667397 1  18F156F3x       Rx   d 8 00 00 00 00 00 00 00 00
 1.667499 1  18F157F3x       Rx   d 8 00 00 00 00 00 00 00 00
 1.667598 1  CFF21CAx        Rx   d 8 01 00 80 0C 28 3D 00 10
 1.667698 1  18F158F3x       Rx   d 8 00 00 00 00 00 00 00 00
 1.667794 1  18F159F3x       Rx   d 8 00 00 00 00 00 00 00 00
 1.667892 1  18F15AF3x       Rx   d 8 00 00 00 00 00 00 00 00
 1.668061 1  18F15BF3x       Rx   d 7 00 00 00 00 00 00 00
 1.668202 1  18F15CF3x       Rx   d 8 00 00 00 00 00 00 00 00
 1.668317 1  18F15DF3x       Rx   d 8 00 00 00 00 00 00 00 00
 1.668420 1  18F15EF3x       Rx   d 8 00 00 00 00 00 00 00 00
 1.673622 1  CFF21CAx        Rx   d 8 01 00 80 0C 28 3D 00 10
 1.674218 1  18F100D0x       Rx   d 8 0C FF FF FF FF FF FF FF
 1.685691 1  CFF21CAx        Rx   d 8 01 00 80 0C 28 3D 00 10
 1.693700 1  18F100D0x       Rx   d 8 0C FF FF FF FF FF FF FF
 1.696882 1  18FF2112x       Rx   d 8 01 00 00 00 00 00 00 00
 1.697717 1  CFF21CAx        Rx   d 8 00 00 80 0C 28 3D 00 10
 1.709812 1  CFF21CAx        Rx   d 8 00 00 80 0C 28 3D 00 10
 1.717847 1  18F100D0x       Rx   d 8 0C FF FF FF FF FF FF FF
 1.721787 1  CFF21CAx        Rx   d 8 00 00 80 0C 28 3D 00 10
 1.733868 1  CFF21CAx        Rx   d 8 00 00 80 0C 28 3D 00 10
 1.737857 1  18F100D0x       Rx   d 8 0C FF FF FF FF FF FF FF
 1.745964 1  CFF21CAx        Rx   d 8 00 00 80 0C 28 3D 00 10
 1.752865 1  18F100F3x       Rx   d 8 03 39 7D 12 F3 FA 14 00
 1.753718 1  18F102F3x       Rx   d 8 10 22 10 1C 10 05 00 06
 1.755150 1  18F106F3x       Rx   d 8 45 E0 FC FF FF FF FF FF
 1.756330 1  18F107F3x       Rx   d 8 38 A4 27 10 01 73 00 00
 1.758259 1  CFF21CAx        Rx   d 8 01 00 80 0C 28 3D 00 10
 1.758535 1  18F108F3x       Rx   d 8 00 00 00 00 00 00 00 00
 1.759467 1  18F155F3x       Rx   d 8 36 36 36 36 36 36 35 00
 1.760324 1  18F156F3x       Rx   d 8 00 00 00 00 00 00 00 00
 1.761214 1  18F157F3x       Rx   d 8 00 00 00 00 00 00 00 00
 1.761961 1  18F100D0x       Rx   d 8 0C FF FF FF FF FF FF FF
 1.762539 1  18F158F3x       Rx   d 8 00 00 00 00 00 00 00 00
 1.763556 1  18F159F3x       Rx   d 8 00 00 00 00 00 00 00 00
 1.764340 1  18F15AF3x       Rx   d 8 00 00 00 00 00 00 00 00
 1.765262 1  18F15BF3x       Rx   d 7 00 00 00 00 00 00 00
 1.766016 1  18F15CF3x       Rx   d 8 00 00 00 00 00 00 00 00
 1.766874 1  18F15DF3x       Rx   d 8 00 00 00 00 00 00 00 00
 1.767714 1  18F15EF3x       Rx   d 8 00 00 00 00 00 00 00 00
 1.770046 1  CFF21CAx        Rx   d 8 01 00 80 0C 28 3D 00 10
 1.782324 1  CFF21CAx        Rx   d 8 01 00 80 0C 28 3D 00 10
 1.786296 1  18F100D0x       Rx   d 8 0C FF FF FF FF FF FF FF
 1.794276 1  18FF2112x       Rx   d 8 01 00 00 00 00 00 00 00
 1.794841 1  CFF21CAx        Rx   d 8 16 00 80 0C 28 3D 00 10
 1.806404 1  CFF21CAx        Rx   d 8 16 00 80 0C 28 3D 00 10
 1.810411 1  18F100D0x       Rx   d 8 0C FF FF FF FF FF FF FF
 1.818466 1  CFF21CAx        Rx   d 8 16 00 80 0C 28 3D 00 10
 1.831096 1  CFF21CAx        Rx   d 8 27 00 80 0C 28 3D 00 10
 1.831434 1  18F100D0x       Rx   d 8 0C FF FF FF FF FF FF FF
 1.842564 1  CFF21CAx        Rx   d 8 27 00 80 0C 28 3D 00 10
 1.850615 1  18F100D0x       Rx   d 8 0C FF FF FF FF FF FF FF
 1.852974 1  18F100F3x       Rx   d 8 03 39 7D 12 F3 FA 14 00
 1.853886 1  18F102F3x       Rx   d 8 10 22 10 1C 10 05 00 06
 1.854578 1  CFF21CAx        Rx   d 8 27 00 80 0C 28 3D 00 10
 1.855154 1  18F106F3x       Rx   d 8 45 E0 FC FF FF FF FF FF
 1.856432 1  18F107F3x       Rx   d 8 38 A4 27 10 01 73 00 00
 1.858194 1  18F108F3x       Rx   d 8 00 00 00 00 00 00 00 00
 1.859054 1  18F155F3x       Rx   d 8 36 36 36 36 36 36 35 00
 1.859942 1  18F156F3x       Rx   d 8 00 00 00 00 00 00 00 00
 1.860841 1  18F157F3x       Rx   d 8 00 00 00 00 00 00 00 00
 1.861754 1  18F158F3x       Rx   d 8 00 00 00 00 00 00 00 00
 1.862701 1  18F159F3x       Rx   d 8 00 00 00 00 00 00 00 00
 1.863627 1  18F15AF3x       Rx   d 8 00 00 00 00 00 00 00 00
 1.864425 1  18F15BF3x       Rx   d 7 00 00 00 00 00 00 00
 1.865377 1  18F15CF3x       Rx   d 8 00 00 00 00 00 00 00 00
 1.866134 1  18F15DF3x       Rx   d 8 00 00 00 00 00 00 00 00
 1.866705 1  CFF21CAx        Rx   d 8 34 00 80 0C 28 3D 00 10
 1.867337 1  18F15EF3x       Rx   d 8 00 00 00 00 00 00 00 00
 1.870629 1  18F100D0x       Rx   d 8 0C FF FF FF FF FF FF FF
 1.886057 1  CFF21CAx        Rx   d 8 34 00 80 0C 28 3D 00 10
 1.890865 1  CFF21CAx        Rx   d 8 27 00 80 0C 28 3D 00 10
 1.891391 1  18FF2112x       Rx   d 8 01 00 00 00 00 00 00 00
 1.898850 1  18F100D0x       Rx   d 8 0C FF FF FF FF FF FF FF
 1.902822 1  CFF21CAx        Rx   d 8 27 00 80 0C 28 3D 00 10
 1.914937 1  CFF21CAx        Rx   d 8 27 00 80 0C 28 3D 00 10
 1.922981 1  18F100D0x       Rx   d 8 0C FF FF FF FF FF FF FF
 1.926931 1  CFF21CAx        Rx   d 8 1E 00 80 0C 28 3D 00 10
 1.939465 1  CFF21CAx        Rx   d 8 1E 00 80 0C 28 3D 00 10
 1.951098 1  CFF21CAx        Rx   d 8 18 00 80 0C 28 3D 00 10
 1.951646 1  18F100D0x       Rx   d 8 0C FF FF FF FF FF FF FF
 1.952850 1  18F100F3x       Rx   d 8 03 39 7D 12 F3 FA 14 00
 1.953728 1  18F102F3x       Rx   d 8 10 22 10 1C 10 05 00 06
 1.955019 1  18F106F3x       Rx   d 8 45 E0 FC FF FF FF FF FF
 1.956324 1  18F107F3x       Rx   d 8 38 A4 27 10 01 73 00 00
 1.958084 1  18F108F3x       Rx   d 8 00 00 00 00 00 00 00 00
 1.958954 1  18F155F3x       Rx   d 8 36 36 36 36 36 36 35 00
 1.959835 1  18F156F3x       Rx   d 8 00 00 00 00 00 00 00 00
 1.960742 1  18F157F3x       Rx   d 8 00 00 00 00 00 00 00 00
 1.961668 1  18F158F3x       Rx   d 8 00 00 00 00 00 00 00 00
 1.962585 1  18F159F3x       Rx   d 8 00 00 00 00 00 00 00 00
 1.964545 1  CFF21CAx        Rx   d 8 18 00 80 0C 28 3D 00 10
 1.964742 1  18F15AF3x       Rx   d 8 00 00 00 00 00 00 00 00
 1.964867 1  18F15BF3x       Rx   d 7 00 00 00 00 00 00 00
 1.965801 1  18F15CF3x       Rx   d 8 00 00 00 00 00 00 00 00
 1.966690 1  18F15DF3x       Rx   d 8 00 00 00 00 00 00 00 00
 1.967524 1  18F15EF3x       Rx   d 8 00 00 00 00 00 00 00 00
 1.975185 1  CFF21CAx        Rx   d 8 18 00 80 0C 28 3D 00 10
 1.979246 1  18F100D0x       Rx   d 8 0C FF FF FF FF FF FF FF
 1.987320 1  CFF21CAx        Rx   d 8 14 00 80 0C 28 3D 00 10
 1.988749 1  18FF2112x       Rx   d 8 01 00 00 00 00 00 00 00
 1.999379 1  CFF21CAx        Rx   d 8 14 00 80 0C 28 3D 00 10
 1.999857 1  18F100D0x       Rx   d 8 0C FF FF FF FF FF FF FF
 2.011891 1  CFF21CAx        Rx   d 8 14 00 80 0C 28 3D 00 10
 2.023520 1  CFF21CAx        Rx   d 8 10 00 80 0C 28 3D 00 10
 2.027943 1  18F100D0x       Rx   d 8 0C FF FF FF FF FF FF FF
 2.036048 1  CFF21CAx        Rx   d 8 10 00 80 0C 28 3D 00 10
 2.047517 1  CFF21CAx        Rx   d 8 10 00 80 0C 28 3D 00 10
 2.051544 1  18F100D0x       Rx   d 8 0C FF FF FF FF FF FF FF
 2.052952 1  18F100F3x       Rx   d 8 03 39 7D 1B F3 FA 14 00
 2.054014 1  18F102F3x       Rx   d 8 10 22 10 1C 10 05 00 06
 2.054880 1  18F106F3x       Rx   d 8 45 E0 FC FF FF FF FF FF
 2.056562 1  18F107F3x       Rx   d 8 38 A4 27 10 01 73 00 00
 2.058416 1  18F108F3x       Rx   d 8 00 00 00 00 00 00 00 00
 2.059365 1  18F104F3x       Rx   d 8 36 35 01 07 01 FF FF FF
 2.060075 1  CFF21CAx        Rx   d 8 0D 00 80 0C 28 3D 00 10
 2.060625 1  18F113F3x       Rx   d 8 10 1E 10 1F 10 1E 10 1F
 2.061606 1  18F114F3x       Rx   d 8 10 1C 10 1C 10 1F 10 1F
 2.062589 1  18F115F3x       Rx   d 8 10 1D 10 1C 10 1C 10 1C
 2.063555 1  18F116F3x       Rx   d 8 10 20 10 1F 10 21 10 22
 2.064139 1  18FECACAx       Rx   d 8 00 00 00 00 00 00 FF FF
 2.064686 1  18F117F3x       Rx   d 8 10 1D 10 1E 10 22 10 21
 2.065935 1  18F118F3x       Rx   d 8 00 00 00 00 00 00 00 00
 2.066906 1  18F119F3x       Rx   d 8 00 00 00 00 00 00 00 00
 2.067885 1  18F11AF3x       Rx   d 8 00 00 00 00 00 00 00 00
 2.068855 1  18F11BF3x       Rx   d 8 00 00 00 00 00 00 00 00
 2.069838 1  18F11CF3x       Rx   d 8 00 00 00 00 00 00 00 00
 2.070814 1  18F11DF3x       Rx   d 8 00 00 00 00 00 00 00 00
 2.071643 1  CFF21CAx        Rx   d 8 0D 00 80 0C 28 3D 00 10
 2.072220 1  18F11EF3x       Rx   d 8 00 00 00 00 00 00 00 00
 2.073140 1  18F11FF3x       Rx   d 8 00 00 00 00 00 00 00 00
 2.074080 1  18F120F3x       Rx   d 8 00 00 00 00 00 00 00 00
 2.074998 1  18F121F3x       Rx   d 8 00 00 00 00 00 00 00 00
 2.076094 1  18F100D0x       Rx   d 8 0C FF FF FF FF FF FF FF
 2.076656 1  18F122F3x       Rx   d 8 00 00 00 00 00 00 00 00
 2.077622 1  18F123F3x       Rx   d 8 00 00 00 00 00 00 00 00
 2.078592 1  18F124F3x       Rx   d 8 00 00 00 00 00 00 00 00
 2.079501 1  18F125F3x       Rx   d 8 00 00 00 00 00 00 00 00
 2.080412 1  18F126F3x       Rx   d 8 00 00 00 00 00 00 00 00
 2.081382 1  18F127F3x       Rx   d 8 00 00 00 00 00 00 00 00
 2.082208 1  18F128F3x       Rx   d 8 00 00 00 00 00 00 00 00
 2.083120 1  18F129F3x       Rx   d 8 00 00 00 00 00 00 00 00
 2.083970 1  CFF21CAx        Rx   d 8 0B 00 80 0C 28 3D 00 10
 2.084350 1  18F12AF3x       Rx   d 8 00 00 00 00 00 00 00 00
 2.085192 1  18F12BF3x       Rx   d 8 00 00 00 00 00 00 00 00
 2.085988 1  18FF2112x       Rx   d 8 01 00 00 00 00 00 00 00
 2.086606 1  18F12CF3x       Rx   d 8 00 00 00 00 00 00 00 00
 2.087560 1  18F12DF3x       Rx   d 8 00 00 00 00 00 00 00 00
 2.088500 1  18F12EF3x       Rx   d 8 00 00 00 00 00 00 00 00
 2.089448 1  18F12FF3x       Rx   d 8 00 00 00 00 00 00 00 00
 2.090339 1  18F130F3x       Rx   d 8 00 00 00 00 00 00 00 00
 2.107019 1  18F131F3x       Rx   d 8 00 00 00 00 00 00 00 00
 2.107179 1  18F132F3x       Rx   d 8 00 00 00 00 00 00 00 00
 2.107288 1  18F133F3x       Rx   d 8 00 00 00 00 00 00 00 00
 2.107389 1  18F134F3x       Rx   d 8 00 00 00 00 00 00 00 00
 2.107488 1  18F135F3x       Rx   d 8 00 00 00 00 00 00 00 00
 2.107603 1  CFF21CAx        Rx   d 8 0B 00 80 0C 28 3D 00 10
 2.107710 1  18F100D0x       Rx   d 8 0C FF FF FF FF FF FF FF
 2.107812 1  18F136F3x       Rx   d 8 00 00 00 00 00 00 00 00
 2.107911 1  18F137F3x       Rx   d 8 00 00 00 00 00 00 00 00
 2.108011 1  18F138F3x       Rx   d 8 00 00 00 00 00 00 00 00
 2.108121 1  18F139F3x       Rx   d 8 00 00 00 00 00 00 00 00
 2.108221 1  18F13AF3x       Rx   d 8 00 00 00 00 00 00 00 00
 2.108320 1  18F13BF3x       Rx   d 8 00 00 00 00 00 00 00 00
 2.108521 1  18F13CF3x       Rx   d 8 00 00 00 00 00 00 00 00
 2.108621 1  18F155F3x       Rx   d 8 36 36 36 36 36 36 35 00
 2.108735 1  18F156F3x       Rx   d 8 00 00 00 00 00 00 00 00
 2.108895 1  18F157F3x       Rx   d 8 00 00 00 00 00 00 00 00
 2.109034 1  18F158F3x       Rx   d 8 00 00 00 00 00 00 00 00
 2.109148 1  18F159F3x       Rx   d 8 00 00 00 00 00 00 00 00
 2.109251 1  18F15AF3x       Rx   d 8 00 00 00 00 00 00 00 00
 2.109350 1  CFF21CAx        Rx   d 8 0B 00 80 0C 28 3D 00 10
 2.109445 1  18F15BF3x       Rx   d 7 00 00 00 00 00 00 00
 2.109705 1  18F15CF3x       Rx   d 8 00 00 00 00 00 00 00 00
 2.110601 1  18F15DF3x       Rx   d 8 00 00 00 00 00 00 00 00
 2.111488 1  18F15EF3x       Rx   d 8 00 00 00 00 00 00 00 00
 2.119743 1  CFF21CAx        Rx   d 8 09 00 80 0C 28 3D 00 10
 2.123761 1  18F100D0x       Rx   d 8 0C FF FF FF FF FF FF FF
 2.132236 1  CFF21CAx        Rx   d 8 09 00 80 0C 28 3D 00 10
 2.143776 1  CFF21CAx        Rx   d 8 08 00 80 0C 28 3D 00 10
 2.147814 1  18F100D0x       Rx   d 8 0C FF FF FF FF FF FF FF
 2.152840 1  18F100F3x       Rx   d 8 03 39 7D 1B F3 FA 14 00
 2.153702 1  18F102F3x       Rx   d 8 10 22 10 1C 10 05 00 06
 2.154991 1  18F106F3x       Rx   d 8 45 E0 FC FF FF FF FF FF
 2.156285 1  18F107F3x       Rx   d 8 38 A4 27 10 01 73 00 00
 2.156823 1  CFF21CAx        Rx   d 8 08 00 80 0C 28 3D 00 10
 2.158079 1  18F108F3x       Rx   d 8 00 00 00 00 00 00 00 00
 2.158932 1  18F155F3x       Rx   d 8 36 36 36 36 36 36 35 00
 2.159856 1  18F156F3x       Rx   d 8 00 00 00 00 00 00 00 00
 2.160740 1  18F157F3x       Rx   d 8 00 00 00 00 00 00 00 00
 2.161660 1  18F158F3x       Rx   d 8 00 00 00 00 00 00 00 00
 2.162583 1  18F159F3x       Rx   d 8 00 00 00 00 00 00 00 00
 2.163506 1  18F15AF3x       Rx   d 8 00 00 00 00 00 00 00 00
 2.164331 1  18F15BF3x       Rx   d 7 00 00 00 00 00 00 00
 2.165238 1  18F15CF3x       Rx   d 8 00 00 00 00 00 00 00 00
 2.166041 1  18F15DF3x       Rx   d 8 00 00 00 00 00 00 00 00
 2.167134 1  18F15EF3x       Rx   d 8 00 00 00 00 00 00 00 00
 2.167900 1  CFF21CAx        Rx   d 8 08 00 80 0C 28 3D 00 10
 2.175932 1  18F100D0x       Rx   d 8 0C FF FF FF FF FF FF FF
 2.179942 1  CFF21CAx        Rx   d 8 08 00 80 0C 28 3D 00 10
 2.183228 1  18FF2112x       Rx   d 8 01 00 00 00 00 00 00 00
 2.192001 1  CFF21CAx        Rx   d 8 07 00 80 0C 28 3D 00 10
 2.204589 1  CFF21CAx        Rx   d 8 07 00 80 0C 28 3D 00 10
 2.205098 1  18F100D0x       Rx   d 8 0C FF FF FF FF FF FF FF
 2.216154 1  CFF21CAx        Rx   d 8 06 00 80 0C 28 3D 00 10
 2.228819 1  CFF21CAx        Rx   d 8 06 00 80 0C 28 3D 00 10
 2.229303 1  18F100D0x       Rx   d 8 0C FF FF FF FF FF FF FF
 2.240259 1  CFF21CAx        Rx   d 8 06 00 80 0C 28 3D 00 10
 2.248279 1  18F100D0x       Rx   d 8 0C FF FF FF FF FF FF FF
 2.252803 1  CFF21CAx        Rx   d 8 06 00 80 0C 28 3D 00 10
 2.253377 1  18F100F3x       Rx   d 8 03 39 7D 11 F3 FA 14 00
 2.254058 1  18F102F3x       Rx   d 8 10 23 10 1C 10 06 00 07
 2.255309 1  18F106F3x       Rx   d 8 45 E0 FC FF FF FF FF FF
 2.256734 1  18F107F3x       Rx   d 8 38 A4 27 10 01 73 00 00
 2.258374 1  18F108F3x       Rx   d 8 00 00 00 00 00 00 00 00
 2.259366 1  18F155F3x       Rx   d 8 36 36 36 36 36 36 35 00
 2.260245 1  18F156F3x       Rx   d 8 00 00 00 00 00 00 00 00
 2.261124 1  18F157F3x       Rx   d 8 00 00 00 00 00 00 00 00
 2.262008 1  18F158F3x       Rx   d 8 00 00 00 00 00 00 00 00
 2.262758 1  18F159F3x       Rx   d 8 00 00 00 00 00 00 00 00
 2.263681 1  18F15AF3x       Rx   d 8 00 00 00 00 00 00 00 00
 2.264287 1  CFF21CAx        Rx   d 8 06 00 80 0C 28 3D 00 10
 2.264813 1  18F15BF3x       Rx   d 7 00 00 00 00 00 00 00
 2.265906 1  18F15CF3x       Rx   d 8 00 00 00 00 00 00 00 00
 2.266763 1  18F15DF3x       Rx   d 8 00 00 00 00 00 00 00 00
 2.267758 1  18F15EF3x       Rx   d 8 00 00 00 00 00 00 00 00
 2.276512 1  CFF21CAx        Rx   d 8 06 00 80 0C 28 3D 00 10
 2.277058 1  18F100D0x       Rx   d 8 0C FF FF FF FF FF FF FF
 2.280633 1  18FF2112x       Rx   d 8 01 00 00 00 00 00 00 00
 2.288705 1  CFF21CAx        Rx   d 8 06 00 80 0C 28 3D 00 10
 2.301062 1  CFF21CAx        Rx   d 8 06 00 80 0C 28 3D 00 10
 2.304580 1  18F100D0x       Rx   d 8 0C FF FF FF FF FF FF FF
 2.312651 1  CFF21CAx        Rx   d 8 06 00 80 0C 28 3D 00 10
 2.329336 1  CFF21CAx        Rx   d 8 06 00 80 0C 28 3D 00 10
 2.333035 1  18F100D0x       Rx   d 8 0C FF FF FF FF FF FF FF
 2.336597 1  CFF21CAx        Rx   d 8 06 00 80 0C 28 3D 00 10
 2.349071 1  CFF21CAx        Rx   d 8 06 00 80 0C 28 3D 00 10
 2.352853 1  18F100F3x       Rx   d 8 03 39 7D 11 F3 FA 14 00
 2.353741 1  18F102F3x       Rx   d 8 10 23 10 1C 10 06 00 07
 2.355025 1  18F106F3x       Rx   d 8 45 E0 FC FF FF FF FF FF
 2.356347 1  18F107F3x       Rx   d 8 38 A4 27 10 01 73 00 00
 2.356910 1  18F100D0x       Rx   d 8 0C FF FF FF FF FF FF FF
 2.358261 1  18F108F3x       Rx   d 8 00 00 00 00 00 00 00 00
 2.359109 1  18F155F3x       Rx   d 8 36 36 36 36 36 36 35 00
 2.360001 1  18F156F3x       Rx   d 8 00 00 00 00 00 00 00 00
 2.360751 1  CFF21CAx        Rx   d 8 06 00 80 0C 28 3D 00 10
 2.361324 1  18F157F3x       Rx   d 8 00 00 00 00 00 00 00 00
 2.362248 1  18F158F3x       Rx   d 8 00 00 00 00 00 00 00 00
 2.363086 1  18F159F3x       Rx   d 8 00 00 00 00 00 00 00 00
 2.363955 1  18F15AF3x       Rx   d 8 00 00 00 00 00 00 00 00
 2.364761 1  18F15BF3x       Rx   d 7 00 00 00 00 00 00 00
 2.365921 1  18F15CF3x       Rx   d 8 00 00 00 00 00 00 00 00
 2.366775 1  18F15DF3x       Rx   d 8 00 00 00 00 00 00 00 00
 2.367646 1  18F15EF3x       Rx   d 8 00 00 00 00 00 00 00 00
 2.372815 1  CFF21CAx        Rx   d 8 06 00 80 0C 28 3D 00 10
 2.377805 1  18FF2112x       Rx   d 8 01 00 00 00 00 00 00 00
 2.380831 1  18F100D0x       Rx   d 8 0C FF FF FF FF FF FF FF
 2.384802 1  CFF21CAx        Rx   d 8 05 00 80 0C 3A 3D 00 10
 2.397337 1  CFF21CAx        Rx   d 8 05 00 80 0C 3A 3D 00 10
 2.404854 1  18F100D0x       Rx   d 8 0C FF FF FF FF FF FF FF
 2.408917 1  CFF21CAx        Rx   d 8 05 00 80 0C 3A 3D 00 10
 2.420982 1  CFF21CAx        Rx   d 8 05 00 80 0C 3A 3D 00 10
 2.425009 1  18F100D0x       Rx   d 8 0C FF FF FF FF FF FF FF
 2.433127 1  CFF21CAx        Rx   d 8 05 00 80 0C 3A 3D 00 10
 2.445614 1  CFF21CAx        Rx   d 8 05 00 80 0C 3A 3D 00 10
 2.453023 1  18F100F3x       Rx   d 8 03 39 7D 11 F3 FA 14 00
 2.453564 1  18F100D0x       Rx   d 8 0C FF FF FF FF FF FF FF
 2.454128 1  18F102F3x       Rx   d 8 10 23 10 1C 10 06 00 07
 2.455391 1  18F106F3x       Rx   d 8 45 E0 FC FF FF FF FF FF
 2.456657 1  18F107F3x       Rx   d 8 38 A4 27 10 01 73 00 00
 2.457249 1  CFF21CAx        Rx   d 8 05 00 80 0C 3A 3D 00 10
 2.458427 1  18F108F3x       Rx   d 8 00 00 00 00 00 00 00 00
 2.459343 1  18F155F3x       Rx   d 8 36 36 36 36 36 36 35 00
 2.460225 1  18F156F3x       Rx   d 8 00 00 00 00 00 00 00 00
 2.461103 1  18F157F3x       Rx   d 8 00 00 00 00 00 00 00 00
 2.462002 1  18F158F3x       Rx   d 8 00 00 00 00 00 00 00 00
 2.462874 1  18F159F3x       Rx   d 8 00 00 00 00 00 00 00 00
 2.463801 1  18F15AF3x       Rx   d 8 00 00 00 00 00 00 00 00
 2.464666 1  18F15BF3x       Rx   d 7 00 00 00 00 00 00 00
 2.465830 1  18F15CF3x       Rx   d 8 00 00 00 00 00 00 00 00
 2.466734 1  18F15DF3x       Rx   d 8 00 00 00 00 00 00 00 00
 2.467621 1  18F15EF3x       Rx   d 8 00 00 00 00 00 00 00 00
 2.469199 1  CFF21CAx        Rx   d 8 05 00 80 0C 3A 3D 00 10
 2.475212 1  18FF2112x       Rx   d 8 01 00 00 00 00 00 00 00
 2.481319 1  CFF21CAx        Rx   d 8 05 00 80 0C 3A 3D 00 10
 2.481858 1  18F100D0x       Rx   d 8 0C FF FF FF FF FF FF FF
 2.493827 1  CFF21CAx        Rx   d 8 05 00 80 0C 3A 3D 00 10
 2.505432 1  CFF21CAx        Rx   d 8 04 00 80 0C 3A 3D 00 10
 2.509417 1  18F100D0x       Rx   d 8 0C FF FF FF FF FF FF FF
 2.517507 1  CFF21CAx        Rx   d 8 04 00 80 0C 3A 3D 00 10
 2.529526 1  CFF21CAx        Rx   d 8 04 00 80 0C 3A 3D 00 10
 2.533522 1  18F100D0x       Rx   d 8 0C FF FF FF FF FF FF FF
 2.549986 1  CFF21CAx        Rx   d 8 03 00 80 0C 3A 3D 00 10
 2.552911 1  18F100F3x       Rx   d 8 03 39 7D 11 F3 FA 14 00
 2.553439 1  CFF21CAx        Rx   d 8 03 00 80 0C 3A 3D 00 10
 2.554009 1  18F100D0x       Rx   d 8 0C FF FF FF FF FF FF FF
 2.554566 1  18F102F3x       Rx   d 8 10 23 10 1C 10 06 00 07
 2.556128 1  18F106F3x       Rx   d 8 45 E0 FC FF FF FF FF FF
 2.557384 1  18F107F3x       Rx   d 8 38 A4 27 10 01 73 00 00
 2.559230 1  18F108F3x       Rx   d 8 00 00 00 00 00 00 00 00
 2.560038 1  18F155F3x       Rx   d 8 36 36 36 36 36 36 35 00
 2.560975 1  18F156F3x       Rx   d 8 00 00 00 00 00 00 00 00
 2.561869 1  18F157F3x       Rx   d 8 00 00 00 00 00 00 00 00
 2.562747 1  18F158F3x       Rx   d 8 00 00 00 00 00 00 00 00
 2.563681 1  18F159F3x       Rx   d 8 00 00 00 00 00 00 00 00
 2.564586 1  18F15AF3x       Rx   d 8 00 00 00 00 00 00 00 00
 2.565472 1  CFF21CAx        Rx   d 8 03 00 80 0C 3A 3D 00 10
 2.566005 1  18F15BF3x       Rx   d 7 00 00 00 00 00 00 00
 2.566862 1  18F15CF3x       Rx   d 8 00 00 00 00 00 00 00 00
 2.567731 1  18F15DF3x       Rx   d 8 00 00 00 00 00 00 00 00
 2.568684 1  18F15EF3x       Rx   d 8 00 00 00 00 00 00 00 00
 2.572370 1  18FF2112x       Rx   d 8 01 00 00 00 00 00 00 00
 2.577558 1  CFF21CAx        Rx   d 8 04 00 80 0C 3A 3D 00 10
 2.581598 1  18F100D0x       Rx   d 8 0C FF FF FF FF FF FF FF
 2.589596 1  CFF21CAx        Rx   d 8 04 00 80 0C 3A 3D 00 10
 2.601701 1  CFF21CAx        Rx   d 8 03 00 80 0C 3A 3D 00 10
 2.605653 1  18F100D0x       Rx   d 8 0C FF FF FF FF FF FF FF
 2.613711 1  CFF21CAx        Rx   d 8 03 00 80 0C 3A 3D 00 10
 2.625777 1  CFF21CAx        Rx   d 8 03 00 80 0C 3A 3D 00 10
 2.633845 1  18F100D0x       Rx   d 8 0C FF FF FF FF FF FF FF
 2.637841 1  CFF21CAx        Rx   d 8 04 00 80 0C 3A 3D 00 10
 2.649953 1  CFF21CAx        Rx   d 8 04 00 80 0C 3A 3D 00 10
 2.652924 1  18F100F3x       Rx   d 8 03 39 7D 11 F3 FA 14 00
 2.653847 1  18F102F3x       Rx   d 8 10 22 10 1C 10 0C 00 06
 2.655325 1  18F106F3x       Rx   d 8 45 E0 FC FF FF FF FF FF
 2.656499 1  18F107F3x       Rx   d 8 38 A4 27 10 01 73 00 00
 2.658247 1  18F108F3x       Rx   d 8 00 00 00 00 00 00 00 00
 2.659088 1  18F155F3x       Rx   d 8 36 36 36 36 36 36 35 00
 2.659978 1  18F156F3x       Rx   d 8 00 00 00 00 00 00 00 00
 2.660883 1  18F157F3x       Rx   d 8 00 00 00 00 00 00 00 00
 2.661794 1  18F158F3x       Rx   d 8 00 00 00 00 00 00 00 00
 2.662383 1  CFF21CAx        Rx   d 8 03 00 80 0C 3A 3D 00 10
 2.662973 1  18F100D0x       Rx   d 8 0C FF FF FF FF FF FF FF
 2.663591 1  18F159F3x       Rx   d 8 00 00 00 00 00 00 00 00
 2.664440 1  18F15AF3x       Rx   d 8 00 00 00 00 00 00 00 00
 2.665217 1  18F15BF3x       Rx   d 7 00 00 00 00 00 00 00
 2.666086 1  18F15CF3x       Rx   d 8 00 00 00 00 00 00 00 00
 2.666928 1  18F15DF3x       Rx   d 8 00 00 00 00 00 00 00 00
 2.667823 1  18F15EF3x       Rx   d 8 00 00 00 00 00 00 00 00
 2.670454 1  18FF2112x       Rx   d 8 01 00 00 00 00 00 00 00
 2.674079 1  CFF21CAx        Rx   d 8 03 00 80 0C 3A 3D 00 10
 2.686128 1  CFF21CAx        Rx   d 8 03 00 80 0C 3A 3D 00 10
 2.686666 1  18F100D0x       Rx   d 8 0C FF FF FF FF FF FF FF
 2.698195 1  CFF21CAx        Rx   d 8 03 00 80 0C 3A 3D 00 10
 2.706241 1  18F100D0x       Rx   d 8 0C FF FF FF FF FF FF FF
 2.710204 1  CFF21CAx        Rx   d 8 03 00 80 0C 3A 3D 00 10
 2.722322 1  CFF21CAx        Rx   d 8 04 00 80 0C 3A 3D 00 10
 2.734408 1  CFF21CAx        Rx   d 8 04 00 80 0C 3A 3D 00 10
 2.734865 1  18F100D0x       Rx   d 8 0C FF FF FF FF FF FF FF
 2.746405 1  CFF21CAx        Rx   d 8 04 00 80 0C 3A 3D 00 10
 2.753027 1  18F100F3x       Rx   d 8 03 39 7D 11 F3 FA 14 00
 2.753937 1  18F102F3x       Rx   d 8 10 22 10 1C 10 0C 00 06
 2.755229 1  18F106F3x       Rx   d 8 45 E0 FC FF FF FF FF FF
 2.770586 1  18F107F3x       Rx   d 8 38 A4 27 10 01 73 00 00
 2.770735 1  18F108F3x       Rx   d 8 00 00 00 00 00 00 00 00
 2.770843 1  CFF21CAx        Rx   d 8 04 00 80 0C 3A 3D 00 10
 2.770945 1  18F100D0x       Rx   d 8 0C FF FF FF FF FF FF FF
 2.771044 1  18F155F3x       Rx   d 8 36 36 36 36 36 36 35 00
 2.771146 1  18F156F3x       Rx   d 8 00 00 00 00 00 00 00 00
 2.771246 1  18F157F3x       Rx   d 8 00 00 00 00 00 00 00 00
 2.771344 1  18F158F3x       Rx   d 8 00 00 00 00 00 00 00 00
 2.771441 1  18F159F3x       Rx   d 8 00 00 00 00 00 00 00 00
 2.771540 1  18F15AF3x       Rx   d 8 00 00 00 00 00 00 00 00
 2.771634 1  18F15BF3x       Rx   d 7 00 00 00 00 00 00 00
 2.771732 1  18F15CF3x       Rx   d 8 00 00 00 00 00 00 00 00
 2.771828 1  18FF2112x       Rx   d 8 01 00 00 00 00 00 00 00
 2.771924 1  18F15DF3x       Rx   d 8 00 00 00 00 00 00 00 00
 2.772024 1  18F15EF3x       Rx   d 8 00 00 00 00 00 00 00 00
 2.772181 1  CFF21CAx        Rx   d 8 04 00 80 0C 3A 3D 00 10
 2.778361 1  18F100D0x       Rx   d 8 0C FF FF FF FF FF FF FF
 2.782391 1  CFF21CAx        Rx   d 8 04 00 80 0C 3A 3D 00 10
 2.794429 1  CFF21CAx        Rx   d 8 05 00 80 0C 3A 3D 00 10
 2.806463 1  CFF21CAx        Rx   d 8 05 00 80 0C 3A 3D 00 10
 2.807030 1  18F100D0x       Rx   d 8 0C FF FF FF FF FF FF FF
 2.818541 1  CFF21CAx        Rx   d 8 05 00 80 0C 3A 3D 00 10
 2.830541 1  CFF21CAx        Rx   d 8 05 00 80 0C 3A 3D 00 10
 2.834611 1  18F100D0x       Rx   d 8 0C FF FF FF FF FF FF FF
 2.842633 1  CFF21CAx        Rx   d 8 05 00 80 0C 3A 3D 00 10
 2.852971 1  18F100F3x       Rx   d 8 03 39 7D 11 F3 FA 14 00
 2.853768 1  18F102F3x       Rx   d 8 10 22 10 1C 10 0C 00 06
 2.854728 1  CFF21CAx        Rx   d 8 05 00 80 0C 3A 3D 00 10
 2.855266 1  18F106F3x       Rx   d 8 45 E0 FC FF FF FF FF FF
 2.856599 1  18F107F3x       Rx   d 8 38 A4 27 10 01 73 00 00
 2.858321 1  18F108F3x       Rx   d 8 00 00 00 00 00 00 00 00
 2.859242 1  18F155F3x       Rx   d 8 36 36 36 36 36 36 35 00
 2.860058 1  18F156F3x       Rx   d 8 00 00 00 00 00 00 00 00
 2.860995 1  18F157F3x       Rx   d 8 00 00 00 00 00 00 00 00
 2.861812 1  18F158F3x       Rx   d 8 00 00 00 00 00 00 00 00
 2.862651 1  18F100D0x       Rx   d 8 0C FF FF FF FF FF FF FF
 2.863242 1  18F159F3x       Rx   d 8 00 00 00 00 00 00 00 00
 2.864111 1  18F15AF3x       Rx   d 8 00 00 00 00 00 00 00 00
 2.864690 1  18FF2112x       Rx   d 8 01 00 00 00 00 00 00 00
 2.865232 1  18F15BF3x       Rx   d 7 00 00 00 00 00 00 00
 2.866137 1  18F15CF3x       Rx   d 8 00 00 00 00 00 00 00 00
 2.866936 1  18F15DF3x       Rx   d 8 00 00 00 00 00 00 00 00
 2.867497 1  CFF21CAx        Rx   d 8 05 00 80 0C 3A 3D 00 10
 2.868069 1  18F15EF3x       Rx   d 8 00 00 00 00 00 00 00 00
 2.878820 1  CFF21CAx        Rx   d 8 05 00 80 0C 3A 3D 00 10
 2.886985 1  18F100D0x       Rx   d 8 0C FF FF FF FF FF FF FF
 2.890960 1  CFF21CAx        Rx   d 8 05 00 80 0C 3A 3D 00 10
 2.902998 1  CFF21CAx        Rx   d 8 05 00 80 0C 3A 3D 00 10
 2.907032 1  18F100D0x       Rx   d 8 0C FF FF FF FF FF FF FF
 2.915123 1  CFF21CAx        Rx   d 8 05 00 80 0C 3A 3D 00 10
 2.927087 1  CFF21CAx        Rx   d 8 05 00 80 0C 3A 3D 00 10
 2.935132 1  18F100D0x       Rx   d 8 0C FF FF FF FF FF FF FF
 2.939217 1  CFF21CAx        Rx   d 8 05 00 80 0C 3A 3D 00 10
 2.951182 1  CFF21CAx        Rx   d 8 05 00 80 0C 3A 3D 00 10
 2.952999 1  18F100F3x       Rx   d 8 03 39 7D 11 F3 FA 14 00
 2.953910 1  18F102F3x       Rx   d 8 10 22 10 1C 10 0C 00 06
 2.955241 1  18F106F3x       Rx   d 8 45 E0 FC FF FF FF FF FF
 2.956500 1  18F107F3x       Rx   d 8 38 A4 27 10 01 73 00 00
 2.958269 1  18F108F3x       Rx   d 8 00 00 00 00 00 00 00 00
 2.959104 1  18F155F3x       Rx   d 8 36 36 36 36 36 36 35 00
 2.959984 1  18F156F3x       Rx   d 8 00 00 00 00 00 00 00 00
 2.960891 1  18F157F3x       Rx   d 8 00 00 00 00 00 00 00 00
 2.961621 1  18FF2112x       Rx   d 8 01 00 00 00 00 00 00 00
 2.962214 1  18F158F3x       Rx   d 8 00 00 00 00 00 00 00 00
 2.963088 1  18F159F3x       Rx   d 8 00 00 00 00 00 00 00 00
 2.963681 1  CFF21CAx        Rx   d 8 05 00 80 0C 3A 3D 00 10
 2.964247 1  18F100D0x       Rx   d 8 0C FF FF FF FF FF FF FF
 2.964792 1  18F15AF3x       Rx   d 8 00 00 00 00 00 00 00 00
 2.965932 1  18F15BF3x       Rx   d 7 00 00 00 00 00 00 00
 2.966842 1  18F15CF3x       Rx   d 8 00 00 00 00 00 00 00 00
 2.967756 1  18F15DF3x       Rx   d 8 00 00 00 00 00 00 00 00
 2.968638 1  18F15EF3x       Rx   d 8 00 00 00 00 00 00 00 00
 2.988699 1  CFF21CAx        Rx   d 8 05 00 80 0C 3A 3D 00 10
 2.988822 1  CFF21CAx        Rx   d 8 05 00 80 0C 3A 3D 00 10
 2.991246 1  18F100D0x       Rx   d 8 0C FF FF FF FF FF FF FF
 2.999219 1  CFF21CAx        Rx   d 8 05 00 80 0C 3A 3D 00 10
 3.011299 1  CFF21CAx        Rx   d 8 05 00 80 0C 3A 3D 00 10
 3.015321 1  18F100D0x       Rx   d 8 0C FF FF FF FF FF FF FF
 3.023310 1  CFF21CAx        Rx   d 8 05 00 80 0C 3A 3D 00 10
 3.035911 1  CFF21CAx        Rx   d 8 05 00 80 0C 3A 3D 00 10
 3.047457 1  CFF21CAx        Rx   d 8 04 00 80 0C 3A 3D 00 10
 3.048000 1  18F100D0x       Rx   d 8 0C FF FF FF FF FF FF FF
 3.052914 1  18F100F3x       Rx   d 8 03 39 7D 11 F3 FA 14 00
 3.053905 1  18F102F3x       Rx   d 8 10 22 10 1C 10 0C 00 06
 3.054785 1  18F106F3x       Rx   d 8 45 E0 FC FF FF FF FF FF
 3.056465 1  18F107F3x       Rx   d 8 38 A4 27 10 01 73 00 00
 3.058342 1  18F108F3x       Rx   d 8 00 00 00 00 00 00 00 00
 3.059299 1  18F104F3x       Rx   d 8 36 35 01 07 01 FF FF FF
 3.060086 1  CFF21CAx        Rx   d 8 04 00 80 0C 3A 3D 00 10
 3.060627 1  18F113F3x       Rx   d 8 10 1D 10 1E 10 1F 10 1E
 3.061626 1  18F114F3x       Rx   d 8 10 1D 10 1D 10 1F 10 20
 3.062601 1  18F115F3x       Rx   d 8 10 1D 10 1D 10 1D 10 1C
 3.063555 1  18F116F3x       Rx   d 8 10 20 10 1F 10 21 10 22
 3.064508 1  18F117F3x       Rx   d 8 10 1D 10 1D 10 22 10 22
 3.065805 1  18F118F3x       Rx   d 8 00 00 00 00 00 00 00 00
 3.066859 1  18F119F3x       Rx   d 8 00 00 00 00 00 00 00 00
 3.067832 1  18F11AF3x       Rx   d 8 00 00 00 00 00 00 00 00
 3.068902 1  18F11BF3x       Rx   d 8 00 00 00 00 00 00 00 00
 3.069832 1  18F11CF3x       Rx   d 8 00 00 00 00 00 00 00 00
 3.070817 1  18F11DF3x       Rx   d 8 00 00 00 00 00 00 00 00
 3.071513 1  CFF21CAx        Rx   d 8 04 00 80 0C 3A 3D 00 10
 3.072093 1  18F100D0x       Rx   d 8 0C FF FF FF FF FF FF FF
 3.072685 1  18F11EF3x       Rx   d 8 00 00 00 00 00 00 00 00
 3.073641 1  18F11FF3x       Rx   d 8 00 00 00 00 00 00 00 00
 3.074616 1  18F120F3x       Rx   d 8 00 00 00 00 00 00 00 00
 3.075855 1  18F121F3x       Rx   d 8 00 00 00 00 00 00 00 00
 3.076805 1  18F122F3x       Rx   d 8 00 00 00 00 00 00 00 00
 3.077767 1  18F123F3x       Rx   d 8 00 00 00 00 00 00 00 00
 3.078709 1  18F124F3x       Rx   d 8 00 00 00 00 00 00 00 00
 3.079677 1  18F125F3x       Rx   d 8 00 00 00 00 00 00 00 00
 3.080630 1  18F126F3x       Rx   d 8 00 00 00 00 00 00 00 00
 3.081583 1  18F127F3x       Rx   d 8 00 00 00 00 00 00 00 00
 3.082530 1  18F128F3x       Rx   d 8 00 00 00 00 00 00 00 00
 3.083455 1  18F129F3x       Rx   d 8 00 00 00 00 00 00 00 00
 3.083995 1  CFF21CAx        Rx   d 8 05 00 80 0C 3A 3D 00 10
 3.084568 1  18F12AF3x       Rx   d 8 00 00 00 00 00 00 00 00
 3.085257 1  18FECACAx       Rx   d 8 00 00 00 00 00 00 FF FF
 3.085785 1  18F12BF3x       Rx   d 8 00 00 00 00 00 00 00 00
 3.086742 1  18F12CF3x       Rx   d 8 00 00 00 00 00 00 00 00
 3.087690 1  18F12DF3x       Rx   d 8 00 00 00 00 00 00 00 00
 3.088615 1  18F12EF3x       Rx   d 8 00 00 00 00 00 00 00 00
 3.089573 1  18F12FF3x       Rx   d 8 00 00 00 00 00 00 00 00
 3.090630 1  18F130F3x       Rx   d 8 00 00 00 00 00 00 00 00
 3.091325 1  18F131F3x       Rx   d 8 00 00 00 00 00 00 00 00
 3.092200 1  18F132F3x       Rx   d 8 00 00 00 00 00 00 00 00
 3.093057 1  18F133F3x       Rx   d 8 00 00 00 00 00 00 00 00
 3.093979 1  18F134F3x       Rx   d 8 00 00 00 00 00 00 00 00
 3.094820 1  18F135F3x       Rx   d 8 00 00 00 00 00 00 00 00
 3.095560 1  CFF21CAx        Rx   d 8 05 00 80 0C 3A 3D 00 10
 3.096182 1  18F136F3x       Rx   d 8 00 00 00 00 00 00 00 00
 3.097047 1  18F137F3x       Rx   d 8 00 00 00 00 00 00 00 00
 3.097951 1  18F138F3x       Rx   d 8 00 00 00 00 00 00 00 00
 3.098771 1  18F139F3x       Rx   d 8 00 00 00 00 00 00 00 00
 3.099676 1  18F13AF3x       Rx   d 8 00 00 00 00 00 00 00 00
 3.100251 1  18F100D0x       Rx   d 8 0C FF FF FF FF FF FF FF
 3.100834 1  18F13BF3x       Rx   d 8 00 00 00 00 00 00 00 00
 3.101764 1  18F13CF3x       Rx   d 8 00 00 00 00 00 00 00 00
 3.102675 1  18F155F3x       Rx   d 8 36 36 36 36 36 36 35 00
 3.103567 1  18F156F3x       Rx   d 8 00 00 00 00 00 00 00 00
 3.104535 1  18F157F3x       Rx   d 8 00 00 00 00 00 00 00 00
 3.105776 1  18F158F3x       Rx   d 8 00 00 00 00 00 00 00 00
 3.106615 1  18F159F3x       Rx   d 8 00 00 00 00 00 00 00 00
 3.107587 1  18F15AF3x       Rx   d 8 00 00 00 00 00 00 00 00
 3.108093 1  CFF21CAx        Rx   d 8 05 00 80 0C 3A 3D 00 10
 3.108618 1  18F15BF3x       Rx   d 7 00 00 00 00 00 00 00
 3.109547 1  18F15CF3x       Rx   d 8 00 00 00 00 00 00 00 00
 3.110417 1  18F15DF3x       Rx   d 8 00 00 00 00 00 00 00 00
 3.111260 1  18F15EF3x       Rx   d 8 00 00 00 00 00 00 00 00
 3.119779 1  CFF21CAx        Rx   d 8 05 00 80 0C 3A 3D 00 10
 3.120447 1  18F100D0x       Rx   d 8 0C FF FF FF FF FF FF FF
 3.132309 1  CFF21CAx        Rx   d 8 05 00 80 0C 3A 3D 00 10
 3.143959 1  CFF21CAx        Rx   d 8 05 00 80 0C 3A 3D 00 10
 3.144507 1  18F100D0x       Rx   d 8 0C FF FF FF FF FF FF FF
 3.153048 1  18F100F3x       Rx   d 8 03 39 7D 11 F3 FA 14 00
 3.153925 1  18F102F3x       Rx   d 8 10 22 10 1C 10 0C 00 06
 3.155353 1  18F106F3x       Rx   d 8 45 E0 FC FF FF FF FF FF
 3.156155 1  18FF2112x       Rx   d 8 01 00 00 00 00 00 00 00
 3.156684 1  CFF21CAx        Rx   d 8 05 00 80 0C 3A 3D 00 10
 3.157236 1  18F107F3x       Rx   d 8 38 A4 27 10 01 73 00 00
 3.159008 1  18F108F3x       Rx   d 8 00 00 00 00 00 00 00 00
 3.159878 1  18F155F3x       Rx   d 8 36 36 36 36 36 36 35 00
 3.160811 1  18F156F3x       Rx   d 8 00 00 00 00 00 00 00 00
 3.161747 1  18F157F3x       Rx   d 8 00 00 00 00 00 00 00 00
 3.162675 1  18F158F3x       Rx   d 8 00 00 00 00 00 00 00 00
 3.163611 1  18F159F3x       Rx   d 8 00 00 00 00 00 00 00 00
 3.164452 1  18F15AF3x       Rx   d 8 00 00 00 00 00 00 00 00
 3.165236 1  18F15BF3x       Rx   d 7 00 00 00 00 00 00 00
 3.166110 1  18F15CF3x       Rx   d 8 00 00 00 00 00 00 00 00
 3.166950 1  18F15DF3x       Rx   d 8 00 00 00 00 00 00 00 00
 3.167845 1  18F15EF3x       Rx   d 8 00 00 00 00 00 00 00 00
 3.168404 1  CFF21CAx        Rx   d 8 05 00 80 0C 3A 3D 00 10
 3.172103 1  18F100D0x       Rx   d 8 0C FF FF FF FF FF FF FF
 3.180517 1  CFF21CAx        Rx   d 8 05 00 80 0C 3A 3D 00 10
 3.192183 1  CFF21CAx        Rx   d 8 05 00 80 0C 3A 3D 00 10
 3.211470 1  18F100D0x       Rx   d 8 0C FF FF FF FF FF FF FF
 3.211621 1  CFF21CAx        Rx   d 8 05 00 80 0C 3A 3D 00 10
 3.216108 1  CFF21CAx        Rx   d 8 05 00 80 0C 3A 3D 00 10
 3.220234 1  18F100D0x       Rx   d 8 0C FF FF FF FF FF FF FF
 3.228621 1  CFF21CAx        Rx   d 8 05 00 80 0C 3A 3D 00 10
 3.240242 1  CFF21CAx        Rx   d 8 04 00 80 0C 3A 3D 00 10
 3.248234 1  18F100D0x       Rx   d 8 0C FF FF FF FF FF FF FF
 3.252782 1  CFF21CAx        Rx   d 8 04 00 80 0C 3A 3D 00 10
 3.253281 1  18F100F3x       Rx   d 8 03 39 7D 11 F3 FA 14 00
 3.253874 1  18FF2112x       Rx   d 8 01 00 00 00 00 00 00 00
 3.254449 1  18F102F3x       Rx   d 8 10 22 10 1C 0F 06 00 06
 3.256002 1  18F106F3x       Rx   d 8 45 E0 FC FF FF FF FF FF
 3.257275 1  18F107F3x       Rx   d 8 38 A4 27 10 01 73 00 00
 3.259047 1  18F108F3x       Rx   d 8 00 00 00 00 00 00 00 00
 3.259902 1  18F155F3x       Rx   d 8 36 36 36 36 36 36 35 00
 3.260780 1  18F156F3x       Rx   d 8 00 00 00 00 00 00 00 00
 3.261732 1  18F157F3x       Rx   d 8 00 00 00 00 00 00 00 00
 3.262653 1  18F158F3x       Rx   d 8 00 00 00 00 00 00 00 00
 3.263567 1  18F159F3x       Rx   d 8 00 00 00 00 00 00 00 00
 3.264296 1  CFF21CAx        Rx   d 8 04 00 80 0C 3A 3D 00 10
 3.264850 1  18F15AF3x       Rx   d 8 00 00 00 00 00 00 00 00
 3.265943 1  18F15BF3x       Rx   d 7 00 00 00 00 00 00 00
 3.266798 1  18F15CF3x       Rx   d 8 00 00 00 00 00 00 00 00
 3.267690 1  18F15DF3x       Rx   d 8 00 00 00 00 00 00 00 00
 3.268581 1  18F15EF3x       Rx   d 8 00 00 00 00 00 00 00 00
 3.272331 1  18F100D0x       Rx   d 8 0C FF FF FF FF FF FF FF
 3.276759 1  CFF21CAx        Rx   d 8 04 00 80 0C 3A 3D 00 10
 3.288387 1  CFF21CAx        Rx   d 8 04 00 80 0C 3A 3D 00 10
 3.300534 1  CFF21CAx        Rx   d 8 04 00 80 0C 3A 3D 00 10
 3.301016 1  18F100D0x       Rx   d 8 0C FF FF FF FF FF FF FF
 3.312570 1  CFF21CAx        Rx   d 8 04 00 80 0C 3A 3D 00 10
 3.325242 1  CFF21CAx        Rx   d 8 04 00 80 0C 3A 3D 00 10
 3.328698 1  18F100D0x       Rx   d 8 0C FF FF FF FF FF FF FF
 3.336758 1  CFF21CAx        Rx   d 8 03 00 80 0C 3A 3D 00 10
 3.348893 1  CFF21CAx        Rx   d 8 03 00 80 0C 3A 3D 00 10
 3.350714 1  18FF2112x       Rx   d 8 01 00 00 00 00 00 00 00
 3.353035 1  18F100F3x       Rx   d 8 03 39 7D 11 F3 FA 14 00
 3.353906 1  18F102F3x       Rx   d 8 10 22 10 1C 0F 06 00 06
 3.355248 1  18F106F3x       Rx   d 8 45 E0 FC FF FF FF FF FF
 3.356516 1  18F107F3x       Rx   d 8 38 A4 27 10 01 73 00 00
 3.357350 1  18F100D0x       Rx   d 8 0C FF FF FF FF FF FF FF
 3.358408 1  18F108F3x       Rx   d 8 00 00 00 00 00 00 00 00
 3.359352 1  18F155F3x       Rx   d 8 36 36 36 36 36 36 35 00
 3.360156 1  18F156F3x       Rx   d 8 00 00 00 00 00 00 00 00
 3.360801 1  CFF21CAx        Rx   d 8 03 00 80 0C 3A 3D 00 10
 3.361397 1  18F157F3x       Rx   d 8 00 00 00 00 00 00 00 00
 3.362263 1  18F158F3x       Rx   d 8 00 00 00 00 00 00 00 00
 3.363270 1  18F159F3x       Rx   d 8 00 00 00 00 00 00 00 00
 3.364049 1  18F15AF3x       Rx   d 8 00 00 00 00 00 00 00 00
 3.364847 1  18F15BF3x       Rx   d 7 00 00 00 00 00 00 00
 3.366042 1  18F15CF3x       Rx   d 8 00 00 00 00 00 00 00 00
 3.366886 1  18F15DF3x       Rx   d 8 00 00 00 00 00 00 00 00
 3.367809 1  18F15EF3x       Rx   d 8 00 00 00 00 00 00 00 00
 3.373276 1  CFF21CAx        Rx   d 8 06 00 80 0C 3A 3D 00 10
 3.376878 1  18F100D0x       Rx   d 8 0C FF FF FF FF FF FF FF
 3.384953 1  CFF21CAx        Rx   d 8 06 00 80 0C 3A 3D 00 10
 3.397011 1  CFF21CAx        Rx   d 8 06 00 80 0C 3A 3D 00 10
 3.401005 1  18F100D0x       Rx   d 8 0C FF FF FF FF FF FF FF
 3.409008 1  CFF21CAx        Rx   d 8 06 00 80 0C 3A 3D 00 10
 3.432361 1  CFF21CAx        Rx   d 8 06 00 80 0C 3A 3D 00 10
 3.432502 1  18F100D0x       Rx   d 8 0C FF FF FF FF FF FF FF
 3.432952 1  CFF21CAx        Rx   d 8 06 00 80 0C 3A 3D 00 10
 3.445014 1  CFF21CAx        Rx   d 8 05 00 80 0C 3A 3D 00 10
 3.447866 1  18FF2112x       Rx   d 8 01 00 00 00 00 00 00 00
 3.452906 1  18F100F3x       Rx   d 8 03 39 7D 11 F3 FA 14 00
 3.453792 1  18F102F3x       Rx   d 8 10 22 10 1C 0F 06 00 06
 3.455082 1  18F106F3x       Rx   d 8 45 E0 FC FF FF FF FF FF
 3.456388 1  18F107F3x       Rx   d 8 38 A4 27 10 01 73 00 00
 3.457480 1  CFF21CAx        Rx   d 8 05 00 80 0C 3A 3D 00 10
 3.458056 1  18F100D0x       Rx   d 8 0C FF FF FF FF FF FF FF
 3.458620 1  18F108F3x       Rx   d 8 00 00 00 00 00 00 00 00
 3.459543 1  18F155F3x       Rx   d 8 36 36 36 36 36 36 35 00
 3.460436 1  18F156F3x       Rx   d 8 00 00 00 00 00 00 00 00
 3.461317 1  18F157F3x       Rx   d 8 00 00 00 00 00 00 00 00
 3.462222 1  18F158F3x       Rx   d 8 00 00 00 00 00 00 00 00
 3.463070 1  18F159F3x       Rx   d 8 00 00 00 00 00 00 00 00
 3.463963 1  18F15AF3x       Rx   d 8 00 00 00 00 00 00 00 00
 3.464751 1  18F15BF3x       Rx   d 7 00 00 00 00 00 00 00
 3.465956 1  18F15CF3x       Rx   d 8 00 00 00 00 00 00 00 00
 3.466798 1  18F15DF3x       Rx   d 8 00 00 00 00 00 00 00 00
 3.467678 1  18F15EF3x       Rx   d 8 00 00 00 00 00 00 00 00
 3.469503 1  CFF21CAx        Rx   d 8 05 00 80 0C 3A 3D 00 10
 3.481277 1  CFF21CAx        Rx   d 8 05 00 80 0C 3A 3D 00 10
 3.485669 1  18F100D0x       Rx   d 8 0C FF FF FF FF FF FF FF
 3.493251 1  CFF21CAx        Rx   d 8 05 00 80 0C 3A 3D 00 10
 3.505269 1  CFF21CAx        Rx   d 8 05 00 80 0C 3A 3D 00 10
 3.509295 1  18F100D0x       Rx   d 8 0C FF FF FF FF FF FF FF
 3.517900 1  CFF21CAx        Rx   d 8 05 00 80 0C 3A 3D 00 10
 3.529432 1  CFF21CAx        Rx   d 8 05 00 80 0C 3A 3D 00 10
 3.537491 1  18F100D0x       Rx   d 8 0C FF FF FF FF FF FF FF
 3.541568 1  CFF21CAx        Rx   d 8 05 00 80 0C 3A 3D 00 10
 3.545230 1  18FF2112x       Rx   d 8 01 00 00 00 00 00 00 00
 3.553095 1  18F100F3x       Rx   d 8 03 39 7D 11 F3 FA 14 00
 3.553590 1  CFF21CAx        Rx   d 8 05 00 80 0C 3A 3D 00 10
 3.554133 1  18F102F3x       Rx   d 8 10 22 10 1C 0F 06 00 06
 3.555444 1  18F106F3x       Rx   d 8 45 E0 FC FF FF FF FF FF
 3.556693 1  18F107F3x       Rx   d 8 38 A4 27 10 01 73 00 00
 3.558464 1  18F108F3x       Rx   d 8 00 00 00 00 00 00 00 00
 3.559345 1  18F155F3x       Rx   d 8 36 36 36 36 36 36 35 00
 3.560240 1  18F156F3x       Rx   d 8 00 00 00 00 00 00 00 00
 3.561111 1  18F157F3x       Rx   d 8 00 00 00 00 00 00 00 00
 3.561990 1  18F158F3x       Rx   d 8 00 00 00 00 00 00 00 00
 3.562916 1  18F159F3x       Rx   d 8 00 00 00 00 00 00 00 00
 3.563863 1  18F15AF3x       Rx   d 8 00 00 00 00 00 00 00 00
 3.564711 1  18F15BF3x       Rx   d 7 00 00 00 00 00 00 00
 3.565611 1  CFF21CAx        Rx   d 8 04 00 80 0C 3A 3D 00 10
 3.566189 1  18F100D0x       Rx   d 8 0C FF FF FF FF FF FF FF
 3.566775 1  18F15CF3x       Rx   d 8 00 00 00 00 00 00 00 00
 3.567678 1  18F15DF3x       Rx   d 8 00 00 00 00 00 00 00 00
 3.568508 1  18F15EF3x       Rx   d 8 00 00 00 00 00 00 00 00
 3.577699 1  CFF21CAx        Rx   d 8 04 00 80 0C 3A 3D 00 10
 3.589780 1  CFF21CAx        Rx   d 8 04 00 80 0C 3A 3D 00 10
 3.593767 1  18F100D0x       Rx   d 8 0C FF FF FF FF FF FF FF
 3.601801 1  CFF21CAx        Rx   d 8 04 00 80 0C 3A 3D 00 10
 3.613854 1  CFF21CAx        Rx   d 8 04 00 80 0C 3A 3D 00 10
 3.617855 1  18F100D0x       Rx   d 8 0C FF FF FF FF FF FF FF
 3.625904 1  CFF21CAx        Rx   d 8 04 00 80 0C 3A 3D 00 10
 3.652414 1  CFF21CAx        Rx   d 8 04 00 80 0C 3A 3D 00 10
 3.652574 1  18FF2112x       Rx   d 8 01 00 00 00 00 00 00 00
 3.652685 1  18F100D0x       Rx   d 8 0C FF FF FF FF FF FF FF
 3.652788 1  CFF21CAx        Rx   d 8 04 00 80 0C 3A 3D 00 10
 3.652891 1  18F100F3x       Rx   d 8 03 39 7D 11 F3 FA 14 00
 3.653766 1  18F102F3x       Rx   d 8 10 23 10 1C 10 06 00 07
 3.655109 1  18F106F3x       Rx   d 8 45 E0 FC FF FF FF FF FF
 3.656429 1  18F107F3x       Rx   d 8 38 A4 27 10 01 73 00 00
 3.658221 1  18F108F3x       Rx   d 8 00 00 00 00 00 00 00 00
 3.659010 1  18F155F3x       Rx   d 8 36 36 36 36 36 36 35 00
 3.659907 1  18F156F3x       Rx   d 8 00 00 00 00 00 00 00 00
 3.660816 1  18F157F3x       Rx   d 8 00 00 00 00 00 00 00 00
 3.661718 1  18F158F3x       Rx   d 8 00 00 00 00 00 00 00 00
 3.662273 1  CFF21CAx        Rx   d 8 03 00 80 0C 3A 3D 00 10
 3.662859 1  18F159F3x       Rx   d 8 00 00 00 00 00 00 00 00
 3.663799 1  18F15AF3x       Rx   d 8 00 00 00 00 00 00 00 00
 3.664672 1  18F15BF3x       Rx   d 7 00 00 00 00 00 00 00
 3.665833 1  18F15CF3x       Rx   d 8 00 00 00 00 00 00 00 00
 3.666746 1  18F15DF3x       Rx   d 8 00 00 00 00 00 00 00 00
 3.667627 1  18F15EF3x       Rx   d 8 00 00 00 00 00 00 00 00
 3.673943 1  CFF21CAx        Rx   d 8 03 00 80 0C 3A 3D 00 10
 3.674483 1  18F100D0x       Rx   d 8 0C FF FF FF FF FF FF FF
 3.686008 1  CFF21CAx        Rx   d 8 03 00 80 0C 3A 3D 00 10
 3.698117 1  CFF21CAx        Rx   d 8 03 00 80 0C 3A 3D 00 10
 3.698603 1  18F100D0x       Rx   d 8 0C FF FF FF FF FF FF FF
 3.710135 1  CFF21CAx        Rx   d 8 03 00 80 0C 3A 3D 00 10
 3.718156 1  18F100D0x       Rx   d 8 0C FF FF FF FF FF FF FF
 3.722159 1  CFF21CAx        Rx   d 8 03 00 80 0C 3A 3D 00 10
 3.734274 1  CFF21CAx        Rx   d 8 04 00 80 0C 3A 3D 00 10
 3.739660 1  18FF2112x       Rx   d 8 01 00 00 00 00 00 00 00
 3.746293 1  CFF21CAx        Rx   d 8 04 00 80 0C 3A 3D 00 10
 3.746817 1  18F100D0x       Rx   d 8 0C FF FF FF FF FF FF FF
 3.752999 1  18F100F3x       Rx   d 8 03 39 7D 11 F3 FA 14 00
 3.753872 1  18F102F3x       Rx   d 8 10 23 10 1C 10 06 00 07
 3.755191 1  18F106F3x       Rx   d 8 45 E0 FC FF FF FF FF FF
 3.756479 1  18F107F3x       Rx   d 8 38 A4 27 10 01 73 00 00
 3.758299 1  18F108F3x       Rx   d 8 00 00 00 00 00 00 00 00
 3.758783 1  CFF21CAx        Rx   d 8 03 00 80 0C 3A 3D 00 10
 3.759321 1  18F155F3x       Rx   d 8 36 36 36 36 36 36 35 00
 3.760337 1  18F156F3x       Rx   d 8 00 00 00 00 00 00 00 00
 3.761159 1  18F157F3x       Rx   d 8 00 00 00 00 00 00 00 00
 3.762040 1  18F158F3x       Rx   d 8 00 00 00 00 00 00 00 00
 3.762937 1  18F159F3x       Rx   d 8 00 00 00 00 00 00 00 00
 3.763867 1  18F15AF3x       Rx   d 8 00 00 00 00 00 00 00 00
 3.764723 1  18F15BF3x       Rx   d 7 00 00 00 00 00 00 00
 3.765897 1  18F15CF3x       Rx   d 8 00 00 00 00 00 00 00 00
 3.766790 1  18F15DF3x       Rx   d 8 00 00 00 00 00 00 00 00
 3.767685 1  18F15EF3x       Rx   d 8 00 00 00 00 00 00 00 00
 3.770456 1  CFF21CAx        Rx   d 8 03 00 80 0C 3A 3D 00 10
 3.771029 1  18F100D0x       Rx   d 8 0C FF FF FF FF FF FF FF
 3.782520 1  CFF21CAx        Rx   d 8 03 00 80 0C 3A 3D 00 10
 3.790549 1  18F100D0x       Rx   d 8 0C FF FF FF FF FF FF FF
 3.794541 1  CFF21CAx        Rx   d 8 03 00 80 0C 3A 3D 00 10
 3.806608 1  CFF21CAx        Rx   d 8 03 00 80 0C 3A 3D 00 10
 3.818708 1  CFF21CAx        Rx   d 8 03 00 80 0C 3A 3D 00 10
 3.819233 1  18F100D0x       Rx   d 8 0C FF FF FF FF FF FF FF
 3.830727 1  CFF21CAx        Rx   d 8 03 00 80 0C 3A 3D 00 10
 3.837095 1  18FF2112x       Rx   d 8 01 00 00 00 00 00 00 00
 3.838736 1  18F100D0x       Rx   d 8 0C FF FF FF FF FF FF FF
 3.842742 1  CFF21CAx        Rx   d 8 03 00 80 0C 3A 3D 00 10
 3.853081 1  18F100F3x       Rx   d 8 03 39 7D 11 F3 FA 14 00
 3.853931 1  18F102F3x       Rx   d 8 10 23 10 1C 10 06 00 07
 3.854970 1  CFF21CAx        Rx   d 8 04 00 80 0C 3A 3D 00 10
 3.855427 1  18F106F3x       Rx   d 8 45 E0 FC FF FF FF FF FF
 3.856722 1  18F107F3x       Rx   d 8 38 A4 27 10 01 73 00 00
 3.873031 1  18F108F3x       Rx   d 8 00 00 00 00 00 00 00 00
 3.873186 1  18F155F3x       Rx   d 8 36 36 36 36 36 36 35 00
 3.873301 1  18F156F3x       Rx   d 8 00 00 00 00 00 00 00 00
 3.873405 1  18F157F3x       Rx   d 8 00 00 00 00 00 00 00 00
 3.873506 1  18F158F3x       Rx   d 8 00 00 00 00 00 00 00 00
 3.873605 1  18F159F3x       Rx   d 8 00 00 00 00 00 00 00 00
 3.873706 1  18F15AF3x       Rx   d 8 00 00 00 00 00 00 00 00
 3.873799 1  18F15BF3x       Rx   d 7 00 00 00 00 00 00 00
 3.873897 1  18F15CF3x       Rx   d 8 00 00 00 00 00 00 00 00
 3.873998 1  18F15DF3x       Rx   d 8 00 00 00 00 00 00 00 00
 3.874096 1  CFF21CAx        Rx   d 8 04 00 80 0C 3A 3D 00 10
 3.874198 1  18F100D0x       Rx   d 8 0C FF FF FF FF FF FF FF
 3.874300 1  18F15EF3x       Rx   d 8 00 00 00 00 00 00 00 00
 3.878767 1  CFF21CAx        Rx   d 8 04 00 80 0C 3A 3D 00 10
 3.891430 1  CFF21CAx        Rx   d 8 04 00 80 0C 3A 3D 00 10
 3.891944 1  18F100D0x       Rx   d 8 0C FF FF FF FF FF FF FF
 3.902854 1  CFF21CAx        Rx   d 8 04 00 80 0C 3A 3D 00 10
 3.910882 1  18F100D0x       Rx   d 8 0C FF FF FF FF FF FF FF
 3.914892 1  CFF21CAx        Rx   d 8 04 00 80 0C 3A 3D 00 10
 3.926973 1  CFF21CAx        Rx   d 8 04 00 80 0C 3A 3D 00 10
 3.934240 1  18FF2112x       Rx   d 8 01 00 00 00 00 00 00 00
 3.939046 1  CFF21CAx        Rx   d 8 04 00 80 0C 3A 3D 00 10
 3.939631 1  18F100D0x       Rx   d 8 0C FF FF FF FF FF FF FF
 3.951094 1  CFF21CAx        Rx   d 8 04 00 80 0C 3A 3D 00 10
 3.952937 1  18F100F3x       Rx   d 8 03 39 7D 11 F3 FA 14 00
 3.953819 1  18F102F3x       Rx   d 8 10 23 10 1C 10 06 00 07
 3.955110 1  18F106F3x       Rx   d 8 45 E0 FC FF FF FF FF FF
 3.956569 1  18F107F3x       Rx   d 8 38 A4 27 10 01 73 00 00
 3.958218 1  18F108F3x       Rx   d 8 00 00 00 00 00 00 00 00
 3.959006 1  18F155F3x       Rx   d 8 36 36 36 36 36 36 35 00
 3.959950 1  18F156F3x       Rx   d 8 00 00 00 00 00 00 00 00
 3.960787 1  18F157F3x       Rx   d 8 00 00 00 00 00 00 00 00
 3.961770 1  18F158F3x       Rx   d 8 00 00 00 00 00 00 00 00
 3.962693 1  18F159F3x       Rx   d 8 00 00 00 00 00 00 00 00
 3.963290 1  CFF21CAx        Rx   d 8 04 00 80 0C 3A 3D 00 10
 3.963799 1  18F15AF3x       Rx   d 8 00 00 00 00 00 00 00 00
 3.964657 1  18F15BF3x       Rx   d 7 00 00 00 00 00 00 00
 3.965873 1  18F15CF3x       Rx   d 8 00 00 00 00 00 00 00 00
 3.966780 1  18F15DF3x       Rx   d 8 00 00 00 00 00 00 00 00
 3.967299 1  18F100D0x       Rx   d 8 0C FF FF FF FF FF FF FF
 3.967874 1  18F15EF3x       Rx   d 8 00 00 00 00 00 00 00 00
 3.975189 1  CFF21CAx        Rx   d 8 04 00 80 0C 3A 3D 00 10
 3.987829 1  CFF21CAx        Rx   d 8 05 00 80 0C 3A 3D 00 10
 3.995444 1  18F100D0x       Rx   d 8 0C FF FF FF FF FF FF FF
 3.999395 1  CFF21CAx        Rx   d 8 05 00 80 0C 3A 3D 00 10
 4.011446 1  CFF21CAx        Rx   d 8 05 00 80 0C 3A 3D 00 10
 4.020012 1  18F100D0x       Rx   d 8 0C FF FF FF FF FF FF FF
 4.023497 1  CFF21CAx        Rx   d 8 05 00 80 0C 3A 3D 00 10
 4.032458 1  18FF2112x       Rx   d 8 01 00 00 00 00 00 00 00
 4.035485 1  CFF21CAx        Rx   d 8 05 00 80 0C 3A 3D 00 10
 4.039463 1  18F100D0x       Rx   d 8 0C FF FF FF FF FF FF FF
 4.047577 1  CFF21CAx        Rx   d 8 05 00 80 0C 3A 3D 00 10
 4.053093 1  18F100F3x       Rx   d 8 03 39 7D 10 F3 FA 14 00
 4.054076 1  18F102F3x       Rx   d 8 10 23 10 1C 10 06 00 07
 4.055172 1  18F106F3x       Rx   d 8 45 E0 FC FF FF FF FF FF
 4.056709 1  18F107F3x       Rx   d 8 38 A4 27 10 01 73 00 00
 4.058529 1  18F108F3x       Rx   d 8 00 00 00 00 00 00 00 00
 4.059459 1  18F104F3x       Rx   d 8 36 35 01 07 01 FF FF FF
 4.060035 1  CFF21CAx        Rx   d 8 05 00 80 0C 3A 3D 00 10
 4.060570 1  18F113F3x       Rx   d 8 10 1E 10 1F 10 1E 10 1E
 4.061491 1  18F114F3x       Rx   d 8 10 1D 10 1C 10 20 10 1F
 4.062406 1  18F115F3x       Rx   d 8 10 1D 10 1D 10 1D 10 1C
 4.063504 1  18F116F3x       Rx   d 8 10 20 10 1F 10 21 10 23
 4.064285 1  18F117F3x       Rx   d 8 10 1D 10 1E 10 22 10 22
 4.065191 1  18F118F3x       Rx   d 8 00 00 00 00 00 00 00 00
 4.066231 1  18F119F3x       Rx   d 8 00 00 00 00 00 00 00 00
 4.067156 1  18F11AF3x       Rx   d 8 00 00 00 00 00 00 00 00
 4.067721 1  18F100D0x       Rx   d 8 0C FF FF FF FF FF FF FF
 4.068337 1  18F11BF3x       Rx   d 8 00 00 00 00 00 00 00 00
 4.069228 1  18F11CF3x       Rx   d 8 00 00 00 00 00 00 00 00
 4.070158 1  18F11DF3x       Rx   d 8 00 00 00 00 00 00 00 00
 4.071096 1  18F11EF3x       Rx   d 8 00 00 00 00 00 00 00 00
 4.071769 1  CFF21CAx        Rx   d 8 05 00 80 0C 3A 3D 00 10
 4.072232 1  18F11FF3x       Rx   d 8 00 00 00 00 00 00 00 00
 4.073224 1  18F120F3x       Rx   d 8 00 00 00 00 00 00 00 00
 4.074147 1  18F121F3x       Rx   d 8 00 00 00 00 00 00 00 00
 4.075076 1  18F122F3x       Rx   d 8 00 00 00 00 00 00 00 00
 4.076178 1  18F123F3x       Rx   d 8 00 00 00 00 00 00 00 00
 4.077155 1  18F124F3x       Rx   d 8 00 00 00 00 00 00 00 00
 4.078124 1  18F125F3x       Rx   d 8 00 00 00 00 00 00 00 00
 4.079042 1  18F126F3x       Rx   d 8 00 00 00 00 00 00 00 00
 4.096388 1  18F127F3x       Rx   d 8 00 00 00 00 00 00 00 00
 4.096540 1  18F128F3x       Rx   d 8 00 00 00 00 00 00 00 00
 4.096650 1  18F129F3x       Rx   d 8 00 00 00 00 00 00 00 00
 4.096753 1  18F12AF3x       Rx   d 8 00 00 00 00 00 00 00 00
 4.096857 1  18F12BF3x       Rx   d 8 00 00 00 00 00 00 00 00
 4.096955 1  CFF21CAx        Rx   d 8 04 00 80 0C 3A 3D 00 10
 4.097056 1  18F12CF3x       Rx   d 8 00 00 00 00 00 00 00 00
 4.097155 1  18F12DF3x       Rx   d 8 00 00 00 00 00 00 00 00
 4.097255 1  18F12EF3x       Rx   d 8 00 00 00 00 00 00 00 00
 4.097354 1  18F100D0x       Rx   d 8 0C FF FF FF FF FF FF FF
 4.097454 1  18F12FF3x       Rx   d 8 00 00 00 00 00 00 00 00
 4.097551 1  18F130F3x       Rx   d 8 00 00 00 00 00 00 00 00
 4.097647 1  18F131F3x       Rx   d 8 00 00 00 00 00 00 00 00
 4.097746 1  18F132F3x       Rx   d 8 00 00 00 00 00 00 00 00
 4.097843 1  18F133F3x       Rx   d 8 00 00 00 00 00 00 00 00
 4.097965 1  18F134F3x       Rx   d 8 00 00 00 00 00 00 00 00
 4.098065 1  18F135F3x       Rx   d 8 00 00 00 00 00 00 00 00
 4.098238 1  18F136F3x       Rx   d 8 00 00 00 00 00 00 00 00
 4.098375 1  18F137F3x       Rx   d 8 00 00 00 00 00 00 00 00
 4.098486 1  CFF21CAx        Rx   d 8 04 00 80 0C 3A 3D 00 10
 4.098590 1  18F138F3x       Rx   d 8 00 00 00 00 00 00 00 00
 4.098690 1  18F139F3x       Rx   d 8 00 00 00 00 00 00 00 00
 4.098787 1  18F13AF3x       Rx   d 8 00 00 00 00 00 00 00 00
 4.099206 1  18F13BF3x       Rx   d 8 00 00 00 00 00 00 00 00
 4.100017 1  18F13CF3x       Rx   d 8 00 00 00 00 00 00 00 00
 4.100877 1  18F155F3x       Rx   d 8 36 36 36 36 36 36 35 00
 4.101804 1  18F156F3x       Rx   d 8 00 00 00 00 00 00 00 00
 4.102732 1  18F157F3x       Rx   d 8 00 00 00 00 00 00 00 00
 4.103636 1  18F158F3x       Rx   d 8 00 00 00 00 00 00 00 00
 4.104580 1  18F159F3x       Rx   d 8 00 00 00 00 00 00 00 00
 4.105784 1  18F15AF3x       Rx   d 8 00 00 00 00 00 00 00 00
 4.106622 1  18F15BF3x       Rx   d 7 00 00 00 00 00 00 00
 4.107546 1  18F15CF3x       Rx   d 8 00 00 00 00 00 00 00 00
 4.108093 1  CFF21CAx        Rx   d 8 04 00 80 0C 3A 3D 00 10
 4.108673 1  18F15DF3x       Rx   d 8 00 00 00 00 00 00 00 00
 4.109259 1  18FECACAx       Rx   d 8 00 00 00 00 00 00 FF FF
 4.109841 1  18F15EF3x       Rx   d 8 00 00 00 00 00 00 00 00
 4.115752 1  18F100D0x       Rx   d 8 0C FF FF FF FF FF FF FF
 4.119685 1  CFF21CAx        Rx   d 8 05 00 80 0C 3A 3D 00 10
 4.128777 1  18FF2112x       Rx   d 8 01 00 00 00 00 00 00 00
 4.131769 1  CFF21CAx        Rx   d 8 05 00 80 0C 3A 3D 00 10
 4.135769 1  18F100D0x       Rx   d 8 0C FF FF FF FF FF FF FF
 4.143864 1  CFF21CAx        Rx   d 8 05 00 80 0C 3A 3D 00 10
 4.152963 1  18F100F3x       Rx   d 8 03 39 7D 10 F3 FA 14 00
 4.153802 1  18F102F3x       Rx   d 8 10 23 10 1C 10 06 00 07
 4.155099 1  18F106F3x       Rx   d 8 45 E0 FC FF FF FF FF FF
 4.156389 1  CFF21CAx        Rx   d 8 05 00 80 0C 3A 3D 00 10
 4.156921 1  18F107F3x       Rx   d 8 38 A4 27 10 01 73 00 00
 4.158721 1  18F108F3x       Rx   d 8 00 00 00 00 00 00 00 00
 4.159642 1  18F155F3x       Rx   d 8 36 36 36 36 36 36 35 00
 4.160572 1  18F156F3x       Rx   d 8 00 00 00 00 00 00 00 00
 4.161460 1  18F157F3x       Rx   d 8 00 00 00 00 00 00 00 00
 4.162332 1  18F158F3x       Rx   d 8 00 00 00 00 00 00 00 00
