date Sat May 09 10:08:50.663 2026
base hex  timestamps absolute
internal events logged
Begin Triggerblock Sat May 09 10:08:50.669 2026
 0.000000 Start of measurement
 0.000000 1  CFF21CAx        Rx   d 8 25 00 80 0C 41 40 00 20
 0.000178 1  CFF21CAx        Rx   d 8 25 00 80 0C 41 40 00 20
 0.000278 1  18F100D0x       Rx   d 8 0C FF FF FF FF FF FF FF
 0.000754 1  CFF21CAx        Rx   d 8 25 00 80 0C 41 40 00 20
 0.012613 1  CFF21CAx        Rx   d 8 25 00 80 0C 41 40 00 20
 0.016691 1  18F100D0x       Rx   d 8 0C FF FF FF FF FF FF FF
 0.024697 1  CFF21CAx        Rx   d 8 25 00 80 0C 41 40 00 20
 0.036758 1  CFF21CAx        Rx   d 8 25 00 80 0C 41 40 00 20
 0.044753 1  18F100D0x       Rx   d 8 0C FF FF FF FF FF FF FF
 0.048756 1  CFF21CAx        Rx   d 8 25 00 80 0C 41 40 00 20
 0.056724 1  18F100F3x       Rx   d 8 03 36 7D 14 F1 FA 14 00
 0.057631 1  18F102F3x       Rx   d 8 10 10 10 09 10 0C 00 07
 0.058954 1  18F106F3x       Rx   d 8 45 E0 FC FF FF FF FF FF
 0.059890 1  18FF2112x       Rx   d 8 01 00 00 00 00 00 00 00
 0.060383 1  18F107F3x       Rx   d 8 38 A4 27 10 01 72 00 00
 0.060958 1  CFF21CAx        Rx   d 8 25 00 80 0C 41 40 00 20
 0.062228 1  18F108F3x       Rx   d 8 00 00 00 00 00 00 00 00
 0.063073 1  18F155F3x       Rx   d 8 38 37 38 38 38 39 38 00
 0.063942 1  18F156F3x       Rx   d 8 00 00 00 00 00 00 00 00
 0.064836 1  18F157F3x       Rx   d 8 00 00 00 00 00 00 00 00
 0.065398 1  18F100D0x       Rx   d 8 0C FF FF FF FF FF FF FF
 0.065988 1  18F158F3x       Rx   d 8 00 00 00 00 00 00 00 00
 0.066888 1  18F159F3x       Rx   d 8 00 00 00 00 00 00 00 00
 0.067814 1  18F15AF3x       Rx   d 8 00 00 00 00 00 00 00 00
 0.068604 1  18F15BF3x       Rx   d 7 00 00 00 00 00 00 00
 0.069541 1  18F15CF3x       Rx   d 8 00 00 00 00 00 00 00 00
 0.070682 1  18F15DF3x       Rx   d 8 00 00 00 00 00 00 00 00
 0.071588 1  18F15EF3x       Rx   d 8 00 00 00 00 00 00 00 00
 0.072860 1  CFF21CAx        Rx   d 8 25 00 80 0C 41 40 00 20
 0.084948 1  CFF21CAx        Rx   d 8 25 00 80 0C 41 40 00 20
 0.092986 1  18F100D0x       Rx   d 8 0C FF FF FF FF FF FF FF
 0.096991 1  CFF21CAx        Rx   d 8 25 00 80 0C 41 40 00 20
 0.109098 1  CFF21CAx        Rx   d 8 25 00 80 0C 41 40 00 20
 0.121167 1  CFF21CAx        Rx   d 8 25 00 80 0C 41 40 00 20
 0.121665 1  18F100D0x       Rx   d 8 0C FF FF FF FF FF FF FF
 0.133266 1  CFF21CAx        Rx   d 8 25 00 80 0C 41 40 00 20
 0.145393 1  CFF21CAx        Rx   d 8 25 00 80 0C 41 40 00 20
 0.149409 1  18F100D0x       Rx   d 8 0C FF FF FF FF FF FF FF
 0.156929 1  18F100F3x       Rx   d 8 03 36 7D 13 F1 FA 14 00
 0.157448 1  CFF21CAx        Rx   d 8 25 00 80 0C 41 40 00 20
 0.157950 1  18F102F3x       Rx   d 8 10 10 10 09 10 0C 00 07
 0.158534 1  18FF2112x       Rx   d 8 01 00 00 00 00 00 00 00
 0.159294 1  18F106F3x       Rx   d 8 45 E0 FC FF FF FF FF FF
 0.160796 1  18F107F3x       Rx   d 8 38 A4 27 10 01 72 00 00
 0.162677 1  18F108F3x       Rx   d 8 00 00 00 00 00 00 00 00
 0.163604 1  18F155F3x       Rx   d 8 38 37 38 38 38 39 38 00
 0.164739 1  18F156F3x       Rx   d 8 00 00 00 00 00 00 00 00
 0.165435 1  18F157F3x       Rx   d 8 00 00 00 00 00 00 00 00
 0.166371 1  18F158F3x       Rx   d 8 00 00 00 00 00 00 00 00
 0.167200 1  18F159F3x       Rx   d 8 00 00 00 00 00 00 00 00
 0.168075 1  18F15AF3x       Rx   d 8 00 00 00 00 00 00 00 00
 0.168749 1  18F15BF3x       Rx   d 7 00 00 00 00 00 00 00
 0.169339 1  CFF21CAx        Rx   d 8 25 00 80 0C 41 40 00 20
 0.169966 1  18F15CF3x       Rx   d 8 00 00 00 00 00 00 00 00
 0.170979 1  18F15DF3x       Rx   d 8 00 00 00 00 00 00 00 00
 0.171813 1  18F15EF3x       Rx   d 8 00 00 00 00 00 00 00 00
 0.173449 1  18F100D0x       Rx   d 8 0C FF FF FF FF FF FF FF
 0.181589 1  CFF21CAx        Rx   d 8 25 00 80 0C 41 40 00 20
 0.193604 1  CFF21CAx        Rx   d 8 25 00 80 0C 41 40 00 20
 0.201595 1  18F100D0x       Rx   d 8 0C FF FF FF FF FF FF FF
 0.210629 1  CFF21CAx        Rx   d 8 26 00 80 0C 41 40 00 20
 0.217520 1  CFF21CAx        Rx   d 8 26 00 80 0C 41 40 00 20
 0.225551 1  18F100D0x       Rx   d 8 0C FF FF FF FF FF FF FF
 0.229625 1  CFF21CAx        Rx   d 8 26 00 80 0C 41 40 00 20
 0.241649 1  CFF21CAx        Rx   d 8 25 00 80 0C 41 40 00 20
 0.253743 1  CFF21CAx        Rx   d 8 25 00 80 0C 41 40 00 20
 0.254257 1  18F100D0x       Rx   d 8 0C FF FF FF FF FF FF FF
 0.254803 1  18FF2112x       Rx   d 8 01 00 00 00 00 00 00 00
 0.256771 1  18F100F3x       Rx   d 8 03 36 7D 13 F1 FA 14 00
 0.257675 1  18F102F3x       Rx   d 8 10 10 10 09 10 0C 00 07
 0.258945 1  18F106F3x       Rx   d 8 45 E0 FC FF FF FF FF FF
 0.260253 1  18F107F3x       Rx   d 8 38 A4 27 10 01 72 00 00
 0.261973 1  18F108F3x       Rx   d 8 00 00 00 00 00 00 00 00
 0.262841 1  18F155F3x       Rx   d 8 38 37 38 38 38 39 38 00
 0.263745 1  18F156F3x       Rx   d 8 00 00 00 00 00 00 00 00
 0.264667 1  18F157F3x       Rx   d 8 00 00 00 00 00 00 00 00
 0.265580 1  18F158F3x       Rx   d 8 00 00 00 00 00 00 00 00
 0.266211 1  CFF21CAx        Rx   d 8 25 00 80 0C 41 40 00 20
 0.266715 1  18F159F3x       Rx   d 8 00 00 00 00 00 00 00 00
 0.267645 1  18F15AF3x       Rx   d 8 00 00 00 00 00 00 00 00
 0.268546 1  18F15BF3x       Rx   d 7 00 00 00 00 00 00 00
 0.269462 1  18F15CF3x       Rx   d 8 00 00 00 00 00 00 00 00
 0.270628 1  18F15DF3x       Rx   d 8 00 00 00 00 00 00 00 00
 0.271549 1  18F15EF3x       Rx   d 8 00 00 00 00 00 00 00 00
 0.277773 1  CFF21CAx        Rx   d 8 25 00 80 0C 41 40 00 20
 0.278315 1  18F100D0x       Rx   d 8 0C FF FF FF FF FF FF FF
 0.289878 1  CFF21CAx        Rx   d 8 25 00 80 0C 41 40 00 20
 0.301837 1  CFF21CAx        Rx   d 8 25 00 80 0C 41 40 00 20
 0.305840 1  18F100D0x       Rx   d 8 0C FF FF FF FF FF FF FF
 0.314565 1  CFF21CAx        Rx   d 8 25 00 80 0C 41 40 00 20
 0.326056 1  CFF21CAx        Rx   d 8 25 00 80 0C 41 40 00 20
 0.330090 1  18F100D0x       Rx   d 8 0C FF FF FF FF FF FF FF
 0.337974 1  CFF21CAx        Rx   d 8 25 00 80 0C 41 40 00 20
 0.350167 1  CFF21CAx        Rx   d 8 25 00 80 0C 41 40 00 20
 0.351847 1  18FF2112x       Rx   d 8 01 00 00 00 00 00 00 00
 0.356862 1  18F100F3x       Rx   d 8 03 36 7D 13 F1 FA 14 00
 0.357764 1  18F102F3x       Rx   d 8 10 10 10 09 10 0C 00 07
 0.358369 1  18F100D0x       Rx   d 8 0C FF FF FF FF FF FF FF
 0.359209 1  18F106F3x       Rx   d 8 45 E0 FC FF FF FF FF FF
 0.360762 1  18F107F3x       Rx   d 8 38 A4 27 10 01 72 00 00
 0.362603 1  18F108F3x       Rx   d 8 00 00 00 00 00 00 00 00
 0.363167 1  CFF21CAx        Rx   d 8 26 00 80 0C 41 40 00 20
 0.363723 1  18F155F3x       Rx   d 8 38 37 38 38 38 39 38 00
 0.364651 1  18F156F3x       Rx   d 8 00 00 00 00 00 00 00 00
 0.365430 1  18F157F3x       Rx   d 8 00 00 00 00 00 00 00 00
 0.366514 1  18F158F3x       Rx   d 8 00 00 00 00 00 00 00 00
 0.367409 1  18F159F3x       Rx   d 8 00 00 00 00 00 00 00 00
 0.368281 1  18F15AF3x       Rx   d 8 00 00 00 00 00 00 00 00
 0.369069 1  18F15BF3x       Rx   d 7 00 00 00 00 00 00 00
 0.369785 1  18F15CF3x       Rx   d 8 00 00 00 00 00 00 00 00
 0.370847 1  18F15DF3x       Rx   d 8 00 00 00 00 00 00 00 00
 0.371683 1  18F15EF3x       Rx   d 8 00 00 00 00 00 00 00 00
 0.374077 1  CFF21CAx        Rx   d 8 26 00 80 0C 41 40 00 20
 0.382090 1  18F100D0x       Rx   d 8 0C FF FF FF FF FF FF FF
 0.386204 1  CFF21CAx        Rx   d 8 26 00 80 0C 41 40 00 20
 0.398362 1  CFF21CAx        Rx   d 8 26 00 80 0C 41 40 00 20
 0.410341 1  CFF21CAx        Rx   d 8 26 00 80 0C 41 40 00 20
 0.410890 1  18F100D0x       Rx   d 8 0C FF FF FF FF FF FF FF
 0.425864 1  CFF21CAx        Rx   d 8 26 00 80 0C 41 40 00 20
 0.434800 1  CFF21CAx        Rx   d 8 26 00 80 0C 41 40 00 20
 0.438382 1  18F100D0x       Rx   d 8 0C FF FF FF FF FF FF FF
 0.446371 1  CFF21CAx        Rx   d 8 26 00 80 0C 41 40 00 20
 0.448944 1  18FF2112x       Rx   d 8 01 00 00 00 00 00 00 00
 0.456837 1  18F100F3x       Rx   d 8 03 36 7D 13 F1 FA 14 00
 0.457748 1  18F102F3x       Rx   d 8 10 10 10 09 10 0C 00 07
 0.458953 1  CFF21CAx        Rx   d 8 25 00 80 0C 41 40 00 20
 0.459492 1  18F106F3x       Rx   d 8 45 E0 FC FF FF FF FF FF
 0.461034 1  18F107F3x       Rx   d 8 38 A4 27 10 01 72 00 00
 0.462530 1  18F100D0x       Rx   d 8 0C FF FF FF FF FF FF FF
 0.463108 1  18F108F3x       Rx   d 8 00 00 00 00 00 00 00 00
 0.463972 1  18F155F3x       Rx   d 8 38 37 38 38 38 39 38 00
 0.464807 1  18F156F3x       Rx   d 8 00 00 00 00 00 00 00 00
 0.465671 1  18F157F3x       Rx   d 8 00 00 00 00 00 00 00 00
 0.466620 1  18F158F3x       Rx   d 8 00 00 00 00 00 00 00 00
 0.467527 1  18F159F3x       Rx   d 8 00 00 00 00 00 00 00 00
 0.468448 1  18F15AF3x       Rx   d 8 00 00 00 00 00 00 00 00
 0.469326 1  18F15BF3x       Rx   d 7 00 00 00 00 00 00 00
 0.470203 1  18F15CF3x       Rx   d 8 00 00 00 00 00 00 00 00
 0.470805 1  CFF21CAx        Rx   d 8 25 00 80 0C 41 40 00 20
 0.471374 1  18F15DF3x       Rx   d 8 00 00 00 00 00 00 00 00
 0.472226 1  18F15EF3x       Rx   d 8 00 00 00 00 00 00 00 00
 0.483111 1  CFF21CAx        Rx   d 8 25 00 80 0C 41 40 00 20
 0.489249 1  18F104F3x       Rx   d 8 39 37 06 02 02 FF FF FF
 0.490186 1  18F113F3x       Rx   d 8 10 0B 10 0C 10 0C 10 0C
 0.490709 1  18F100D0x       Rx   d 8 0C FF FF FF FF FF FF FF
 0.491258 1  18F114F3x       Rx   d 8 10 0A 10 0A 10 0D 10 0D
 0.492262 1  18F115F3x       Rx   d 8 10 0A 10 0A 10 0A 10 09
 0.493032 1  18F116F3x       Rx   d 8 10 0D 10 0B 10 0E 10 10
 0.493926 1  18F117F3x       Rx   d 8 10 0B 10 0C 10 0F 10 0E
 0.494592 1  CFF21CAx        Rx   d 8 25 00 80 0C 41 40 00 20
 0.495214 1  18F118F3x       Rx   d 8 00 00 00 00 00 00 00 00
 0.496079 1  18F119F3x       Rx   d 8 00 00 00 00 00 00 00 00
 0.497018 1  18F11AF3x       Rx   d 8 00 00 00 00 00 00 00 00
 0.497890 1  18F11BF3x       Rx   d 8 00 00 00 00 00 00 00 00
 0.498819 1  18F11CF3x       Rx   d 8 00 00 00 00 00 00 00 00
 0.499730 1  18F11DF3x       Rx   d 8 00 00 00 00 00 00 00 00
 0.500942 1  18F11EF3x       Rx   d 8 00 00 00 00 00 00 00 00
 0.501794 1  18F11FF3x       Rx   d 8 00 00 00 00 00 00 00 00
 0.502707 1  18F120F3x       Rx   d 8 00 00 00 00 00 00 00 00
 0.503667 1  18F121F3x       Rx   d 8 00 00 00 00 00 00 00 00
 0.504604 1  18F122F3x       Rx   d 8 00 00 00 00 00 00 00 00
 0.505544 1  18F123F3x       Rx   d 8 00 00 00 00 00 00 00 00
 0.506667 1  18F124F3x       Rx   d 8 00 00 00 00 00 00 00 00
 0.507261 1  CFF21CAx        Rx   d 8 25 00 80 0C 41 40 00 20
 0.507752 1  18F125F3x       Rx   d 8 00 00 00 00 00 00 00 00
 0.508641 1  18F126F3x       Rx   d 8 00 00 00 00 00 00 00 00
 0.509680 1  18F127F3x       Rx   d 8 00 00 00 00 00 00 00 00
 0.510935 1  18F128F3x       Rx   d 8 00 00 00 00 00 00 00 00
 0.511649 1  18F129F3x       Rx   d 8 00 00 00 00 00 00 00 00
 0.512731 1  18F12AF3x       Rx   d 8 00 00 00 00 00 00 00 00
 0.513661 1  18F12BF3x       Rx   d 8 00 00 00 00 00 00 00 00
 0.514590 1  18F12CF3x       Rx   d 8 00 00 00 00 00 00 00 00
 0.515359 1  18F12DF3x       Rx   d 8 00 00 00 00 00 00 00 00
 0.516411 1  18F12EF3x       Rx   d 8 00 00 00 00 00 00 00 00
 0.517261 1  18F12FF3x       Rx   d 8 00 00 00 00 00 00 00 00
 0.518133 1  18F130F3x       Rx   d 8 00 00 00 00 00 00 00 00
 0.518816 1  CFF21CAx        Rx   d 8 25 00 80 0C 41 40 00 20
 0.519377 1  18F100D0x       Rx   d 8 0C FF FF FF FF FF FF FF
 0.519819 1  18F131F3x       Rx   d 8 00 00 00 00 00 00 00 00
 0.520965 1  18F132F3x       Rx   d 8 00 00 00 00 00 00 00 00
 0.521838 1  18F133F3x       Rx   d 8 00 00 00 00 00 00 00 00
 0.522745 1  18F134F3x       Rx   d 8 00 00 00 00 00 00 00 00
 0.523572 1  18F135F3x       Rx   d 8 00 00 00 00 00 00 00 00
 0.524556 1  18F136F3x       Rx   d 8 00 00 00 00 00 00 00 00
 0.525430 1  18F137F3x       Rx   d 8 00 00 00 00 00 00 00 00
 0.526350 1  18F138F3x       Rx   d 8 00 00 00 00 00 00 00 00
 0.527166 1  18F139F3x       Rx   d 8 00 00 00 00 00 00 00 00
 0.527824 1  18F13AF3x       Rx   d 8 00 00 00 00 00 00 00 00
 0.528678 1  18F13BF3x       Rx   d 8 00 00 00 00 00 00 00 00
 0.529552 1  18F13CF3x       Rx   d 8 00 00 00 00 00 00 00 00
 0.531385 1  CFF21CAx        Rx   d 8 25 00 80 0C 41 40 00 20
 0.543021 1  CFF21CAx        Rx   d 8 25 00 80 0C 41 40 00 20
 0.546469 1  18FF2112x       Rx   d 8 01 00 00 00 00 00 00 00
 0.547441 1  18F100D0x       Rx   d 8 0C FF FF FF FF FF FF FF
 0.554905 1  CFF21CAx        Rx   d 8 25 00 80 0C 41 40 00 20
 0.556781 1  18F100F3x       Rx   d 8 03 36 7D 13 F1 FA 14 00
 0.557674 1  18F102F3x       Rx   d 8 10 10 10 09 10 0C 00 07
 0.559019 1  18F106F3x       Rx   d 8 45 E0 FC FF FF FF FF FF
 0.560279 1  18F107F3x       Rx   d 8 38 A4 27 10 01 72 00 00
 0.562205 1  18F108F3x       Rx   d 8 00 00 00 00 00 00 00 00
 0.563009 1  18F155F3x       Rx   d 8 38 37 38 38 38 39 38 00
 0.563755 1  18F156F3x       Rx   d 8 00 00 00 00 00 00 00 00
 0.564804 1  18F157F3x       Rx   d 8 00 00 00 00 00 00 00 00
 0.565606 1  18F158F3x       Rx   d 8 00 00 00 00 00 00 00 00
 0.566665 1  18F159F3x       Rx   d 8 00 00 00 00 00 00 00 00
 0.567246 1  CFF21CAx        Rx   d 8 25 00 80 0C 41 40 00 20
 0.567821 1  18F15AF3x       Rx   d 8 00 00 00 00 00 00 00 00
 0.568667 1  18F15BF3x       Rx   d 7 00 00 00 00 00 00 00
 0.569474 1  18F15CF3x       Rx   d 8 00 00 00 00 00 00 00 00
 0.570624 1  18F15DF3x       Rx   d 8 00 00 00 00 00 00 00 00
 0.571503 1  18F15EF3x       Rx   d 8 00 00 00 00 00 00 00 00
 0.574927 1  18F100D0x       Rx   d 8 0C FF FF FF FF FF FF FF
 0.579576 1  CFF21CAx        Rx   d 8 25 00 80 0C 41 40 00 20
 0.591022 1  CFF21CAx        Rx   d 8 25 00 80 0C 41 40 00 20
 0.595111 1  18F100D0x       Rx   d 8 0C FF FF FF FF FF FF FF
 0.603246 1  CFF21CAx        Rx   d 8 25 00 80 0C 41 40 00 20
 0.615298 1  CFF21CAx        Rx   d 8 25 00 80 0C 41 40 00 20
 0.623403 1  18F100D0x       Rx   d 8 0C FF FF FF FF FF FF FF
 0.627562 1  CFF21CAx        Rx   d 8 25 00 80 0C 41 40 00 20
 0.644681 1  CFF21CAx        Rx   d 8 25 00 80 0C 41 40 00 20
 0.644804 1  18FF2112x       Rx   d 8 01 00 00 00 00 00 00 00
 0.644906 1  18FECACAx       Rx   d 8 00 00 00 00 00 00 FF FF
 0.651275 1  CFF21CAx        Rx   d 8 25 00 80 0C 41 40 00 20
 0.651822 1  18F100D0x       Rx   d 8 0C FF FF FF FF FF FF FF
 0.656778 1  18F100F3x       Rx   d 8 03 36 7D 13 F1 FA 14 00
 0.657659 1  18F102F3x       Rx   d 8 10 10 10 09 10 0C 00 07
 0.658978 1  18F106F3x       Rx   d 8 45 E0 FC FF FF FF FF FF
 0.660246 1  18F107F3x       Rx   d 8 38 A4 27 10 01 72 00 00
 0.661991 1  18F108F3x       Rx   d 8 00 00 00 00 00 00 00 00
 0.662884 1  18F155F3x       Rx   d 8 38 37 38 38 38 39 38 00
 0.663457 1  CFF21CAx        Rx   d 8 25 00 80 0C 41 40 00 20
 0.664021 1  18F156F3x       Rx   d 8 00 00 00 00 00 00 00 00
 0.664916 1  18F157F3x       Rx   d 8 00 00 00 00 00 00 00 00
 0.665824 1  18F158F3x       Rx   d 8 00 00 00 00 00 00 00 00
 0.666682 1  18F159F3x       Rx   d 8 00 00 00 00 00 00 00 00
 0.667606 1  18F15AF3x       Rx   d 8 00 00 00 00 00 00 00 00
 0.668515 1  18F15BF3x       Rx   d 7 00 00 00 00 00 00 00
 0.669430 1  18F15CF3x       Rx   d 8 00 00 00 00 00 00 00 00
 0.670288 1  18F15DF3x       Rx   d 8 00 00 00 00 00 00 00 00
 0.671130 1  18F15EF3x       Rx   d 8 00 00 00 00 00 00 00 00
 0.675777 1  CFF21CAx        Rx   d 8 25 00 80 0C 41 40 00 20
 0.679360 1  18F100D0x       Rx   d 8 0C FF FF FF FF FF FF FF
 0.687404 1  CFF21CAx        Rx   d 8 25 00 80 0C 41 40 00 20
 0.699964 1  CFF21CAx        Rx   d 8 25 00 80 0C 41 40 00 20
 0.703444 1  18F100D0x       Rx   d 8 0C FF FF FF FF FF FF FF
 0.711489 1  CFF21CAx        Rx   d 8 25 00 80 0C 41 40 00 20
 0.723657 1  CFF21CAx        Rx   d 8 25 00 80 0C 41 40 00 20
 0.731705 1  18F100D0x       Rx   d 8 0C FF FF FF FF FF FF FF
 0.735674 1  CFF21CAx        Rx   d 8 25 00 80 0C 41 40 00 20
 0.740955 1  18FF2112x       Rx   d 8 01 00 00 00 00 00 00 00
 0.747930 1  CFF21CAx        Rx   d 8 26 00 80 0C 41 40 00 20
 0.755899 1  18F100D0x       Rx   d 8 0C FF FF FF FF FF FF FF
 0.757135 1  18F100F3x       Rx   d 8 03 36 7D 13 F1 FA 14 00
 0.757911 1  18F102F3x       Rx   d 8 10 10 10 09 10 0C 00 07
 0.759210 1  18F106F3x       Rx   d 8 45 E0 FC FF FF FF FF FF
 0.759829 1  CFF21CAx        Rx   d 8 26 00 80 0C 41 40 00 20
 0.760701 1  18F107F3x       Rx   d 8 38 A4 27 10 01 72 00 00
 0.762457 1  18F108F3x       Rx   d 8 00 00 00 00 00 00 00 00
 0.763457 1  18F155F3x       Rx   d 8 38 37 38 38 38 39 38 00
 0.764366 1  18F156F3x       Rx   d 8 00 00 00 00 00 00 00 00
 0.765326 1  18F157F3x       Rx   d 8 00 00 00 00 00 00 00 00
 0.765971 1  18F158F3x       Rx   d 8 00 00 00 00 00 00 00 00
 0.766854 1  18F159F3x       Rx   d 8 00 00 00 00 00 00 00 00
 0.767782 1  18F15AF3x       Rx   d 8 00 00 00 00 00 00 00 00
 0.768573 1  18F15BF3x       Rx   d 7 00 00 00 00 00 00 00
 0.769620 1  18F15CF3x       Rx   d 8 00 00 00 00 00 00 00 00
 0.770797 1  18F15DF3x       Rx   d 8 00 00 00 00 00 00 00 00
 0.771671 1  18F15EF3x       Rx   d 8 00 00 00 00 00 00 00 00
 0.772291 1  CFF21CAx        Rx   d 8 25 00 80 0C 41 40 00 20
 0.783927 1  CFF21CAx        Rx   d 8 25 00 80 0C 41 40 00 20
 0.784489 1  18F100D0x       Rx   d 8 0C FF FF FF FF FF FF FF
 0.796014 1  CFF21CAx        Rx   d 8 25 00 80 0C 41 40 00 20
 0.808039 1  CFF21CAx        Rx   d 8 25 00 80 0C 41 40 00 20
 0.808586 1  18F100D0x       Rx   d 8 0C FF FF FF FF FF FF FF
 0.820164 1  CFF21CAx        Rx   d 8 25 00 80 0C 41 40 00 20
 0.832158 1  CFF21CAx        Rx   d 8 25 00 80 0C 41 40 00 20
 0.836401 1  18F100D0x       Rx   d 8 0C FF FF FF FF FF FF FF
 0.838051 1  18FF2112x       Rx   d 8 01 00 00 00 00 00 00 00
 0.844053 1  CFF21CAx        Rx   d 8 25 00 80 0C 41 40 00 20
 0.862640 1  CFF21CAx        Rx   d 8 25 00 80 0C 41 40 00 20
 0.862777 1  18F100F3x       Rx   d 8 03 36 7D 13 F1 FA 14 00
 0.862912 1  18F102F3x       Rx   d 8 10 10 10 09 10 0C 00 07
 0.863018 1  18F106F3x       Rx   d 8 45 E0 FC FF FF FF FF FF
 0.863117 1  18F107F3x       Rx   d 8 38 A4 27 10 01 72 00 00
 0.863216 1  18F108F3x       Rx   d 8 00 00 00 00 00 00 00 00
 0.863317 1  18F155F3x       Rx   d 8 38 37 38 38 38 39 38 00
 0.863793 1  18F156F3x       Rx   d 8 00 00 00 00 00 00 00 00
 0.864454 1  18F100D0x       Rx   d 8 0C FF FF FF FF FF FF FF
 0.864964 1  18F157F3x       Rx   d 8 00 00 00 00 00 00 00 00
 0.865893 1  18F158F3x       Rx   d 8 00 00 00 00 00 00 00 00
 0.866747 1  18F159F3x       Rx   d 8 00 00 00 00 00 00 00 00
 0.867685 1  18F15AF3x       Rx   d 8 00 00 00 00 00 00 00 00
 0.868526 1  CFF21CAx        Rx   d 8 25 00 80 0C 41 40 00 20
 0.869060 1  18F15BF3x       Rx   d 7 00 00 00 00 00 00 00
 0.869929 1  18F15CF3x       Rx   d 8 00 00 00 00 00 00 00 00
 0.870923 1  18F15DF3x       Rx   d 8 00 00 00 00 00 00 00 00
 0.871763 1  18F15EF3x       Rx   d 8 00 00 00 00 00 00 00 00
 0.880178 1  CFF21CAx        Rx   d 8 25 00 80 0C 41 40 00 20
 0.888260 1  18F100D0x       Rx   d 8 0C FF FF FF FF FF FF FF
 0.892232 1  CFF21CAx        Rx   d 8 25 00 80 0C 41 40 00 20
 0.904322 1  CFF21CAx        Rx   d 8 25 00 80 0C 41 40 00 20
 0.908266 1  18F100D0x       Rx   d 8 0C FF FF FF FF FF FF FF
 0.916408 1  CFF21CAx        Rx   d 8 25 00 80 0C 41 40 00 20
 0.928358 1  CFF21CAx        Rx   d 8 25 00 80 0C 41 40 00 20
 0.932880 1  18F100D0x       Rx   d 8 0C FF FF FF FF FF FF FF
 0.935531 1  18FF2112x       Rx   d 8 01 00 00 00 00 00 00 00
 0.940385 1  CFF21CAx        Rx   d 8 25 00 80 0C 41 40 00 20
 0.952439 1  CFF21CAx        Rx   d 8 25 00 80 0C 41 40 00 20
 0.956953 1  18F100F3x       Rx   d 8 03 36 7D 13 F1 FA 14 00
 0.957690 1  18F102F3x       Rx   d 8 10 10 10 09 10 0C 00 07
 0.959127 1  18F106F3x       Rx   d 8 45 E0 FC FF FF FF FF FF
 0.960321 1  18F107F3x       Rx   d 8 38 A4 27 10 01 72 00 00
 0.960816 1  18F100D0x       Rx   d 8 0C FF FF FF FF FF FF FF
 0.962357 1  18F108F3x       Rx   d 8 00 00 00 00 00 00 00 00
 0.963191 1  18F155F3x       Rx   d 8 38 37 38 38 38 39 38 00
 0.964097 1  18F156F3x       Rx   d 8 00 00 00 00 00 00 00 00
 0.964871 1  CFF21CAx        Rx   d 8 25 00 80 0C 41 40 00 20
 0.965237 1  18F157F3x       Rx   d 8 00 00 00 00 00 00 00 00
 0.965965 1  18F158F3x       Rx   d 8 00 00 00 00 00 00 00 00
 0.966916 1  18F159F3x       Rx   d 8 00 00 00 00 00 00 00 00
 0.967787 1  18F15AF3x       Rx   d 8 00 00 00 00 00 00 00 00
 0.968714 1  18F15BF3x       Rx   d 7 00 00 00 00 00 00 00
 0.969649 1  18F15CF3x       Rx   d 8 00 00 00 00 00 00 00 00
 0.970692 1  18F15DF3x       Rx   d 8 00 00 00 00 00 00 00 00
 0.971706 1  18F15EF3x       Rx   d 8 00 00 00 00 00 00 00 00
 0.976535 1  CFF21CAx        Rx   d 8 25 00 80 0C 41 40 00 20
 0.984603 1  18F100D0x       Rx   d 8 0C FF FF FF FF FF FF FF
 0.988707 1  CFF21CAx        Rx   d 8 25 00 80 0C 41 40 00 20
 1.000693 1  CFF21CAx        Rx   d 8 25 00 80 0C 41 40 00 20
 1.004802 1  18F100D0x       Rx   d 8 0C FF FF FF FF FF FF FF
 1.012828 1  CFF21CAx        Rx   d 8 25 00 80 0C 41 40 00 20
 1.024776 1  CFF21CAx        Rx   d 8 25 00 80 0C 41 40 00 20
 1.032795 1  18FF2112x       Rx   d 8 01 00 00 00 00 00 00 00
 1.033313 1  18F100D0x       Rx   d 8 0C FF FF FF FF FF FF FF
 1.036973 1  CFF21CAx        Rx   d 8 25 00 80 0C 41 40 00 20
 1.049006 1  CFF21CAx        Rx   d 8 25 00 80 0C 41 40 00 20
 1.057014 1  18F100F3x       Rx   d 8 03 36 7D 13 F1 FA 14 00
 1.057522 1  18F100D0x       Rx   d 8 0C FF FF FF FF FF FF FF
 1.057975 1  18F102F3x       Rx   d 8 10 10 10 09 10 0C 00 07
 1.059272 1  18F106F3x       Rx   d 8 45 E0 FC FF FF FF FF FF
 1.060887 1  18F107F3x       Rx   d 8 38 A4 27 10 01 72 00 00
 1.061290 1  CFF21CAx        Rx   d 8 25 00 80 0C 41 40 00 20
 1.062538 1  18F108F3x       Rx   d 8 00 00 00 00 00 00 00 00
 1.063451 1  18F155F3x       Rx   d 8 38 37 38 38 38 39 38 00
 1.064386 1  18F156F3x       Rx   d 8 00 00 00 00 00 00 00 00
 1.065290 1  18F157F3x       Rx   d 8 00 00 00 00 00 00 00 00
 1.066307 1  18F158F3x       Rx   d 8 00 00 00 00 00 00 00 00
 1.067279 1  18F159F3x       Rx   d 8 00 00 00 00 00 00 00 00
 1.068153 1  18F15AF3x       Rx   d 8 00 00 00 00 00 00 00 00
 1.082072 1  18F15BF3x       Rx   d 7 00 00 00 00 00 00 00
 1.082198 1  18F15CF3x       Rx   d 8 00 00 00 00 00 00 00 00
 1.082302 1  18F15DF3x       Rx   d 8 00 00 00 00 00 00 00 00
 1.082403 1  18F15EF3x       Rx   d 8 00 00 00 00 00 00 00 00
 1.082506 1  CFF21CAx        Rx   d 8 25 00 80 0C 41 40 00 20
 1.082607 1  18F100D0x       Rx   d 8 0C FF FF FF FF FF FF FF
 1.084999 1  CFF21CAx        Rx   d 8 25 00 80 0C 41 40 00 20
 1.097078 1  CFF21CAx        Rx   d 8 25 00 80 0C 41 40 00 20
 1.097633 1  18F100D0x       Rx   d 8 0C FF FF FF FF FF FF FF
 1.109265 1  CFF21CAx        Rx   d 8 25 00 80 0C 41 40 00 20
 1.121129 1  CFF21CAx        Rx   d 8 25 00 80 0C 41 40 00 20
 1.121710 1  18F100D0x       Rx   d 8 0C FF FF FF FF FF FF FF
 1.129955 1  18FF2112x       Rx   d 8 01 00 00 00 00 00 00 00
 1.133252 1  CFF21CAx        Rx   d 8 25 00 80 0C 41 40 00 20
 1.141295 1  18F100D0x       Rx   d 8 0C FF FF FF FF FF FF FF
 1.145399 1  CFF21CAx        Rx   d 8 25 00 80 0C 41 40 00 20
 1.156894 1  18F100F3x       Rx   d 8 03 36 7D 13 F1 FA 14 00
 1.157354 1  CFF21CAx        Rx   d 8 25 00 80 0C 41 40 00 20
 1.157959 1  18F102F3x       Rx   d 8 10 10 10 09 10 0C 00 07
 1.159283 1  18F106F3x       Rx   d 8 45 E0 FC FF FF FF FF FF
 1.160758 1  18F107F3x       Rx   d 8 38 A4 27 10 01 72 00 00
 1.162578 1  18F108F3x       Rx   d 8 00 00 00 00 00 00 00 00
 1.163524 1  18F155F3x       Rx   d 8 38 37 38 38 38 39 38 00
 1.164545 1  18F156F3x       Rx   d 8 00 00 00 00 00 00 00 00
 1.165338 1  18F157F3x       Rx   d 8 00 00 00 00 00 00 00 00
 1.166281 1  18F158F3x       Rx   d 8 00 00 00 00 00 00 00 00
 1.167100 1  18F159F3x       Rx   d 8 00 00 00 00 00 00 00 00
 1.168005 1  18F15AF3x       Rx   d 8 00 00 00 00 00 00 00 00
 1.168777 1  18F15BF3x       Rx   d 7 00 00 00 00 00 00 00
 1.169349 1  CFF21CAx        Rx   d 8 25 00 80 0C 41 40 00 20
 1.169947 1  18F100D0x       Rx   d 8 0C FF FF FF FF FF FF FF
 1.170508 1  18F15CF3x       Rx   d 8 00 00 00 00 00 00 00 00
 1.171388 1  18F15DF3x       Rx   d 8 00 00 00 00 00 00 00 00
 1.172283 1  18F15EF3x       Rx   d 8 00 00 00 00 00 00 00 00
 1.181709 1  CFF21CAx        Rx   d 8 25 00 80 0C 41 40 00 20
 1.193532 1  CFF21CAx        Rx   d 8 25 00 80 0C 41 40 00 20
 1.194067 1  18F100D0x       Rx   d 8 0C FF FF FF FF FF FF FF
 1.205645 1  CFF21CAx        Rx   d 8 25 00 80 0C 41 40 00 20
 1.217730 1  CFF21CAx        Rx   d 8 25 00 80 0C 41 40 00 20
 1.225655 1  18F100D0x       Rx   d 8 0C FF FF FF FF FF FF FF
 1.227267 1  18FF2112x       Rx   d 8 01 00 00 00 00 00 00 00
 1.229764 1  CFF21CAx        Rx   d 8 25 00 80 0C 41 40 00 20
 1.241792 1  CFF21CAx        Rx   d 8 25 00 80 0C 41 40 00 20
 1.249741 1  18F100D0x       Rx   d 8 0C FF FF FF FF FF FF FF
 1.253697 1  CFF21CAx        Rx   d 8 25 00 80 0C 41 40 00 20
 1.256783 1  18F100F3x       Rx   d 8 03 36 7D 13 F1 FA 14 00
 1.257668 1  18F102F3x       Rx   d 8 10 10 10 09 10 0C 00 07
 1.259196 1  18F106F3x       Rx   d 8 45 E0 FC FF FF FF FF FF
 1.260389 1  18F107F3x       Rx   d 8 38 A4 27 10 01 72 00 00
 1.262191 1  18F108F3x       Rx   d 8 00 00 00 00 00 00 00 00
 1.263034 1  18F155F3x       Rx   d 8 38 37 38 38 38 39 38 00
 1.263911 1  18F156F3x       Rx   d 8 00 00 00 00 00 00 00 00
