date Sun May 10 08:52:54.804 2026
base hex  timestamps absolute
internal events logged
Begin Triggerblock Sun May 10 08:52:54.811 2026
 0.000000 Start of measurement
 0.000000 1  18F100D0x       Rx   d 8 0C FF FF FF FF FF FF FF
 0.000152 1  CFF21CAx        Rx   d 8 02 00 80 0C 39 39 00 28
 0.000265 1  CFF21CAx        Rx   d 8 02 00 80 0C 39 39 00 28
 0.000352 1  18F100D0x       Rx   d 8 0C FF FF FF FF FF FF FF
 0.006833 1  CFF21CAx        Rx   d 8 03 00 80 0C 39 39 00 28
 0.018858 1  CFF21CAx        Rx   d 8 03 00 80 0C 39 39 00 28
 0.026913 1  18F100D0x       Rx   d 8 0C FF FF FF FF FF FF FF
 0.030856 1  CFF21CAx        Rx   d 8 03 00 80 0C 39 39 00 28
 0.043065 1  CFF21CAx        Rx   d 8 03 00 80 0C 39 39 00 28
 0.053542 1  18F100F3x       Rx   d 8 03 3A 7D 10 F4 FA 14 00
 0.054108 1  18FF2112x       Rx   d 8 01 00 00 00 00 00 00 00
 0.054666 1  18F102F3x       Rx   d 8 10 26 10 1F 10 0C 00 07
 0.055235 1  CFF21CAx        Rx   d 8 03 00 80 0C 39 39 00 28
 0.055800 1  18F100D0x       Rx   d 8 0C FF FF FF FF FF FF FF
 0.056381 1  18F106F3x       Rx   d 8 45 E0 FC FF FF FF FF FF
 0.057985 1  18F107F3x       Rx   d 8 38 A4 27 10 01 74 00 00
 0.059781 1  18F108F3x       Rx   d 8 00 00 00 00 00 00 00 00
 0.060691 1  18F155F3x       Rx   d 8 35 36 36 36 36 35 35 00
 0.061568 1  18F156F3x       Rx   d 8 00 00 00 00 00 00 00 00
 0.062499 1  18F157F3x       Rx   d 8 00 00 00 00 00 00 00 00
 0.063390 1  18F158F3x       Rx   d 8 00 00 00 00 00 00 00 00
 0.064360 1  18F159F3x       Rx   d 8 00 00 00 00 00 00 00 00
 0.065279 1  18F15AF3x       Rx   d 8 00 00 00 00 00 00 00 00
 0.066054 1  18F15BF3x       Rx   d 7 00 00 00 00 00 00 00
 0.066926 1  18F15CF3x       Rx   d 8 00 00 00 00 00 00 00 00
 0.067462 1  CFF21CAx        Rx   d 8 03 00 80 0C 39 39 00 28
 0.068068 1  18F15DF3x       Rx   d 8 00 00 00 00 00 00 00 00
 0.068895 1  18F15EF3x       Rx   d 8 00 00 00 00 00 00 00 00
 0.079104 1  CFF21CAx        Rx   d 8 02 00 80 0C 39 39 00 28
 0.083135 1  18F100D0x       Rx   d 8 0C FF FF FF FF FF FF FF
 0.091203 1  CFF21CAx        Rx   d 8 02 00 80 0C 39 39 00 28
 0.103204 1  CFF21CAx        Rx   d 8 02 00 80 0C 39 39 00 28
 0.107294 1  18F100D0x       Rx   d 8 0C FF FF FF FF FF FF FF
 0.115681 1  CFF21CAx        Rx   d 8 03 00 80 0C 39 39 00 28
 0.127321 1  CFF21CAx        Rx   d 8 03 00 80 0C 39 39 00 28
 0.127830 1  18F100D0x       Rx   d 8 0C FF FF FF FF FF FF FF
 0.139872 1  CFF21CAx        Rx   d 8 03 00 80 0C 39 39 00 28
 0.151473 1  18FF2112x       Rx   d 8 01 00 00 00 00 00 00 00
 0.151982 1  CFF21CAx        Rx   d 8 02 00 80 0C 39 39 00 28
 0.153613 1  18F100F3x       Rx   d 8 03 3A 7D 10 F4 FA 14 00
 0.154594 1  18F102F3x       Rx   d 8 10 26 10 1F 10 0C 00 07
 0.155871 1  18F106F3x       Rx   d 8 45 E0 FC FF FF FF FF FF
 0.156421 1  18F100D0x       Rx   d 8 0C FF FF FF FF FF FF FF
 0.157566 1  18F107F3x       Rx   d 8 38 A4 27 10 01 74 00 00
 0.159391 1  18F108F3x       Rx   d 8 00 00 00 00 00 00 00 00
 0.160409 1  18F155F3x       Rx   d 8 35 36 36 36 36 35 35 00
 0.161299 1  18F156F3x       Rx   d 8 00 00 00 00 00 00 00 00
 0.162148 1  18F157F3x       Rx   d 8 00 00 00 00 00 00 00 00
 0.163045 1  18F158F3x       Rx   d 8 00 00 00 00 00 00 00 00
 0.163635 1  CFF21CAx        Rx   d 8 02 00 80 0C 39 39 00 28
 0.164216 1  18F159F3x       Rx   d 8 00 00 00 00 00 00 00 00
 0.165089 1  18F15AF3x       Rx   d 8 00 00 00 00 00 00 00 00
 0.165893 1  18F15BF3x       Rx   d 7 00 00 00 00 00 00 00
 0.166856 1  18F15CF3x       Rx   d 8 00 00 00 00 00 00 00 00
 0.167836 1  18F15DF3x       Rx   d 8 00 00 00 00 00 00 00 00
 0.168734 1  18F15EF3x       Rx   d 8 00 00 00 00 00 00 00 00
 0.175602 1  CFF21CAx        Rx   d 8 02 00 80 0C 39 39 00 28
 0.181221 1  18F104F3x       Rx   d 8 36 35 02 01 01 FF FF FF
 0.182119 1  18F113F3x       Rx   d 8 10 21 10 22 10 21 10 22
 0.183005 1  18F114F3x       Rx   d 8 10 20 10 20 10 22 10 22
 0.183640 1  18F100D0x       Rx   d 8 0C FF FF FF FF FF FF FF
 0.184207 1  18F115F3x       Rx   d 8 10 20 10 20 10 20 10 1F
 0.185098 1  18F116F3x       Rx   d 8 10 24 10 22 10 25 10 26
 0.185988 1  18F117F3x       Rx   d 8 10 21 10 22 10 26 10 25
 0.186911 1  18F118F3x       Rx   d 8 00 00 00 00 00 00 00 00
 0.187722 1  CFF21CAx        Rx   d 8 02 00 80 0C 39 39 00 28
 0.188298 1  18F119F3x       Rx   d 8 00 00 00 00 00 00 00 00
 0.189217 1  18F11AF3x       Rx   d 8 00 00 00 00 00 00 00 00
 0.190141 1  18F11BF3x       Rx   d 8 00 00 00 00 00 00 00 00
 0.191033 1  18F11CF3x       Rx   d 8 00 00 00 00 00 00 00 00
 0.191944 1  18F11DF3x       Rx   d 8 00 00 00 00 00 00 00 00
 0.192846 1  18F11EF3x       Rx   d 8 00 00 00 00 00 00 00 00
 0.193740 1  18F11FF3x       Rx   d 8 00 00 00 00 00 00 00 00
 0.194656 1  18F120F3x       Rx   d 8 00 00 00 00 00 00 00 00
 0.195637 1  18F121F3x       Rx   d 8 00 00 00 00 00 00 00 00
 0.196557 1  18F122F3x       Rx   d 8 00 00 00 00 00 00 00 00
 0.197758 1  18F123F3x       Rx   d 8 00 00 00 00 00 00 00 00
 0.198654 1  18F124F3x       Rx   d 8 00 00 00 00 00 00 00 00
 0.199589 1  18F125F3x       Rx   d 8 00 00 00 00 00 00 00 00
 0.200144 1  CFF21CAx        Rx   d 8 02 00 80 0C 39 39 00 28
 0.200716 1  18F126F3x       Rx   d 8 00 00 00 00 00 00 00 00
 0.201653 1  18F127F3x       Rx   d 8 00 00 00 00 00 00 00 00
 0.202583 1  18F128F3x       Rx   d 8 00 00 00 00 00 00 00 00
 0.203504 1  18F129F3x       Rx   d 8 00 00 00 00 00 00 00 00
 0.204436 1  18F12AF3x       Rx   d 8 00 00 00 00 00 00 00 00
 0.205473 1  18F12BF3x       Rx   d 8 00 00 00 00 00 00 00 00
 0.206089 1  18F12CF3x       Rx   d 8 00 00 00 00 00 00 00 00
 0.218104 1  18F12DF3x       Rx   d 8 00 00 00 00 00 00 00 00
 0.218274 1  18F12EF3x       Rx   d 8 00 00 00 00 00 00 00 00
 0.218397 1  18F12FF3x       Rx   d 8 00 00 00 00 00 00 00 00
 0.218502 1  18F130F3x       Rx   d 8 00 00 00 00 00 00 00 00
 0.218605 1  18F131F3x       Rx   d 8 00 00 00 00 00 00 00 00
 0.218702 1  18F132F3x       Rx   d 8 00 00 00 00 00 00 00 00
 0.218798 1  CFF21CAx        Rx   d 8 02 00 80 0C 39 39 00 28
 0.218899 1  18F100D0x       Rx   d 8 0C FF FF FF FF FF FF FF
 0.218995 1  18F133F3x       Rx   d 8 00 00 00 00 00 00 00 00
 0.219087 1  18F134F3x       Rx   d 8 00 00 00 00 00 00 00 00
 0.219169 1  18F135F3x       Rx   d 8 00 00 00 00 00 00 00 00
 0.219252 1  18F136F3x       Rx   d 8 00 00 00 00 00 00 00 00
 0.219338 1  18F137F3x       Rx   d 8 00 00 00 00 00 00 00 00
 0.219421 1  18F138F3x       Rx   d 8 00 00 00 00 00 00 00 00
 0.219502 1  18F139F3x       Rx   d 8 00 00 00 00 00 00 00 00
 0.219584 1  18F13AF3x       Rx   d 8 00 00 00 00 00 00 00 00
 0.220330 1  18F13BF3x       Rx   d 8 00 00 00 00 00 00 00 00
 0.221171 1  18F13CF3x       Rx   d 8 00 00 00 00 00 00 00 00
 0.223664 1  CFF21CAx        Rx   d 8 02 00 80 0C 39 39 00 28
 0.235776 1  CFF21CAx        Rx   d 8 02 00 80 0C 39 39 00 28
 0.239724 1  18F100D0x       Rx   d 8 0C FF FF FF FF FF FF FF
 0.247730 1  CFF21CAx        Rx   d 8 02 00 80 0C 39 39 00 28
 0.248625 1  18FF2112x       Rx   d 8 01 00 00 00 00 00 00 00
 0.253555 1  18F100F3x       Rx   d 8 03 3A 7D 10 F4 FA 14 00
 0.254442 1  18F102F3x       Rx   d 8 10 26 10 1F 10 0C 00 07
 0.255738 1  18F106F3x       Rx   d 8 45 E0 FC FF FF FF FF FF
 0.257004 1  18F107F3x       Rx   d 8 38 A4 27 10 01 74 00 00
 0.258770 1  18F108F3x       Rx   d 8 00 00 00 00 00 00 00 00
 0.259632 1  18F155F3x       Rx   d 8 35 36 36 36 36 35 35 00
 0.260301 1  CFF21CAx        Rx   d 8 02 00 80 0C 39 39 00 28
 0.260779 1  18F156F3x       Rx   d 8 00 00 00 00 00 00 00 00
 0.261676 1  18F157F3x       Rx   d 8 00 00 00 00 00 00 00 00
 0.262537 1  18F158F3x       Rx   d 8 00 00 00 00 00 00 00 00
 0.263484 1  18F159F3x       Rx   d 8 00 00 00 00 00 00 00 00
 0.264402 1  18F15AF3x       Rx   d 8 00 00 00 00 00 00 00 00
 0.265277 1  18F15BF3x       Rx   d 7 00 00 00 00 00 00 00
 0.266152 1  18F15CF3x       Rx   d 8 00 00 00 00 00 00 00 00
 0.266999 1  18F15DF3x       Rx   d 8 00 00 00 00 00 00 00 00
 0.267826 1  18F15EF3x       Rx   d 8 00 00 00 00 00 00 00 00
 0.268403 1  18F100D0x       Rx   d 8 0C FF FF FF FF FF FF FF
 0.271885 1  CFF21CAx        Rx   d 8 03 00 80 0C 39 39 00 28
 0.283985 1  CFF21CAx        Rx   d 8 03 00 80 0C 39 39 00 28
 0.295928 1  CFF21CAx        Rx   d 8 03 00 80 0C 39 39 00 28
 0.296515 1  18F100D0x       Rx   d 8 0C FF FF FF FF FF FF FF
 0.308414 1  CFF21CAx        Rx   d 8 02 00 80 0C 39 39 00 28
 0.320062 1  CFF21CAx        Rx   d 8 02 00 80 0C 39 39 00 28
 0.324134 1  18F100D0x       Rx   d 8 0C FF FF FF FF FF FF FF
 0.332613 1  CFF21CAx        Rx   d 8 02 00 80 0C 39 39 00 28
 0.344155 1  CFF21CAx        Rx   d 8 02 00 80 0C 39 39 00 28
 0.345984 1  18FF2112x       Rx   d 8 01 00 00 00 00 00 00 00
 0.352239 1  18F100D0x       Rx   d 8 0C FF FF FF FF FF FF FF
 0.353637 1  18F100F3x       Rx   d 8 03 3A 7D 10 F4 FA 14 00
 0.354537 1  18F102F3x       Rx   d 8 10 26 10 1F 10 0C 00 07
 0.355832 1  18F106F3x       Rx   d 8 45 E0 FC FF FF FF FF FF
 0.356668 1  CFF21CAx        Rx   d 8 02 00 80 0C 39 39 00 28
 0.357315 1  18F107F3x       Rx   d 8 38 A4 27 10 01 74 00 00
 0.359039 1  18F108F3x       Rx   d 8 00 00 00 00 00 00 00 00
 0.359919 1  18F155F3x       Rx   d 8 35 36 36 36 36 35 35 00
 0.360896 1  18F156F3x       Rx   d 8 00 00 00 00 00 00 00 00
 0.361659 1  18F157F3x       Rx   d 8 00 00 00 00 00 00 00 00
 0.362615 1  18F158F3x       Rx   d 8 00 00 00 00 00 00 00 00
 0.363524 1  18F159F3x       Rx   d 8 00 00 00 00 00 00 00 00
 0.364430 1  18F15AF3x       Rx   d 8 00 00 00 00 00 00 00 00
 0.365248 1  18F15BF3x       Rx   d 7 00 00 00 00 00 00 00
 0.366171 1  18F15CF3x       Rx   d 8 00 00 00 00 00 00 00 00
 0.366965 1  18F15DF3x       Rx   d 8 00 00 00 00 00 00 00 00
 0.367864 1  18F15EF3x       Rx   d 8 00 00 00 00 00 00 00 00
 0.368363 1  CFF21CAx        Rx   d 8 02 00 80 0C 39 39 00 28
 0.380394 1  CFF21CAx        Rx   d 8 02 00 80 0C 39 39 00 28
 0.380967 1  18F100D0x       Rx   d 8 0C FF FF FF FF FF FF FF
 0.392478 1  CFF21CAx        Rx   d 8 02 00 80 0C 39 39 00 28
 0.400538 1  18F100D0x       Rx   d 8 0C FF FF FF FF FF FF FF
 0.404972 1  CFF21CAx        Rx   d 8 02 00 80 0C 39 39 00 28
 0.416589 1  CFF21CAx        Rx   d 8 02 00 80 0C 39 39 00 28
 0.439719 1  CFF21CAx        Rx   d 8 02 00 80 0C 39 39 00 28
 0.439858 1  18F100D0x       Rx   d 8 0C FF FF FF FF FF FF FF
 0.440576 1  CFF21CAx        Rx   d 8 02 00 80 0C 39 39 00 28
 0.443299 1  18FF2112x       Rx   d 8 01 00 00 00 00 00 00 00
 0.452684 1  CFF21CAx        Rx   d 8 02 00 80 0C 39 39 00 28
 0.453287 1  18F100D0x       Rx   d 8 0C FF FF FF FF FF FF FF
 0.453827 1  18F100F3x       Rx   d 8 03 3A 7D 10 F4 FA 14 00
 0.454673 1  18F102F3x       Rx   d 8 10 26 10 1F 10 06 00 07
 0.455932 1  18F106F3x       Rx   d 8 45 E0 FC FF FF FF FF FF
 0.457477 1  18F107F3x       Rx   d 8 38 A4 27 10 01 74 00 00
 0.459307 1  18F108F3x       Rx   d 8 00 00 00 00 00 00 00 00
 0.460210 1  18F155F3x       Rx   d 8 35 36 36 36 36 36 35 00
 0.461094 1  18F156F3x       Rx   d 8 00 00 00 00 00 00 00 00
 0.461963 1  18F157F3x       Rx   d 8 00 00 00 00 00 00 00 00
 0.462855 1  18F158F3x       Rx   d 8 00 00 00 00 00 00 00 00
 0.463731 1  18F159F3x       Rx   d 8 00 00 00 00 00 00 00 00
 0.464588 1  18F15AF3x       Rx   d 8 00 00 00 00 00 00 00 00
 0.465161 1  CFF21CAx        Rx   d 8 02 00 80 0C 39 39 00 28
 0.465693 1  18F15BF3x       Rx   d 7 00 00 00 00 00 00 00
 0.466600 1  18F15CF3x       Rx   d 8 00 00 00 00 00 00 00 00
 0.467692 1  18F15DF3x       Rx   d 8 00 00 00 00 00 00 00 00
 0.468571 1  18F15EF3x       Rx   d 8 00 00 00 00 00 00 00 00
 0.472714 1  18F100D0x       Rx   d 8 0C FF FF FF FF FF FF FF
 0.476724 1  CFF21CAx        Rx   d 8 02 00 80 0C 39 39 00 28
 0.488762 1  CFF21CAx        Rx   d 8 02 00 80 0C 39 39 00 28
 0.501320 1  CFF21CAx        Rx   d 8 02 00 80 0C 39 39 00 28
 0.501827 1  18F100D0x       Rx   d 8 0C FF FF FF FF FF FF FF
 0.512875 1  CFF21CAx        Rx   d 8 02 00 80 0C 39 39 00 28
 0.524901 1  CFF21CAx        Rx   d 8 02 00 80 0C 39 39 00 28
 0.528895 1  18F100D0x       Rx   d 8 0C FF FF FF FF FF FF FF
 0.537044 1  CFF21CAx        Rx   d 8 02 00 80 0C 39 39 00 28
 0.540598 1  18FF2112x       Rx   d 8 01 00 00 00 00 00 00 00
 0.549167 1  CFF21CAx        Rx   d 8 02 00 80 0C 39 39 00 28
 0.553682 1  18F100F3x       Rx   d 8 03 3A 7D 10 F4 FA 14 00
 0.554555 1  18F102F3x       Rx   d 8 10 26 10 1F 10 06 00 07
 0.555866 1  18F106F3x       Rx   d 8 45 E0 FC FF FF FF FF FF
 0.557204 1  18F100D0x       Rx   d 8 0C FF FF FF FF FF FF FF
 0.557753 1  18F107F3x       Rx   d 8 38 A4 27 10 01 74 00 00
 0.559558 1  18F108F3x       Rx   d 8 00 00 00 00 00 00 00 00
 0.560458 1  18F155F3x       Rx   d 8 35 36 36 36 36 36 35 00
 0.561244 1  CFF21CAx        Rx   d 8 02 00 80 0C 39 39 00 28
 0.561817 1  18F156F3x       Rx   d 8 00 00 00 00 00 00 00 00
 0.562716 1  18F157F3x       Rx   d 8 00 00 00 00 00 00 00 00
 0.563660 1  18F158F3x       Rx   d 8 00 00 00 00 00 00 00 00
 0.564542 1  18F159F3x       Rx   d 8 00 00 00 00 00 00 00 00
 0.565476 1  18F15AF3x       Rx   d 8 00 00 00 00 00 00 00 00
 0.566397 1  18F15BF3x       Rx   d 7 00 00 00 00 00 00 00
 0.567219 1  18F15CF3x       Rx   d 8 00 00 00 00 00 00 00 00
 0.568071 1  18F15DF3x       Rx   d 8 00 00 00 00 00 00 00 00
 0.568917 1  18F15EF3x       Rx   d 8 00 00 00 00 00 00 00 00
 0.573236 1  CFF21CAx        Rx   d 8 02 00 80 0C 39 39 00 28
 0.577239 1  18F100D0x       Rx   d 8 0C FF FF FF FF FF FF FF
 0.585255 1  CFF21CAx        Rx   d 8 02 00 80 0C 39 39 00 28
 0.597751 1  CFF21CAx        Rx   d 8 02 00 80 0C 39 39 00 28
 0.605410 1  18F100D0x       Rx   d 8 0C FF FF FF FF FF FF FF
 0.609249 1  CFF21CAx        Rx   d 8 02 00 80 0C 39 39 00 28
 0.621451 1  CFF21CAx        Rx   d 8 02 00 80 0C 39 39 00 28
 0.633493 1  CFF21CAx        Rx   d 8 02 00 80 0C 39 39 00 28
 0.634038 1  18F100D0x       Rx   d 8 0C FF FF FF FF FF FF FF
 0.637909 1  18FF2112x       Rx   d 8 01 00 00 00 00 00 00 00
 0.645502 1  CFF21CAx        Rx   d 8 02 00 80 0C 39 39 00 28
 0.661265 1  18F100F3x       Rx   d 8 03 3A 7D 10 F4 FA 14 00
 0.661410 1  18F102F3x       Rx   d 8 10 26 10 1F 10 06 00 07
 0.661524 1  18F106F3x       Rx   d 8 45 E0 FC FF FF FF FF FF
 0.661627 1  18F107F3x       Rx   d 8 38 A4 27 10 01 74 00 00
 0.661727 1  CFF21CAx        Rx   d 8 03 00 80 0C 39 39 00 28
 0.661828 1  18F108F3x       Rx   d 8 00 00 00 00 00 00 00 00
 0.661942 1  18F155F3x       Rx   d 8 35 36 36 36 36 36 35 00
 0.662048 1  18F156F3x       Rx   d 8 00 00 00 00 00 00 00 00
 0.662146 1  18F100D0x       Rx   d 8 0C FF FF FF FF FF FF FF
 0.662245 1  18F157F3x       Rx   d 8 00 00 00 00 00 00 00 00
 0.662985 1  18F158F3x       Rx   d 8 00 00 00 00 00 00 00 00
 0.663850 1  18F159F3x       Rx   d 8 00 00 00 00 00 00 00 00
 0.664721 1  18F15AF3x       Rx   d 8 00 00 00 00 00 00 00 00
 0.665542 1  18F15BF3x       Rx   d 7 00 00 00 00 00 00 00
 0.666431 1  18F15CF3x       Rx   d 8 00 00 00 00 00 00 00 00
 0.667616 1  18F15DF3x       Rx   d 8 00 00 00 00 00 00 00 00
 0.668493 1  18F15EF3x       Rx   d 8 00 00 00 00 00 00 00 00
 0.669498 1  CFF21CAx        Rx   d 8 03 00 80 0C 39 39 00 28
 0.681521 1  CFF21CAx        Rx   d 8 03 00 80 0C 39 39 00 28
 0.682102 1  18F100D0x       Rx   d 8 0C FF FF FF FF FF FF FF
 0.693591 1  CFF21CAx        Rx   d 8 03 00 80 0C 39 39 00 28
 0.705629 1  CFF21CAx        Rx   d 8 03 00 80 0C 39 39 00 28
 0.709642 1  18F100D0x       Rx   d 8 0C FF FF FF FF FF FF FF
 0.717719 1  CFF21CAx        Rx   d 8 02 00 80 0C 39 39 00 28
 0.729762 1  CFF21CAx        Rx   d 8 02 00 80 0C 39 39 00 28
 0.735022 1  18FF2112x       Rx   d 8 01 00 00 00 00 00 00 00
 0.737735 1  18F100D0x       Rx   d 8 0C FF FF FF FF FF FF FF
 0.741775 1  CFF21CAx        Rx   d 8 02 00 80 0C 39 39 00 28
 0.753674 1  18F100F3x       Rx   d 8 03 3A 7D 10 F4 FA 14 00
 0.754308 1  CFF21CAx        Rx   d 8 03 00 80 0C 39 39 00 28
 0.754866 1  18F102F3x       Rx   d 8 10 26 10 1F 10 06 00 07
 0.756106 1  18F106F3x       Rx   d 8 45 E0 FC FF FF FF FF FF
 0.757668 1  18F107F3x       Rx   d 8 38 A4 27 10 01 74 00 00
 0.759515 1  18F108F3x       Rx   d 8 00 00 00 00 00 00 00 00
 0.760410 1  18F155F3x       Rx   d 8 35 36 36 36 36 36 35 00
 0.761313 1  18F156F3x       Rx   d 8 00 00 00 00 00 00 00 00
 0.762168 1  18F157F3x       Rx   d 8 00 00 00 00 00 00 00 00
 0.763158 1  18F158F3x       Rx   d 8 00 00 00 00 00 00 00 00
 0.763948 1  18F159F3x       Rx   d 8 00 00 00 00 00 00 00 00
 0.764892 1  18F15AF3x       Rx   d 8 00 00 00 00 00 00 00 00
 0.765692 1  18F15BF3x       Rx   d 7 00 00 00 00 00 00 00
 0.766280 1  CFF21CAx        Rx   d 8 03 00 80 0C 39 39 00 28
 0.766855 1  18F100D0x       Rx   d 8 0C FF FF FF FF FF FF FF
 0.767435 1  18F15CF3x       Rx   d 8 00 00 00 00 00 00 00 00
 0.768286 1  18F15DF3x       Rx   d 8 00 00 00 00 00 00 00 00
 0.769206 1  18F15EF3x       Rx   d 8 00 00 00 00 00 00 00 00
 0.778610 1  CFF21CAx        Rx   d 8 03 00 80 0C 39 39 00 28
 0.790104 1  CFF21CAx        Rx   d 8 03 00 80 0C 39 39 00 28
 0.794128 1  18F100D0x       Rx   d 8 0C FF FF FF FF FF FF FF
 0.802149 1  CFF21CAx        Rx   d 8 03 00 80 0C 39 39 00 28
 0.814197 1  CFF21CAx        Rx   d 8 03 00 80 0C 39 39 00 28
 0.822238 1  18F100D0x       Rx   d 8 0C FF FF FF FF FF FF FF
 0.826246 1  CFF21CAx        Rx   d 8 03 00 80 0C 39 39 00 28
 0.832348 1  18FF2112x       Rx   d 8 01 00 00 00 00 00 00 00
 0.838285 1  CFF21CAx        Rx   d 8 03 00 80 0C 39 39 00 28
 0.850341 1  CFF21CAx        Rx   d 8 03 00 80 0C 39 39 00 28
 0.850915 1  18F100D0x       Rx   d 8 0C FF FF FF FF FF FF FF
 0.853749 1  18F100F3x       Rx   d 8 03 3A 7D 10 F4 FA 14 00
 0.854642 1  18F102F3x       Rx   d 8 10 26 10 1F 10 06 00 07
 0.855933 1  18F106F3x       Rx   d 8 45 E0 FC FF FF FF FF FF
 0.857196 1  18F107F3x       Rx   d 8 38 A4 27 10 01 74 00 00
 0.858975 1  18F108F3x       Rx   d 8 00 00 00 00 00 00 00 00
 0.859815 1  18F155F3x       Rx   d 8 35 36 36 36 36 36 35 00
 0.860724 1  18F156F3x       Rx   d 8 00 00 00 00 00 00 00 00
 0.861646 1  18F157F3x       Rx   d 8 00 00 00 00 00 00 00 00
 0.862446 1  CFF21CAx        Rx   d 8 03 00 80 0C 39 39 00 28
 0.877482 1  18F158F3x       Rx   d 8 00 00 00 00 00 00 00 00
 0.877624 1  18F159F3x       Rx   d 8 00 00 00 00 00 00 00 00
 0.877725 1  18F15AF3x       Rx   d 8 00 00 00 00 00 00 00 00
 0.877818 1  18F15BF3x       Rx   d 7 00 00 00 00 00 00 00
 0.877919 1  18F15CF3x       Rx   d 8 00 00 00 00 00 00 00 00
 0.878018 1  18F15DF3x       Rx   d 8 00 00 00 00 00 00 00 00
 0.878114 1  18F15EF3x       Rx   d 8 00 00 00 00 00 00 00 00
 0.878212 1  CFF21CAx        Rx   d 8 03 00 80 0C 39 39 00 28
 0.878313 1  18F100D0x       Rx   d 8 0C FF FF FF FF FF FF FF
 0.886331 1  CFF21CAx        Rx   d 8 03 00 80 0C 39 39 00 28
 0.898396 1  CFF21CAx        Rx   d 8 03 00 80 0C 39 39 00 28
 0.906490 1  18F100D0x       Rx   d 8 0C FF FF FF FF FF FF FF
 0.910447 1  CFF21CAx        Rx   d 8 03 00 80 0C 39 39 00 28
 0.918481 1  18FECACAx       Rx   d 8 00 00 00 00 00 00 FF FF
 0.922518 1  CFF21CAx        Rx   d 8 02 00 80 0C 39 39 00 28
 0.929587 1  18FF2112x       Rx   d 8 01 00 00 00 00 00 00 00
 0.934594 1  CFF21CAx        Rx   d 8 02 00 80 0C 39 39 00 28
 0.938616 1  18F100D0x       Rx   d 8 0C FF FF FF FF FF FF FF
 0.946643 1  CFF21CAx        Rx   d 8 02 00 80 0C 39 39 00 28
 0.953669 1  18F100F3x       Rx   d 8 03 3A 7D 10 F4 FA 14 00
 0.954489 1  18F102F3x       Rx   d 8 10 26 10 1F 10 06 00 07
 0.955858 1  18F106F3x       Rx   d 8 45 E0 FC FF FF FF FF FF
 0.957110 1  18F107F3x       Rx   d 8 38 A4 27 10 01 74 00 00
 0.958708 1  CFF21CAx        Rx   d 8 02 00 80 0C 39 39 00 28
 0.959277 1  18F108F3x       Rx   d 8 00 00 00 00 00 00 00 00
 0.960113 1  18F155F3x       Rx   d 8 35 36 36 36 36 36 35 00
 0.961058 1  18F156F3x       Rx   d 8 00 00 00 00 00 00 00 00
 0.961953 1  18F157F3x       Rx   d 8 00 00 00 00 00 00 00 00
 0.962784 1  18F158F3x       Rx   d 8 00 00 00 00 00 00 00 00
 0.963702 1  18F159F3x       Rx   d 8 00 00 00 00 00 00 00 00
 0.964586 1  18F15AF3x       Rx   d 8 00 00 00 00 00 00 00 00
 0.965412 1  18F15BF3x       Rx   d 7 00 00 00 00 00 00 00
 0.966352 1  18F15CF3x       Rx   d 8 00 00 00 00 00 00 00 00
 0.966888 1  18F100D0x       Rx   d 8 0C FF FF FF FF FF FF FF
 0.967480 1  18F15DF3x       Rx   d 8 00 00 00 00 00 00 00 00
 0.968415 1  18F15EF3x       Rx   d 8 00 00 00 00 00 00 00 00
 0.971295 1  CFF21CAx        Rx   d 8 02 00 80 0C 39 39 00 28
 0.982983 1  CFF21CAx        Rx   d 8 02 00 80 0C 39 39 00 28
 0.994950 1  CFF21CAx        Rx   d 8 02 00 80 0C 39 39 00 28
 0.995523 1  18F100D0x       Rx   d 8 0C FF FF FF FF FF FF FF
 1.006843 1  CFF21CAx        Rx   d 8 02 00 80 0C 39 39 00 28
 1.019129 1  CFF21CAx        Rx   d 8 02 00 80 0C 39 39 00 28
 1.023054 1  18F100D0x       Rx   d 8 0C FF FF FF FF FF FF FF
 1.027010 1  18FF2112x       Rx   d 8 01 00 00 00 00 00 00 00
 1.031062 1  CFF21CAx        Rx   d 8 02 00 80 0C 39 39 00 28
 1.043147 1  CFF21CAx        Rx   d 8 03 00 80 0C 39 39 00 28
 1.051192 1  18F100D0x       Rx   d 8 0C FF FF FF FF FF FF FF
 1.053747 1  18F100F3x       Rx   d 8 03 3A 7D 10 F4 FA 14 00
 1.054652 1  18F102F3x       Rx   d 8 10 26 10 1F 10 06 00 07
 1.055236 1  CFF21CAx        Rx   d 8 03 00 80 0C 39 39 00 28
 1.055940 1  18F106F3x       Rx   d 8 45 E0 FC FF FF FF FF FF
 1.057037 1  18F107F3x       Rx   d 8 38 A4 27 10 01 74 00 00
 1.058977 1  18F108F3x       Rx   d 8 00 00 00 00 00 00 00 00
 1.059853 1  18F155F3x       Rx   d 8 35 36 36 36 36 36 35 00
 1.060715 1  18F156F3x       Rx   d 8 00 00 00 00 00 00 00 00
 1.061484 1  18F157F3x       Rx   d 8 00 00 00 00 00 00 00 00
 1.062405 1  18F158F3x       Rx   d 8 00 00 00 00 00 00 00 00
 1.063326 1  18F159F3x       Rx   d 8 00 00 00 00 00 00 00 00
 1.064253 1  18F15AF3x       Rx   d 8 00 00 00 00 00 00 00 00
 1.065120 1  18F15BF3x       Rx   d 7 00 00 00 00 00 00 00
 1.065929 1  18F15CF3x       Rx   d 8 00 00 00 00 00 00 00 00
 1.066958 1  18F15DF3x       Rx   d 8 00 00 00 00 00 00 00 00
 1.067339 1  CFF21CAx        Rx   d 8 03 00 80 0C 39 39 00 28
 1.068073 1  18F15EF3x       Rx   d 8 00 00 00 00 00 00 00 00
 1.079254 1  CFF21CAx        Rx   d 8 03 00 80 0C 39 39 00 28
 1.079823 1  18F100D0x       Rx   d 8 0C FF FF FF FF FF FF FF
 1.099707 1  CFF21CAx        Rx   d 8 03 00 80 0C 39 39 00 28
 1.103298 1  CFF21CAx        Rx   d 8 03 00 80 0C 39 39 00 28
 1.107746 1  18F100D0x       Rx   d 8 0C FF FF FF FF FF FF FF
 1.115304 1  CFF21CAx        Rx   d 8 03 00 80 0C 39 39 00 28
 1.124158 1  18FF2112x       Rx   d 8 01 00 00 00 00 00 00 00
 1.127325 1  CFF21CAx        Rx   d 8 03 00 80 0C 39 39 00 28
 1.135416 1  18F100D0x       Rx   d 8 0C FF FF FF FF FF FF FF
 1.139850 1  CFF21CAx        Rx   d 8 03 00 80 0C 39 39 00 28
 1.151476 1  CFF21CAx        Rx   d 8 03 00 80 0C 39 39 00 28
 1.153672 1  18F100F3x       Rx   d 8 03 3A 7D 10 F4 FA 14 00
 1.154544 1  18F102F3x       Rx   d 8 10 26 10 1F 10 06 00 07
 1.155857 1  18F106F3x       Rx   d 8 45 E0 FC FF FF FF FF FF
 1.157097 1  18F107F3x       Rx   d 8 38 A4 27 10 01 74 00 00
 1.158862 1  18F108F3x       Rx   d 8 00 00 00 00 00 00 00 00
 1.159501 1  18F100D0x       Rx   d 8 0C FF FF FF FF FF FF FF
 1.160030 1  18F155F3x       Rx   d 8 35 36 36 36 36 36 35 00
 1.160932 1  18F156F3x       Rx   d 8 00 00 00 00 00 00 00 00
 1.161806 1  18F157F3x       Rx   d 8 00 00 00 00 00 00 00 00
 1.162684 1  18F158F3x       Rx   d 8 00 00 00 00 00 00 00 00
 1.163562 1  18F159F3x       Rx   d 8 00 00 00 00 00 00 00 00
 1.164129 1  CFF21CAx        Rx   d 8 03 00 80 0C 39 39 00 28
 1.164698 1  18F15AF3x       Rx   d 8 00 00 00 00 00 00 00 00
 1.165518 1  18F15BF3x       Rx   d 7 00 00 00 00 00 00 00
 1.166437 1  18F15CF3x       Rx   d 8 00 00 00 00 00 00 00 00
 1.167647 1  18F15DF3x       Rx   d 8 00 00 00 00 00 00 00 00
 1.168557 1  18F15EF3x       Rx   d 8 00 00 00 00 00 00 00 00
 1.175534 1  CFF21CAx        Rx   d 8 03 00 80 0C 39 39 00 28
 1.181143 1  18F104F3x       Rx   d 8 36 35 02 01 01 FF FF FF
 1.182046 1  18F113F3x       Rx   d 8 10 21 10 22 10 21 10 22
 1.182962 1  18F114F3x       Rx   d 8 10 20 10 1F 10 22 10 22
 1.183598 1  18F100D0x       Rx   d 8 0C FF FF FF FF FF FF FF
 1.184164 1  18F115F3x       Rx   d 8 10 20 10 20 10 20 10 1F
 1.185160 1  18F116F3x       Rx   d 8 10 24 10 22 10 25 10 26
 1.185894 1  18F117F3x       Rx   d 8 10 20 10 22 10 26 10 25
 1.186869 1  18F118F3x       Rx   d 8 00 00 00 00 00 00 00 00
 1.187606 1  CFF21CAx        Rx   d 8 03 00 80 0C 39 39 00 28
 1.188246 1  18F119F3x       Rx   d 8 00 00 00 00 00 00 00 00
 1.189164 1  18F11AF3x       Rx   d 8 00 00 00 00 00 00 00 00
 1.190089 1  18F11BF3x       Rx   d 8 00 00 00 00 00 00 00 00
 1.190929 1  18F11CF3x       Rx   d 8 00 00 00 00 00 00 00 00
 1.191830 1  18F11DF3x       Rx   d 8 00 00 00 00 00 00 00 00
 1.192776 1  18F11EF3x       Rx   d 8 00 00 00 00 00 00 00 00
 1.193657 1  18F11FF3x       Rx   d 8 00 00 00 00 00 00 00 00
 1.194623 1  18F120F3x       Rx   d 8 00 00 00 00 00 00 00 00
 1.195575 1  18F121F3x       Rx   d 8 00 00 00 00 00 00 00 00
 1.196560 1  18F122F3x       Rx   d 8 00 00 00 00 00 00 00 00
 1.197720 1  18F123F3x       Rx   d 8 00 00 00 00 00 00 00 00
