date Sat May 09 09:45:56.232 2026
base hex  timestamps absolute
internal events logged
Begin Triggerblock Sat May 09 09:45:56.236 2026
 0.000000 Start of measurement
 0.000000 1  18F100D0x       Rx   d 8 0C FF FF FF FF FF FF FF
 0.000152 1  CFF21CAx        Rx   d 8 2E 00 58 15 3C 3A 00 14
 0.000224 1  CFF21CAx        Rx   d 8 2B 00 5C 15 3C 3A 00 14
 0.003578 1  CFF21CAx        Rx   d 8 2B 00 5A 15 3C 3A 00 14
 0.004071 1  18F100D0x       Rx   d 8 0C FF FF FF FF FF FF FF
 0.014985 1  CFF21CAx        Rx   d 8 2B 00 5E 15 3C 3A 00 14
 0.027518 1  CFF21CAx        Rx   d 8 2A 00 57 15 3C 3A 00 14
 0.027990 1  18F100D0x       Rx   d 8 0C FF FF FF FF FF FF FF
 0.031792 1  18F100F3x       Rx   d 8 03 39 7D B4 F5 FA 14 00
 0.032702 1  18F102F3x       Rx   d 8 10 23 10 1C 10 0C 00 07
 0.033957 1  18F106F3x       Rx   d 8 45 E0 FC FF FF FF FF FF
 0.035227 1  18F107F3x       Rx   d 8 38 A4 27 10 01 73 00 00
 0.037252 1  18F108F3x       Rx   d 8 00 00 00 00 00 00 00 00
 0.038124 1  18F155F3x       Rx   d 8 37 37 38 38 38 39 38 00
 0.039058 1  18F156F3x       Rx   d 8 00 00 00 00 00 00 00 00
 0.039555 1  CFF21CAx        Rx   d 8 2A 00 53 15 3C 3A 00 14
 0.040151 1  18F157F3x       Rx   d 8 00 00 00 00 00 00 00 00
 0.040866 1  18FF2112x       Rx   d 8 01 00 00 00 00 00 00 00
 0.041468 1  18F158F3x       Rx   d 8 00 00 00 00 00 00 00 00
 0.042358 1  18F159F3x       Rx   d 8 00 00 00 00 00 00 00 00
 0.043191 1  18F15AF3x       Rx   d 8 00 00 00 00 00 00 00 00
 0.044123 1  18F15BF3x       Rx   d 7 00 00 00 00 00 00 00
 0.044908 1  18F15CF3x       Rx   d 8 00 00 00 00 00 00 00 00
 0.045723 1  18F15DF3x       Rx   d 8 00 00 00 00 00 00 00 00
 0.046889 1  18F15EF3x       Rx   d 8 00 00 00 00 00 00 00 00
 0.051062 1  CFF21CAx        Rx   d 8 29 00 4F 15 3C 3A 00 14
 0.051641 1  18F100D0x       Rx   d 8 0C FF FF FF FF FF FF FF
 0.063147 1  CFF21CAx        Rx   d 8 29 00 4A 15 3C 3A 00 14
 0.075671 1  CFF21CAx        Rx   d 8 29 00 49 15 3C 3A 00 14
 0.076247 1  18F100D0x       Rx   d 8 0C FF FF FF FF FF FF FF
 0.087252 1  CFF21CAx        Rx   d 8 2A 00 45 15 3C 3A 00 14
 0.099680 1  CFF21CAx        Rx   d 8 2A 00 42 15 3C 3A 00 14
 0.100229 1  18F100D0x       Rx   d 8 0C FF FF FF FF FF FF FF
 0.111387 1  CFF21CAx        Rx   d 8 2B 00 3F 15 3C 3A 00 14
 0.123871 1  CFF21CAx        Rx   d 8 2B 00 41 15 3C 3A 00 14
 0.124387 1  18F100D0x       Rx   d 8 0C FF FF FF FF FF FF FF
 0.131989 1  18F100F3x       Rx   d 8 03 39 7D B4 F5 FA 14 00
 0.132775 1  18F102F3x       Rx   d 8 10 23 10 1C 10 0C 00 07
 0.134069 1  18F106F3x       Rx   d 8 45 E0 FC FF FF FF FF FF
 0.135323 1  18F107F3x       Rx   d 8 38 A4 27 10 01 73 00 00
 0.135866 1  CFF21CAx        Rx   d 8 2B 00 41 15 3C 3A 00 14
 0.137365 1  18F108F3x       Rx   d 8 00 00 00 00 00 00 00 00
 0.138278 1  18FF2112x       Rx   d 8 01 00 00 00 00 00 00 00
 0.138788 1  18F155F3x       Rx   d 8 37 37 38 38 38 39 38 00
 0.139875 1  18F156F3x       Rx   d 8 00 00 00 00 00 00 00 00
 0.140657 1  18F157F3x       Rx   d 8 00 00 00 00 00 00 00 00
 0.141606 1  18F158F3x       Rx   d 8 00 00 00 00 00 00 00 00
 0.142523 1  18F159F3x       Rx   d 8 00 00 00 00 00 00 00 00
 0.143345 1  18F15AF3x       Rx   d 8 00 00 00 00 00 00 00 00
 0.144263 1  18F15BF3x       Rx   d 7 00 00 00 00 00 00 00
 0.145115 1  18F15CF3x       Rx   d 8 00 00 00 00 00 00 00 00
 0.145857 1  18F15DF3x       Rx   d 8 00 00 00 00 00 00 00 00
 0.147036 1  18F15EF3x       Rx   d 8 00 00 00 00 00 00 00 00
 0.147442 1  CFF21CAx        Rx   d 8 2B 00 43 15 3C 3A 00 14
 0.151576 1  18F100D0x       Rx   d 8 0C FF FF FF FF FF FF FF
 0.152154 1  18FECACAx       Rx   d 8 00 00 00 00 00 00 FF FF
 0.159641 1  CFF21CAx        Rx   d 8 2B 00 43 15 3C 3A 00 14
 0.172048 1  CFF21CAx        Rx   d 8 2B 00 40 15 3C 3A 00 14
 0.179639 1  18F100D0x       Rx   d 8 0C FF FF FF FF FF FF FF
 0.183686 1  CFF21CAx        Rx   d 8 2C 00 40 15 3C 3A 00 14
 0.196138 1  CFF21CAx        Rx   d 8 2C 00 3D 15 3C 3A 00 14
 0.203892 1  18F100D0x       Rx   d 8 0C FF FF FF FF FF FF FF
 0.215121 1  CFF21CAx        Rx   d 8 2C 00 3F 15 3C 3A 00 14
 0.219858 1  CFF21CAx        Rx   d 8 2D 00 38 15 3C 3A 00 14
 0.227925 1  18F100D0x       Rx   d 8 0C FF FF FF FF FF FF FF
 0.232175 1  18F100F3x       Rx   d 8 03 39 7D AE F5 FA 14 00
 0.232368 1  CFF21CAx        Rx   d 8 2D 00 38 15 3C 3A 00 14
 0.232952 1  18F102F3x       Rx   d 8 10 23 10 1C 10 0C 00 07
 0.234294 1  18F106F3x       Rx   d 8 45 E0 FC FF FF FF FF FF
 0.235538 1  18F107F3x       Rx   d 8 38 A4 27 10 01 73 00 00
 0.236106 1  18FF2112x       Rx   d 8 01 00 00 00 00 00 00 00
 0.237601 1  18F108F3x       Rx   d 8 00 00 00 00 00 00 00 00
 0.238531 1  18F155F3x       Rx   d 8 37 37 38 38 38 39 38 00
 0.239510 1  18F156F3x       Rx   d 8 00 00 00 00 00 00 00 00
 0.240423 1  18F157F3x       Rx   d 8 00 00 00 00 00 00 00 00
 0.241269 1  18F158F3x       Rx   d 8 00 00 00 00 00 00 00 00
 0.242176 1  18F159F3x       Rx   d 8 00 00 00 00 00 00 00 00
 0.243038 1  18F15AF3x       Rx   d 8 00 00 00 00 00 00 00 00
 0.243774 1  18F15BF3x       Rx   d 7 00 00 00 00 00 00 00
 0.244347 1  CFF21CAx        Rx   d 8 2D 00 37 15 3C 3A 00 14
 0.244919 1  18F15CF3x       Rx   d 8 00 00 00 00 00 00 00 00
 0.245758 1  18F15DF3x       Rx   d 8 00 00 00 00 00 00 00 00
 0.246878 1  18F15EF3x       Rx   d 8 00 00 00 00 00 00 00 00
 0.252068 1  18F100D0x       Rx   d 8 0C FF FF FF FF FF FF FF
 0.255921 1  CFF21CAx        Rx   d 8 2E 00 35 15 3C 3A 00 14
 0.268049 1  CFF21CAx        Rx   d 8 2E 00 34 15 3C 3A 00 14
 0.276051 1  18F100D0x       Rx   d 8 0C FF FF FF FF FF FF FF
 0.280081 1  CFF21CAx        Rx   d 8 2F 00 39 15 3C 3A 00 14
 0.292552 1  CFF21CAx        Rx   d 8 2F 00 3B 15 3C 3A 00 14
 0.300196 1  18F100D0x       Rx   d 8 0C FF FF FF FF FF FF FF
 0.304194 1  CFF21CAx        Rx   d 8 2F 00 3C 15 3C 3A 00 14
 0.316232 1  CFF21CAx        Rx   d 8 30 00 41 15 3C 3A 00 14
 0.328396 1  CFF21CAx        Rx   d 8 30 00 44 15 3C 3A 00 14
 0.328913 1  18F100D0x       Rx   d 8 0C FF FF FF FF FF FF FF
 0.332045 1  18F100F3x       Rx   d 8 03 39 7D AE F5 FA 14 00
 0.332898 1  18FF2112x       Rx   d 8 01 00 00 00 00 00 00 00
 0.333444 1  18F102F3x       Rx   d 8 10 23 10 1C 10 0C 00 07
 0.334803 1  18F106F3x       Rx   d 8 45 E0 FC FF FF FF FF FF
 0.336025 1  18F107F3x       Rx   d 8 38 A4 27 10 01 73 00 00
 0.337820 1  18F108F3x       Rx   d 8 00 00 00 00 00 00 00 00
 0.338695 1  18F155F3x       Rx   d 8 37 37 38 38 38 39 38 00
 0.339748 1  18F156F3x       Rx   d 8 00 00 00 00 00 00 00 00
 0.340801 1  18F157F3x       Rx   d 8 00 00 00 00 00 00 00 00
 0.341235 1  CFF21CAx        Rx   d 8 30 00 47 15 3C 3A 00 14
 0.341806 1  18F158F3x       Rx   d 8 00 00 00 00 00 00 00 00
 0.342758 1  18F159F3x       Rx   d 8 00 00 00 00 00 00 00 00
 0.343636 1  18F15AF3x       Rx   d 8 00 00 00 00 00 00 00 00
 0.344508 1  18F15BF3x       Rx   d 7 00 00 00 00 00 00 00
 0.345484 1  18F15CF3x       Rx   d 8 00 00 00 00 00 00 00 00
 0.346175 1  18F15DF3x       Rx   d 8 00 00 00 00 00 00 00 00
 0.347246 1  18F15EF3x       Rx   d 8 00 00 00 00 00 00 00 00
 0.352897 1  CFF21CAx        Rx   d 8 30 00 48 15 3C 3A 00 14
 0.353407 1  18F100D0x       Rx   d 8 0C FF FF FF FF FF FF FF
 0.364527 1  CFF21CAx        Rx   d 8 30 00 4E 15 3C 3A 00 14
 0.376848 1  CFF21CAx        Rx   d 8 2F 00 4A 15 3C 3A 00 14
 0.377357 1  18F100D0x       Rx   d 8 0C FF FF FF FF FF FF FF
 0.389054 1  CFF21CAx        Rx   d 8 2F 00 4B 15 3C 3A 00 14
 0.401087 1  CFF21CAx        Rx   d 8 2F 00 48 15 3C 3A 00 14
 0.404516 1  18F100D0x       Rx   d 8 0C FF FF FF FF FF FF FF
 0.412576 1  CFF21CAx        Rx   d 8 2F 00 4E 15 3C 3A 00 14
 0.431394 1  CFF21CAx        Rx   d 8 2F 00 49 15 3C 3A 00 14
 0.431598 1  18F100D0x       Rx   d 8 0C FF FF FF FF FF FF FF
 0.431735 1  18FF2112x       Rx   d 8 01 00 00 00 00 00 00 00
 0.431858 1  18F100F3x       Rx   d 8 03 39 7D AE F5 FA 14 00
 0.432739 1  18F102F3x       Rx   d 8 10 23 10 1C 10 0C 00 07
 0.434021 1  18F106F3x       Rx   d 8 45 E0 FC FF FF FF FF FF
 0.435312 1  18F107F3x       Rx   d 8 38 A4 27 10 01 73 00 00
 0.437132 1  CFF21CAx        Rx   d 8 2E 00 4C 15 3C 3A 00 14
 0.437665 1  18F108F3x       Rx   d 8 00 00 00 00 00 00 00 00
 0.438600 1  18F155F3x       Rx   d 8 37 37 38 38 38 39 38 00
 0.439530 1  18F156F3x       Rx   d 8 00 00 00 00 00 00 00 00
 0.440444 1  18F157F3x       Rx   d 8 00 00 00 00 00 00 00 00
 0.441376 1  18F158F3x       Rx   d 8 00 00 00 00 00 00 00 00
 0.442160 1  18F159F3x       Rx   d 8 00 00 00 00 00 00 00 00
 0.443026 1  18F15AF3x       Rx   d 8 00 00 00 00 00 00 00 00
 0.443812 1  18F15BF3x       Rx   d 7 00 00 00 00 00 00 00
 0.444767 1  18F15CF3x       Rx   d 8 00 00 00 00 00 00 00 00
 0.445611 1  18F15DF3x       Rx   d 8 00 00 00 00 00 00 00 00
 0.446801 1  18F15EF3x       Rx   d 8 00 00 00 00 00 00 00 00
 0.449183 1  CFF21CAx        Rx   d 8 2E 00 49 15 3C 3A 00 14
 0.452780 1  18F100D0x       Rx   d 8 0C FF FF FF FF FF FF FF
 0.460754 1  CFF21CAx        Rx   d 8 2E 00 47 15 3C 3A 00 14
 0.473291 1  CFF21CAx        Rx   d 8 2E 00 47 15 3C 3A 00 14
 0.476945 1  18F100D0x       Rx   d 8 0C FF FF FF FF FF FF FF
 0.485306 1  CFF21CAx        Rx   d 8 2D 00 45 15 3C 3A 00 14
 0.497331 1  CFF21CAx        Rx   d 8 2D 00 45 15 3C 3A 00 14
 0.500998 1  18F100D0x       Rx   d 8 0C FF FF FF FF FF FF FF
 0.508915 1  CFF21CAx        Rx   d 8 2D 00 44 15 3C 3A 00 14
 0.521570 1  CFF21CAx        Rx   d 8 2D 00 43 15 3C 3A 00 14
 0.524986 1  18F100D0x       Rx   d 8 0C FF FF FF FF FF FF FF
 0.527276 1  18FF2112x       Rx   d 8 01 00 00 00 00 00 00 00
 0.532010 1  18F100F3x       Rx   d 8 03 39 7D BD F5 FA 14 00
 0.532729 1  18F102F3x       Rx   d 8 10 23 10 1C 10 0C 00 07
 0.533472 1  CFF21CAx        Rx   d 8 2D 00 42 15 3C 3A 00 14
 0.534109 1  18F106F3x       Rx   d 8 45 E0 FC FF FF FF FF FF
 0.535281 1  18F107F3x       Rx   d 8 38 A4 27 10 01 73 00 00
 0.537323 1  18F108F3x       Rx   d 8 00 00 00 00 00 00 00 00
 0.538342 1  18F155F3x       Rx   d 8 37 37 38 38 38 39 38 00
 0.539437 1  18F156F3x       Rx   d 8 00 00 00 00 00 00 00 00
 0.540121 1  18F157F3x       Rx   d 8 00 00 00 00 00 00 00 00
 0.540999 1  18F158F3x       Rx   d 8 00 00 00 00 00 00 00 00
 0.541786 1  18F159F3x       Rx   d 8 00 00 00 00 00 00 00 00
 0.542692 1  18F15AF3x       Rx   d 8 00 00 00 00 00 00 00 00
 0.543532 1  18F15BF3x       Rx   d 7 00 00 00 00 00 00 00
 0.544545 1  18F15CF3x       Rx   d 8 00 00 00 00 00 00 00 00
 0.545403 1  18F15DF3x       Rx   d 8 00 00 00 00 00 00 00 00
 0.545794 1  CFF21CAx        Rx   d 8 2D 00 42 15 3C 3A 00 14
 0.546328 1  18F15EF3x       Rx   d 8 00 00 00 00 00 00 00 00
 0.553715 1  18F100D0x       Rx   d 8 0C FF FF FF FF FF FF FF
 0.557281 1  CFF21CAx        Rx   d 8 2D 00 46 15 3C 3A 00 14
 0.569834 1  CFF21CAx        Rx   d 8 2E 00 41 15 3C 3A 00 14
 0.577895 1  18F100D0x       Rx   d 8 0C FF FF FF FF FF FF FF
 0.581777 1  CFF21CAx        Rx   d 8 2E 00 42 15 3C 3A 00 14
 0.593805 1  CFF21CAx        Rx   d 8 2E 00 3D 15 3C 3A 00 14
 0.601749 1  18F100D0x       Rx   d 8 0C FF FF FF FF FF FF FF
 0.605543 1  CFF21CAx        Rx   d 8 2F 00 3F 15 3C 3A 00 14
 0.618018 1  CFF21CAx        Rx   d 8 2F 00 3F 15 3C 3A 00 14
 0.624618 1  18FF2112x       Rx   d 8 01 00 00 00 00 00 00 00
 0.626064 1  18F100D0x       Rx   d 8 0C FF FF FF FF FF FF FF
 0.629434 1  CFF21CAx        Rx   d 8 2F 00 41 15 3C 3A 00 14
 0.632013 1  18F100F3x       Rx   d 8 03 39 7D BD F5 FA 14 00
 0.632910 1  18F102F3x       Rx   d 8 10 23 10 1C 10 0C 00 07
 0.634272 1  18F106F3x       Rx   d 8 45 E0 FC FF FF FF FF FF
 0.635368 1  18F107F3x       Rx   d 8 38 A4 27 10 01 73 00 00
 0.637360 1  18F108F3x       Rx   d 8 00 00 00 00 00 00 00 00
 0.647138 1  18F155F3x       Rx   d 8 37 37 38 38 38 39 38 00
 0.647315 1  18F156F3x       Rx   d 8 00 00 00 00 00 00 00 00
 0.647446 1  18F157F3x       Rx   d 8 00 00 00 00 00 00 00 00
 0.647566 1  18F158F3x       Rx   d 8 00 00 00 00 00 00 00 00
 0.647761 1  18F159F3x       Rx   d 8 00 00 00 00 00 00 00 00
 0.647957 1  CFF21CAx        Rx   d 8 2F 00 3B 15 3C 3A 00 14
 0.648163 1  18F15AF3x       Rx   d 8 00 00 00 00 00 00 00 00
 0.648285 1  18F15BF3x       Rx   d 7 00 00 00 00 00 00 00
 0.648406 1  18F15CF3x       Rx   d 8 00 00 00 00 00 00 00 00
 0.648524 1  18F15DF3x       Rx   d 8 00 00 00 00 00 00 00 00
 0.648642 1  18F15EF3x       Rx   d 8 00 00 00 00 00 00 00 00
 0.649926 1  18F100D0x       Rx   d 8 0C FF FF FF FF FF FF FF
 0.653523 1  CFF21CAx        Rx   d 8 2F 00 3D 15 3C 3A 00 14
 0.666182 1  CFF21CAx        Rx   d 8 2E 00 40 15 3C 3A 00 14
 0.678103 1  CFF21CAx        Rx   d 8 2E 00 3F 15 3C 3A 00 14
 0.678586 1  18F100D0x       Rx   d 8 0C FF FF FF FF FF FF FF
 0.690328 1  CFF21CAx        Rx   d 8 2E 00 41 15 3C 3A 00 14
 0.701798 1  CFF21CAx        Rx   d 8 2F 00 40 15 3C 3A 00 14
 0.702276 1  18F100D0x       Rx   d 8 0C FF FF FF FF FF FF FF
 0.714340 1  CFF21CAx        Rx   d 8 2F 00 42 15 3C 3A 00 14
 0.721890 1  18FF2112x       Rx   d 8 01 00 00 00 00 00 00 00
 0.725897 1  CFF21CAx        Rx   d 8 30 00 47 15 3C 3A 00 14
 0.726409 1  18F100D0x       Rx   d 8 0C FF FF FF FF FF FF FF
 0.732009 1  18F100F3x       Rx   d 8 03 39 7D C3 F5 FA 14 00
 0.732841 1  18F102F3x       Rx   d 8 10 23 10 1C 10 0C 00 07
 0.734178 1  18F106F3x       Rx   d 8 45 E0 FC FF FF FF FF FF
 0.735302 1  18F107F3x       Rx   d 8 38 A4 27 10 01 73 00 00
 0.737336 1  18F108F3x       Rx   d 8 00 00 00 00 00 00 00 00
 0.738274 1  18F155F3x       Rx   d 8 37 37 38 38 38 39 38 00
 0.738821 1  CFF21CAx        Rx   d 8 30 00 48 15 3C 3A 00 14
 0.739413 1  18F156F3x       Rx   d 8 00 00 00 00 00 00 00 00
 0.740256 1  18F157F3x       Rx   d 8 00 00 00 00 00 00 00 00
 0.741190 1  18F158F3x       Rx   d 8 00 00 00 00 00 00 00 00
 0.742046 1  18F159F3x       Rx   d 8 00 00 00 00 00 00 00 00
 0.742912 1  18F15AF3x       Rx   d 8 00 00 00 00 00 00 00 00
 0.743809 1  18F15BF3x       Rx   d 7 00 00 00 00 00 00 00
 0.744598 1  18F15CF3x       Rx   d 8 00 00 00 00 00 00 00 00
 0.745636 1  18F15DF3x       Rx   d 8 00 00 00 00 00 00 00 00
 0.746351 1  18F15EF3x       Rx   d 8 00 00 00 00 00 00 00 00
 0.750029 1  CFF21CAx        Rx   d 8 30 00 4B 15 3C 3A 00 14
 0.750612 1  18F100D0x       Rx   d 8 0C FF FF FF FF FF FF FF
 0.762462 1  CFF21CAx        Rx   d 8 30 00 4F 15 3C 3A 00 14
 0.774560 1  CFF21CAx        Rx   d 8 30 00 52 15 3C 3A 00 14
 0.778525 1  18F100D0x       Rx   d 8 0C FF FF FF FF FF FF FF
 0.786492 1  CFF21CAx        Rx   d 8 2E 00 56 15 3C 3A 00 14
 0.798197 1  CFF21CAx        Rx   d 8 2E 00 58 15 3C 3A 00 14
 0.802731 1  18F100D0x       Rx   d 8 0C FF FF FF FF FF FF FF
 0.810781 1  CFF21CAx        Rx   d 8 2E 00 58 15 3C 3A 00 14
 0.819262 1  18FF2112x       Rx   d 8 01 00 00 00 00 00 00 00
 0.822371 1  CFF21CAx        Rx   d 8 2D 00 59 15 3C 3A 00 14
 0.826453 1  18F104F3x       Rx   d 8 39 37 06 01 02 FF FF FF
 0.827045 1  18F100D0x       Rx   d 8 0C FF FF FF FF FF FF FF
 0.827596 1  18F113F3x       Rx   d 8 10 1F 10 1F 10 1F 10 1F
 0.828369 1  18F114F3x       Rx   d 8 10 1D 10 1D 10 1F 10 20
 0.829269 1  18F115F3x       Rx   d 8 10 1D 10 1D 10 1D 10 1C
 0.830165 1  18F116F3x       Rx   d 8 10 22 10 1F 10 22 10 23
 0.831164 1  18F117F3x       Rx   d 8 10 1F 10 1F 10 23 10 22
 0.831996 1  18F100F3x       Rx   d 8 03 39 7D C3 F5 FA 14 00
 0.832559 1  18F102F3x       Rx   d 8 10 23 10 1C 10 0C 00 07
 0.834020 1  18F106F3x       Rx   d 8 45 E0 FC FF FF FF FF FF
 0.835038 1  CFF21CAx        Rx   d 8 2D 00 5D 15 3C 3A 00 14
 0.835590 1  18F107F3x       Rx   d 8 38 A4 27 10 01 73 00 00
 0.837614 1  18F108F3x       Rx   d 8 00 00 00 00 00 00 00 00
 0.838825 1  18F118F3x       Rx   d 8 00 00 00 00 00 00 00 00
 0.839790 1  18F119F3x       Rx   d 8 00 00 00 00 00 00 00 00
 0.840704 1  18F11AF3x       Rx   d 8 00 00 00 00 00 00 00 00
 0.841810 1  18F11BF3x       Rx   d 8 00 00 00 00 00 00 00 00
 0.842792 1  18F11CF3x       Rx   d 8 00 00 00 00 00 00 00 00
 0.843753 1  18F11DF3x       Rx   d 8 00 00 00 00 00 00 00 00
 0.844574 1  18F11EF3x       Rx   d 8 00 00 00 00 00 00 00 00
 0.845674 1  18F11FF3x       Rx   d 8 00 00 00 00 00 00 00 00
 0.846275 1  CFF21CAx        Rx   d 8 2D 00 5D 15 3C 3A 00 14
 0.846851 1  18F120F3x       Rx   d 8 00 00 00 00 00 00 00 00
 0.847949 1  18F121F3x       Rx   d 8 00 00 00 00 00 00 00 00
 0.848766 1  18F122F3x       Rx   d 8 00 00 00 00 00 00 00 00
 0.849863 1  18F123F3x       Rx   d 8 00 00 00 00 00 00 00 00
 0.850820 1  18F124F3x       Rx   d 8 00 00 00 00 00 00 00 00
 0.851393 1  18F100D0x       Rx   d 8 0C FF FF FF FF FF FF FF
 0.851971 1  18F125F3x       Rx   d 8 00 00 00 00 00 00 00 00
 0.852811 1  18F126F3x       Rx   d 8 00 00 00 00 00 00 00 00
 0.862451 1  18F127F3x       Rx   d 8 00 00 00 00 00 00 00 00
 0.862625 1  18F128F3x       Rx   d 8 00 00 00 00 00 00 00 00
 0.862757 1  18F129F3x       Rx   d 8 00 00 00 00 00 00 00 00
 0.862879 1  18F12AF3x       Rx   d 8 00 00 00 00 00 00 00 00
 0.862997 1  18F12BF3x       Rx   d 8 00 00 00 00 00 00 00 00
 0.863114 1  18F12CF3x       Rx   d 8 00 00 00 00 00 00 00 00
 0.863230 1  CFF21CAx        Rx   d 8 2D 00 5D 15 3C 3A 00 14
 0.863352 1  18F12DF3x       Rx   d 8 00 00 00 00 00 00 00 00
 0.863472 1  18F12EF3x       Rx   d 8 00 00 00 00 00 00 00 00
 0.863589 1  18F12FF3x       Rx   d 8 00 00 00 00 00 00 00 00
 0.863765 1  18F130F3x       Rx   d 8 00 00 00 00 00 00 00 00
 0.863894 1  18F131F3x       Rx   d 8 00 00 00 00 00 00 00 00
 0.864551 1  18F132F3x       Rx   d 8 00 00 00 00 00 00 00 00
 0.865421 1  18F133F3x       Rx   d 8 00 00 00 00 00 00 00 00
 0.866339 1  18F134F3x       Rx   d 8 00 00 00 00 00 00 00 00
 0.867209 1  18F135F3x       Rx   d 8 00 00 00 00 00 00 00 00
 0.868163 1  18F136F3x       Rx   d 8 00 00 00 00 00 00 00 00
 0.868969 1  18F137F3x       Rx   d 8 00 00 00 00 00 00 00 00
 0.869810 1  18F138F3x       Rx   d 8 00 00 00 00 00 00 00 00
 0.870808 1  18F139F3x       Rx   d 8 00 00 00 00 00 00 00 00
 0.871249 1  CFF21CAx        Rx   d 8 2B 00 5D 15 3C 3A 00 14
 0.871804 1  18F13AF3x       Rx   d 8 00 00 00 00 00 00 00 00
 0.872766 1  18F13BF3x       Rx   d 8 00 00 00 00 00 00 00 00
 0.873639 1  18F13CF3x       Rx   d 8 00 00 00 00 00 00 00 00
 0.874633 1  18F155F3x       Rx   d 8 37 37 38 38 38 39 38 00
 0.875134 1  18F100D0x       Rx   d 8 0C FF FF FF FF FF FF FF
 0.875703 1  18F156F3x       Rx   d 8 00 00 00 00 00 00 00 00
 0.876971 1  18F157F3x       Rx   d 8 00 00 00 00 00 00 00 00
 0.877795 1  18F158F3x       Rx   d 8 00 00 00 00 00 00 00 00
 0.878771 1  18F159F3x       Rx   d 8 00 00 00 00 00 00 00 00
 0.879694 1  18F15AF3x       Rx   d 8 00 00 00 00 00 00 00 00
 0.880496 1  18F15BF3x       Rx   d 7 00 00 00 00 00 00 00
 0.881415 1  18F15CF3x       Rx   d 8 00 00 00 00 00 00 00 00
 0.882218 1  18F15DF3x       Rx   d 8 00 00 00 00 00 00 00 00
 0.882854 1  CFF21CAx        Rx   d 8 2B 00 5B 15 3C 3A 00 14
 0.883421 1  18F15EF3x       Rx   d 8 00 00 00 00 00 00 00 00
 0.894486 1  CFF21CAx        Rx   d 8 29 00 5B 15 3C 3A 00 14
 0.902613 1  18F100D0x       Rx   d 8 0C FF FF FF FF FF FF FF
 0.907060 1  CFF21CAx        Rx   d 8 29 00 59 15 3C 3A 00 14
 0.916425 1  18FF2112x       Rx   d 8 01 00 00 00 00 00 00 00
 0.918690 1  CFF21CAx        Rx   d 8 29 00 58 15 3C 3A 00 14
 0.926672 1  18F100D0x       Rx   d 8 0C FF FF FF FF FF FF FF
 0.931152 1  CFF21CAx        Rx   d 8 28 00 5C 15 3C 3A 00 14
 0.931893 1  18F100F3x       Rx   d 8 03 39 7D C3 F5 FA 14 00
 0.932931 1  18F102F3x       Rx   d 8 10 23 10 1C 10 0C 00 07
 0.934152 1  18F106F3x       Rx   d 8 45 E0 FC FF FF FF FF FF
 0.935388 1  18F107F3x       Rx   d 8 38 A4 27 10 01 73 00 00
 0.937416 1  18F108F3x       Rx   d 8 00 00 00 00 00 00 00 00
 0.938271 1  18F155F3x       Rx   d 8 37 37 38 38 38 39 38 00
 0.939248 1  18F156F3x       Rx   d 8 00 00 00 00 00 00 00 00
 0.940116 1  18F157F3x       Rx   d 8 00 00 00 00 00 00 00 00
 0.940834 1  18F158F3x       Rx   d 8 00 00 00 00 00 00 00 00
 0.941919 1  18F159F3x       Rx   d 8 00 00 00 00 00 00 00 00
 0.942826 1  18F15AF3x       Rx   d 8 00 00 00 00 00 00 00 00
 0.943383 1  CFF21CAx        Rx   d 8 28 00 55 15 3C 3A 00 14
 0.943901 1  18F15BF3x       Rx   d 7 00 00 00 00 00 00 00
 0.944658 1  18F15CF3x       Rx   d 8 00 00 00 00 00 00 00 00
 0.945699 1  18F15DF3x       Rx   d 8 00 00 00 00 00 00 00 00
 0.946886 1  18F15EF3x       Rx   d 8 00 00 00 00 00 00 00 00
 0.950866 1  18F100D0x       Rx   d 8 0C FF FF FF FF FF FF FF
 0.955351 1  CFF21CAx        Rx   d 8 27 00 58 15 3C 3A 00 14
 0.967229 1  CFF21CAx        Rx   d 8 27 00 54 15 3C 3A 00 14
 0.974950 1  18F100D0x       Rx   d 8 0C FF FF FF FF FF FF FF
 0.979329 1  CFF21CAx        Rx   d 8 27 00 57 15 3C 3A 00 14
 0.998207 1  CFF21CAx        Rx   d 8 27 00 51 15 3C 3A 00 14
 0.999567 1  18F100D0x       Rx   d 8 0C FF FF FF FF FF FF FF
 1.003484 1  CFF21CAx        Rx   d 8 27 00 50 15 3C 3A 00 14
 1.013831 1  18FF2112x       Rx   d 8 01 00 00 00 00 00 00 00
 1.015162 1  CFF21CAx        Rx   d 8 28 00 4A 15 3C 3A 00 14
 1.027321 1  CFF21CAx        Rx   d 8 28 00 4A 15 3C 3A 00 14
 1.027655 1  18F100D0x       Rx   d 8 0C FF FF FF FF FF FF FF
 1.031886 1  18F100F3x       Rx   d 8 03 39 7D 9D F5 FA 14 00
 1.032767 1  18F102F3x       Rx   d 8 10 23 10 1C 10 0C 00 07
 1.034171 1  18F106F3x       Rx   d 8 45 E0 FC FF FF FF FF FF
 1.035345 1  18F107F3x       Rx   d 8 38 A4 27 10 01 73 00 00
 1.037350 1  18F108F3x       Rx   d 8 00 00 00 00 00 00 00 00
 1.038194 1  18F155F3x       Rx   d 8 37 37 38 38 38 39 38 00
 1.039110 1  18F156F3x       Rx   d 8 00 00 00 00 00 00 00 00
 1.039641 1  CFF21CAx        Rx   d 8 28 00 49 15 3C 3A 00 14
 1.040241 1  18F157F3x       Rx   d 8 00 00 00 00 00 00 00 00
 1.041114 1  18F158F3x       Rx   d 8 00 00 00 00 00 00 00 00
 1.041999 1  18F159F3x       Rx   d 8 00 00 00 00 00 00 00 00
 1.043242 1  18F15AF3x       Rx   d 8 00 00 00 00 00 00 00 00
 1.043724 1  18F15BF3x       Rx   d 7 00 00 00 00 00 00 00
 1.044594 1  18F15CF3x       Rx   d 8 00 00 00 00 00 00 00 00
 1.045678 1  18F15DF3x       Rx   d 8 00 00 00 00 00 00 00 00
 1.046358 1  18F15EF3x       Rx   d 8 00 00 00 00 00 00 00 00
 1.051629 1  CFF21CAx        Rx   d 8 29 00 46 15 3C 3A 00 14
 1.052157 1  18F100D0x       Rx   d 8 0C FF FF FF FF FF FF FF
 1.063785 1  CFF21CAx        Rx   d 8 29 00 3D 15 3C 3A 00 14
 1.083090 1  CFF21CAx        Rx   d 8 29 00 3E 15 3C 3A 00 14
 1.083226 1  18F100D0x       Rx   d 8 0C FF FF FF FF FF FF FF
 1.087306 1  CFF21CAx        Rx   d 8 2A 00 3D 15 3C 3A 00 14
 1.099859 1  CFF21CAx        Rx   d 8 2A 00 3C 15 3C 3A 00 14
 1.100407 1  18F100D0x       Rx   d 8 0C FF FF FF FF FF FF FF
 1.110992 1  18FF2112x       Rx   d 8 01 00 00 00 00 00 00 00
 1.111499 1  CFF21CAx        Rx   d 8 2B 00 3A 15 3C 3A 00 14
 1.123483 1  CFF21CAx        Rx   d 8 2B 00 39 15 3C 3A 00 14
 1.127558 1  18F100D0x       Rx   d 8 0C FF FF FF FF FF FF FF
 1.131880 1  18F100F3x       Rx   d 8 03 39 7D 9D F5 FA 14 00
 1.132825 1  18F102F3x       Rx   d 8 10 23 10 1C 10 0C 00 07
 1.134123 1  18F106F3x       Rx   d 8 45 E0 FC FF FF FF FF FF
 1.135325 1  18F107F3x       Rx   d 8 38 A4 27 10 01 73 00 00
 1.135931 1  CFF21CAx        Rx   d 8 2B 00 3C 15 3C 3A 00 14
 1.137353 1  18F108F3x       Rx   d 8 00 00 00 00 00 00 00 00
 1.138241 1  18F155F3x       Rx   d 8 37 37 38 38 38 39 38 00
 1.139124 1  18F156F3x       Rx   d 8 00 00 00 00 00 00 00 00
 1.140019 1  18F157F3x       Rx   d 8 00 00 00 00 00 00 00 00
 1.140884 1  18F158F3x       Rx   d 8 00 00 00 00 00 00 00 00
 1.141795 1  18F159F3x       Rx   d 8 00 00 00 00 00 00 00 00
 1.142707 1  18F15AF3x       Rx   d 8 00 00 00 00 00 00 00 00
 1.143590 1  18F15BF3x       Rx   d 7 00 00 00 00 00 00 00
 1.144461 1  18F15CF3x       Rx   d 8 00 00 00 00 00 00 00 00
 1.145296 1  18F15DF3x       Rx   d 8 00 00 00 00 00 00 00 00
 1.146161 1  18F15EF3x       Rx   d 8 00 00 00 00 00 00 00 00
 1.148000 1  CFF21CAx        Rx   d 8 2C 00 3B 15 3C 3A 00 14
 1.151564 1  18F100D0x       Rx   d 8 0C FF FF FF FF FF FF FF
 1.160006 1  CFF21CAx        Rx   d 8 2C 00 3A 15 3C 3A 00 14
 1.164142 1  18FECACAx       Rx   d 8 00 00 00 00 00 00 FF FF
 1.171750 1  CFF21CAx        Rx   d 8 2C 00 3A 15 3C 3A 00 14
 1.175718 1  18F100D0x       Rx   d 8 0C FF FF FF FF FF FF FF
 1.183810 1  CFF21CAx        Rx   d 8 2D 00 3B 15 3C 3A 00 14
 1.195943 1  CFF21CAx        Rx   d 8 2D 00 3F 15 3C 3A 00 14
 1.203799 1  18F100D0x       Rx   d 8 0C FF FF FF FF FF FF FF
 1.207921 1  CFF21CAx        Rx   d 8 2D 00 3E 15 3C 3A 00 14
 1.208477 1  18FF2112x       Rx   d 8 01 00 00 00 00 00 00 00
 1.219960 1  CFF21CAx        Rx   d 8 2E 00 3C 15 3C 3A 00 14
 1.227931 1  18F100D0x       Rx   d 8 0C FF FF FF FF FF FF FF
 1.231924 1  CFF21CAx        Rx   d 8 2E 00 3F 15 3C 3A 00 14
 1.232369 1  18F100F3x       Rx   d 8 03 39 7D B4 F5 FA 14 00
 1.233330 1  18F102F3x       Rx   d 8 10 23 10 1C 10 0C 00 07
 1.234751 1  18F106F3x       Rx   d 8 45 E0 FC FF FF FF FF FF
 1.235889 1  18F107F3x       Rx   d 8 38 A4 27 10 01 73 00 00
 1.238048 1  18F108F3x       Rx   d 8 00 00 00 00 00 00 00 00
 1.239088 1  18F155F3x       Rx   d 8 37 37 38 38 38 39 38 00
 1.239847 1  18F156F3x       Rx   d 8 00 00 00 00 00 00 00 00
 1.240632 1  18F157F3x       Rx   d 8 00 00 00 00 00 00 00 00
 1.241602 1  18F158F3x       Rx   d 8 00 00 00 00 00 00 00 00
 1.242480 1  18F159F3x       Rx   d 8 00 00 00 00 00 00 00 00
 1.243349 1  18F15AF3x       Rx   d 8 00 00 00 00 00 00 00 00
 1.243980 1  CFF21CAx        Rx   d 8 2F 00 41 15 3C 3A 00 14
 1.244645 1  18F15BF3x       Rx   d 7 00 00 00 00 00 00 00
 1.245370 1  18F15CF3x       Rx   d 8 00 00 00 00 00 00 00 00
 1.246344 1  18F15DF3x       Rx   d 8 00 00 00 00 00 00 00 00
 1.247268 1  18F15EF3x       Rx   d 8 00 00 00 00 00 00 00 00
 1.251990 1  18F100D0x       Rx   d 8 0C FF FF FF FF FF FF FF
 1.256595 1  CFF21CAx        Rx   d 8 2F 00 41 15 3C 3A 00 14
 1.268302 1  CFF21CAx        Rx   d 8 2F 00 42 15 3C 3A 00 14
 1.276215 1  18F100D0x       Rx   d 8 0C FF FF FF FF FF FF FF
 1.280283 1  CFF21CAx        Rx   d 8 2F 00 44 15 3C 3A 00 14
 1.302685 1  CFF21CAx        Rx   d 8 2F 00 47 15 3C 3A 00 14
 1.304223 1  CFF21CAx        Rx   d 8 2F 00 4A 15 3C 3A 00 14
 1.304769 1  18F100D0x       Rx   d 8 0C FF FF FF FF FF FF FF
 1.305527 1  18FF2112x       Rx   d 8 01 00 00 00 00 00 00 00
 1.316249 1  CFF21CAx        Rx   d 8 2F 00 4D 15 3C 3A 00 14
 1.328283 1  CFF21CAx        Rx   d 8 2F 00 53 15 3C 3A 00 14
 1.328824 1  18F100D0x       Rx   d 8 0C FF FF FF FF FF FF FF
 1.331895 1  18F100F3x       Rx   d 8 03 39 7D B4 F5 FA 14 00
 1.332800 1  18F102F3x       Rx   d 8 10 23 10 1C 10 0C 00 07
 1.334165 1  18F106F3x       Rx   d 8 45 E0 FC FF FF FF FF FF
 1.335362 1  18F107F3x       Rx   d 8 38 A4 27 10 01 73 00 00
 1.337512 1  18F108F3x       Rx   d 8 00 00 00 00 00 00 00 00
 1.338223 1  18F155F3x       Rx   d 8 37 37 38 38 38 39 38 00
 1.339150 1  18F156F3x       Rx   d 8 00 00 00 00 00 00 00 00
 1.340075 1  18F157F3x       Rx   d 8 00 00 00 00 00 00 00 00
 1.340573 1  CFF21CAx        Rx   d 8 2E 00 4D 15 3C 3A 00 14
 1.341158 1  18F158F3x       Rx   d 8 00 00 00 00 00 00 00 00
 1.342005 1  18F159F3x       Rx   d 8 00 00 00 00 00 00 00 00
 1.342884 1  18F15AF3x       Rx   d 8 00 00 00 00 00 00 00 00
 1.343740 1  18F15BF3x       Rx   d 7 00 00 00 00 00 00 00
 1.344700 1  18F15CF3x       Rx   d 8 00 00 00 00 00 00 00 00
 1.345561 1  18F15DF3x       Rx   d 8 00 00 00 00 00 00 00 00
 1.346390 1  18F15EF3x       Rx   d 8 00 00 00 00 00 00 00 00
 1.352779 1  CFF21CAx        Rx   d 8 2E 00 51 15 3C 3A 00 14
 1.353348 1  18F100D0x       Rx   d 8 0C FF FF FF FF FF FF FF
 1.364485 1  CFF21CAx        Rx   d 8 2E 00 51 15 3C 3A 00 14
 1.376971 1  CFF21CAx        Rx   d 8 2D 00 50 15 3C 3A 00 14
 1.377425 1  18F100D0x       Rx   d 8 0C FF FF FF FF FF FF FF
 1.388603 1  CFF21CAx        Rx   d 8 2D 00 4C 15 3C 3A 00 14
 1.401177 1  CFF21CAx        Rx   d 8 2C 00 4C 15 3C 3A 00 14
 1.401688 1  18F100D0x       Rx   d 8 0C FF FF FF FF FF FF FF
 1.402807 1  18FF2112x       Rx   d 8 01 00 00 00 00 00 00 00
 1.412846 1  CFF21CAx        Rx   d 8 2C 00 4E 15 3C 3A 00 14
 1.425124 1  CFF21CAx        Rx   d 8 2C 00 4D 15 3C 3A 00 14
 1.425612 1  18F100D0x       Rx   d 8 0C FF FF FF FF FF FF FF
 1.431970 1  18F100F3x       Rx   d 8 03 39 7D B4 F5 FA 14 00
 1.432864 1  18F102F3x       Rx   d 8 10 23 10 1C 10 0C 00 07
 1.434153 1  18F106F3x       Rx   d 8 45 E0 FC FF FF FF FF FF
 1.435379 1  18F107F3x       Rx   d 8 38 A4 27 10 01 73 00 00
 1.437296 1  CFF21CAx        Rx   d 8 2C 00 4D 15 3C 3A 00 14
 1.437739 1  18F108F3x       Rx   d 8 00 00 00 00 00 00 00 00
 1.438768 1  18F155F3x       Rx   d 8 37 37 38 38 38 39 38 00
 1.439840 1  18F156F3x       Rx   d 8 00 00 00 00 00 00 00 00
 1.440582 1  18F157F3x       Rx   d 8 00 00 00 00 00 00 00 00
 1.441398 1  18F158F3x       Rx   d 8 00 00 00 00 00 00 00 00
 1.442290 1  18F159F3x       Rx   d 8 00 00 00 00 00 00 00 00
 1.443195 1  18F15AF3x       Rx   d 8 00 00 00 00 00 00 00 00
 1.443890 1  18F15BF3x       Rx   d 7 00 00 00 00 00 00 00
 1.444931 1  18F15CF3x       Rx   d 8 00 00 00 00 00 00 00 00
 1.445814 1  18F15DF3x       Rx   d 8 00 00 00 00 00 00 00 00
 1.446964 1  18F15EF3x       Rx   d 8 00 00 00 00 00 00 00 00
 1.449203 1  CFF21CAx        Rx   d 8 2C 00 4D 15 3C 3A 00 14
 1.452986 1  18F100D0x       Rx   d 8 0C FF FF FF FF FF FF FF
 1.461049 1  CFF21CAx        Rx   d 8 2C 00 4D 15 3C 3A 00 14
 1.473476 1  CFF21CAx        Rx   d 8 2A 00 4E 15 3C 3A 00 14
 1.476995 1  18F100D0x       Rx   d 8 0C FF FF FF FF FF FF FF
 1.485159 1  CFF21CAx        Rx   d 8 2A 00 4E 15 3C 3A 00 14
 1.497593 1  CFF21CAx        Rx   d 8 2A 00 51 15 3C 3A 00 14
 1.500082 1  18FF2112x       Rx   d 8 01 00 00 00 00 00 00 00
 1.505562 1  18F100D0x       Rx   d 8 0C FF FF FF FF FF FF FF
 1.521164 1  CFF21CAx        Rx   d 8 2A 00 52 15 3C 3A 00 14
 1.521525 1  CFF21CAx        Rx   d 8 2A 00 54 15 3C 3A 00 14
 1.529541 1  18F100D0x       Rx   d 8 0C FF FF FF FF FF FF FF
 1.531948 1  18F100F3x       Rx   d 8 03 39 7D AE F5 FA 14 00
 1.532806 1  18F102F3x       Rx   d 8 10 23 10 1C 10 0C 00 07
 1.533532 1  CFF21CAx        Rx   d 8 2A 00 56 15 3C 3A 00 14
 1.534151 1  18F106F3x       Rx   d 8 45 E0 FC FF FF FF FF FF
 1.535384 1  18F107F3x       Rx   d 8 38 A4 27 10 01 73 00 00
 1.537428 1  18F108F3x       Rx   d 8 00 00 00 00 00 00 00 00
 1.538300 1  18F155F3x       Rx   d 8 37 37 38 38 38 39 38 00
 1.539160 1  18F156F3x       Rx   d 8 00 00 00 00 00 00 00 00
 1.540159 1  18F157F3x       Rx   d 8 00 00 00 00 00 00 00 00
 1.540950 1  18F158F3x       Rx   d 8 00 00 00 00 00 00 00 00
 1.541826 1  18F159F3x       Rx   d 8 00 00 00 00 00 00 00 00
 1.542748 1  18F15AF3x       Rx   d 8 00 00 00 00 00 00 00 00
 1.543605 1  18F15BF3x       Rx   d 7 00 00 00 00 00 00 00
 1.544496 1  18F15CF3x       Rx   d 8 00 00 00 00 00 00 00 00
 1.545335 1  18F15DF3x       Rx   d 8 00 00 00 00 00 00 00 00
 1.545885 1  CFF21CAx        Rx   d 8 2A 00 57 15 3C 3A 00 14
 1.546463 1  18F15EF3x       Rx   d 8 00 00 00 00 00 00 00 00
 1.553694 1  18F100D0x       Rx   d 8 0C FF FF FF FF FF FF FF
 1.557366 1  CFF21CAx        Rx   d 8 2A 00 52 15 3C 3A 00 14
 1.569704 1  CFF21CAx        Rx   d 8 29 00 55 15 3C 3A 00 14
 1.577830 1  18F100D0x       Rx   d 8 0C FF FF FF FF FF FF FF
 1.581352 1  CFF21CAx        Rx   d 8 29 00 52 15 3C 3A 00 14
 1.593872 1  CFF21CAx        Rx   d 8 29 00 51 15 3C 3A 00 14
 1.597325 1  18FF2112x       Rx   d 8 01 00 00 00 00 00 00 00
 1.602014 1  18F100D0x       Rx   d 8 0C FF FF FF FF FF FF FF
 1.605488 1  CFF21CAx        Rx   d 8 29 00 4F 15 3C 3A 00 14
 1.618029 1  CFF21CAx        Rx   d 8 29 00 4E 15 3C 3A 00 14
 1.626058 1  18F100D0x       Rx   d 8 0C FF FF FF FF FF FF FF
 1.629612 1  CFF21CAx        Rx   d 8 29 00 48 15 3C 3A 00 14
 1.632100 1  18F100F3x       Rx   d 8 03 39 7D AE F5 FA 14 00
 1.632843 1  18F102F3x       Rx   d 8 10 23 10 1C 10 0C 00 07
 1.636492 1  18F106F3x       Rx   d 8 45 E0 FC FF FF FF FF FF
 1.636803 1  18F107F3x       Rx   d 8 38 A4 27 10 01 73 00 00
 1.637682 1  18F108F3x       Rx   d 8 00 00 00 00 00 00 00 00
 1.638409 1  18F155F3x       Rx   d 8 37 37 38 38 38 39 38 00
 1.639316 1  18F156F3x       Rx   d 8 00 00 00 00 00 00 00 00
 1.640177 1  18F157F3x       Rx   d 8 00 00 00 00 00 00 00 00
 1.640984 1  18F158F3x       Rx   d 8 00 00 00 00 00 00 00 00
 1.641935 1  18F159F3x       Rx   d 8 00 00 00 00 00 00 00 00
 1.642446 1  CFF21CAx        Rx   d 8 29 00 4B 15 3C 3A 00 14
 1.643062 1  18F15AF3x       Rx   d 8 00 00 00 00 00 00 00 00
 1.643800 1  18F15BF3x       Rx   d 7 00 00 00 00 00 00 00
 1.644683 1  18F15CF3x       Rx   d 8 00 00 00 00 00 00 00 00
 1.645564 1  18F15DF3x       Rx   d 8 00 00 00 00 00 00 00 00
 1.646733 1  18F15EF3x       Rx   d 8 00 00 00 00 00 00 00 00
 1.650003 1  18F100D0x       Rx   d 8 0C FF FF FF FF FF FF FF
 1.653724 1  CFF21CAx        Rx   d 8 29 00 4A 15 3C 3A 00 14
 1.666432 1  CFF21CAx        Rx   d 8 2A 00 4A 15 3C 3A 00 14
 1.677824 1  CFF21CAx        Rx   d 8 2A 00 4B 15 3C 3A 00 14
 1.678303 1  18F100D0x       Rx   d 8 0C FF FF FF FF FF FF FF
 1.690263 1  CFF21CAx        Rx   d 8 2B 00 47 15 3C 3A 00 14
 1.694655 1  18FF2112x       Rx   d 8 01 00 00 00 00 00 00 00
 1.702030 1  CFF21CAx        Rx   d 8 2B 00 49 15 3C 3A 00 14
 1.702528 1  18F100D0x       Rx   d 8 0C FF FF FF FF FF FF FF
 1.714413 1  CFF21CAx        Rx   d 8 2B 00 45 15 3C 3A 00 14
 1.726048 1  CFF21CAx        Rx   d 8 2A 00 4A 15 3C 3A 00 14
 1.726625 1  18F100D0x       Rx   d 8 0C FF FF FF FF FF FF FF
 1.738219 1  18F100F3x       Rx   d 8 03 39 7D A1 F5 FA 14 00
 1.738357 1  18F102F3x       Rx   d 8 10 23 10 1C 10 0C 00 07
 1.738466 1  18F106F3x       Rx   d 8 45 E0 FC FF FF FF FF FF
 1.738568 1  18F107F3x       Rx   d 8 38 A4 27 10 01 73 00 00
 1.738682 1  18F108F3x       Rx   d 8 00 00 00 00 00 00 00 00
 1.738781 1  18F155F3x       Rx   d 8 37 37 38 38 38 39 38 00
 1.738888 1  CFF21CAx        Rx   d 8 2A 00 46 15 3C 3A 00 14
 1.739395 1  18F156F3x       Rx   d 8 00 00 00 00 00 00 00 00
 1.740297 1  18F157F3x       Rx   d 8 00 00 00 00 00 00 00 00
 1.741176 1  18F158F3x       Rx   d 8 00 00 00 00 00 00 00 00
 1.742116 1  18F159F3x       Rx   d 8 00 00 00 00 00 00 00 00
 1.742917 1  18F15AF3x       Rx   d 8 00 00 00 00 00 00 00 00
 1.743777 1  18F15BF3x       Rx   d 7 00 00 00 00 00 00 00
 1.744662 1  18F15CF3x       Rx   d 8 00 00 00 00 00 00 00 00
 1.745572 1  18F15DF3x       Rx   d 8 00 00 00 00 00 00 00 00
 1.746429 1  18F15EF3x       Rx   d 8 00 00 00 00 00 00 00 00
 1.750033 1  CFF21CAx        Rx   d 8 2A 00 47 15 3C 3A 00 14
 1.754475 1  18F100D0x       Rx   d 8 0C FF FF FF FF FF FF FF
 1.762460 1  CFF21CAx        Rx   d 8 2A 00 46 15 3C 3A 00 14
 1.774156 1  CFF21CAx        Rx   d 8 2A 00 49 15 3C 3A 00 14
 1.778497 1  18F100D0x       Rx   d 8 0C FF FF FF FF FF FF FF
 1.786574 1  CFF21CAx        Rx   d 8 29 00 4C 15 3C 3A 00 14
 1.791887 1  18FF2112x       Rx   d 8 01 00 00 00 00 00 00 00
 1.798186 1  CFF21CAx        Rx   d 8 29 00 4D 15 3C 3A 00 14
 1.802740 1  18F100D0x       Rx   d 8 0C FF FF FF FF FF FF FF
 1.810693 1  CFF21CAx        Rx   d 8 29 00 4B 15 3C 3A 00 14
 1.822396 1  CFF21CAx        Rx   d 8 28 00 4B 15 3C 3A 00 14
 1.826770 1  18F100D0x       Rx   d 8 0C FF FF FF FF FF FF FF
 1.827781 1  18F104F3x       Rx   d 8 39 37 06 01 02 FF FF FF
 1.828759 1  18F113F3x       Rx   d 8 10 1F 10 1F 10 1F 10 1F
 1.829694 1  18F114F3x       Rx   d 8 10 1D 10 1D 10 20 10 1F
 1.830649 1  18F115F3x       Rx   d 8 10 1D 10 1D 10 1D 10 1C
 1.831668 1  18F116F3x       Rx   d 8 10 21 10 1F 10 21 10 23
 1.832685 1  18F100F3x       Rx   d 8 03 39 7D A1 F5 FA 14 00
 1.833615 1  18F102F3x       Rx   d 8 10 23 10 1C 10 0C 00 07
 1.834966 1  CFF21CAx        Rx   d 8 28 00 4B 15 3C 3A 00 14
 1.835476 1  18F106F3x       Rx   d 8 45 E0 FC FF FF FF FF FF
 1.837196 1  18F107F3x       Rx   d 8 38 A4 27 10 01 73 00 00
 1.838996 1  18F108F3x       Rx   d 8 00 00 00 00 00 00 00 00
 1.839992 1  18F117F3x       Rx   d 8 10 1F 10 1F 10 23 10 22
 1.840868 1  18F118F3x       Rx   d 8 00 00 00 00 00 00 00 00
 1.842396 1  18F119F3x       Rx   d 8 00 00 00 00 00 00 00 00
 1.842937 1  18F11AF3x       Rx   d 8 00 00 00 00 00 00 00 00
 1.843917 1  18F11BF3x       Rx   d 8 00 00 00 00 00 00 00 00
 1.844808 1  18F11CF3x       Rx   d 8 00 00 00 00 00 00 00 00
 1.845953 1  18F11DF3x       Rx   d 8 00 00 00 00 00 00 00 00
 1.846509 1  CFF21CAx        Rx   d 8 28 00 4B 15 3C 3A 00 14
 1.847241 1  18F11EF3x       Rx   d 8 00 00 00 00 00 00 00 00
 1.848122 1  18F11FF3x       Rx   d 8 00 00 00 00 00 00 00 00
 1.848889 1  18F120F3x       Rx   d 8 00 00 00 00 00 00 00 00
 1.849997 1  18F121F3x       Rx   d 8 00 00 00 00 00 00 00 00
 1.850967 1  18F122F3x       Rx   d 8 00 00 00 00 00 00 00 00
 1.851538 1  18F100D0x       Rx   d 8 0C FF FF FF FF FF FF FF
 1.852120 1  18F123F3x       Rx   d 8 00 00 00 00 00 00 00 00
 1.852881 1  18F124F3x       Rx   d 8 00 00 00 00 00 00 00 00
 1.853974 1  18F125F3x       Rx   d 8 00 00 00 00 00 00 00 00
 1.854925 1  18F126F3x       Rx   d 8 00 00 00 00 00 00 00 00
 1.855878 1  18F127F3x       Rx   d 8 00 00 00 00 00 00 00 00
 1.856974 1  18F128F3x       Rx   d 8 00 00 00 00 00 00 00 00
 1.858018 1  18F129F3x       Rx   d 8 00 00 00 00 00 00 00 00
 1.858941 1  18F12AF3x       Rx   d 8 00 00 00 00 00 00 00 00
 1.859494 1  CFF21CAx        Rx   d 8 29 00 4B 15 3C 3A 00 14
 1.860077 1  18F12BF3x       Rx   d 8 00 00 00 00 00 00 00 00
 1.860970 1  18F12CF3x       Rx   d 8 00 00 00 00 00 00 00 00
 1.861780 1  18F12DF3x       Rx   d 8 00 00 00 00 00 00 00 00
 1.862735 1  18F12EF3x       Rx   d 8 00 00 00 00 00 00 00 00
 1.863685 1  18F12FF3x       Rx   d 8 00 00 00 00 00 00 00 00
 1.864598 1  18F130F3x       Rx   d 8 00 00 00 00 00 00 00 00
 1.865543 1  18F131F3x       Rx   d 8 00 00 00 00 00 00 00 00
 1.866874 1  18F132F3x       Rx   d 8 00 00 00 00 00 00 00 00
 1.867811 1  18F133F3x       Rx   d 8 00 00 00 00 00 00 00 00
 1.868731 1  18F134F3x       Rx   d 8 00 00 00 00 00 00 00 00
 1.869484 1  18F135F3x       Rx   d 8 00 00 00 00 00 00 00 00
 1.870492 1  18F136F3x       Rx   d 8 00 00 00 00 00 00 00 00
 1.871041 1  CFF21CAx        Rx   d 8 29 00 4A 15 3C 3A 00 14
 1.871627 1  18F137F3x       Rx   d 8 00 00 00 00 00 00 00 00
 1.872494 1  18F138F3x       Rx   d 8 00 00 00 00 00 00 00 00
 1.873373 1  18F139F3x       Rx   d 8 00 00 00 00 00 00 00 00
 1.874233 1  18F13AF3x       Rx   d 8 00 00 00 00 00 00 00 00
 1.875019 1  18F100D0x       Rx   d 8 0C FF FF FF FF FF FF FF
 1.875590 1  18F13BF3x       Rx   d 8 00 00 00 00 00 00 00 00
 1.876452 1  18F13CF3x       Rx   d 8 00 00 00 00 00 00 00 00
 1.877316 1  18F155F3x       Rx   d 8 37 37 38 38 38 39 38 00
 1.878108 1  18F156F3x       Rx   d 8 00 00 00 00 00 00 00 00
 1.879080 1  18F157F3x       Rx   d 8 00 00 00 00 00 00 00 00
 1.879966 1  18F158F3x       Rx   d 8 00 00 00 00 00 00 00 00
 1.880886 1  18F159F3x       Rx   d 8 00 00 00 00 00 00 00 00
 1.881818 1  18F15AF3x       Rx   d 8 00 00 00 00 00 00 00 00
 1.882663 1  18F15BF3x       Rx   d 7 00 00 00 00 00 00 00
 1.883250 1  CFF21CAx        Rx   d 8 29 00 4A 15 3C 3A 00 14
 1.883814 1  18F15CF3x       Rx   d 8 00 00 00 00 00 00 00 00
 1.884710 1  18F15DF3x       Rx   d 8 00 00 00 00 00 00 00 00
 1.885560 1  18F15EF3x       Rx   d 8 00 00 00 00 00 00 00 00
 1.889283 1  18FF2112x       Rx   d 8 01 00 00 00 00 00 00 00
 1.894575 1  CFF21CAx        Rx   d 8 29 00 4D 15 3C 3A 00 14
 1.902734 1  18F100D0x       Rx   d 8 0C FF FF FF FF FF FF FF
 1.907121 1  CFF21CAx        Rx   d 8 29 00 47 15 3C 3A 00 14
 1.918826 1  CFF21CAx        Rx   d 8 2B 00 49 15 3C 3A 00 14
 1.926832 1  18F100D0x       Rx   d 8 0C FF FF FF FF FF FF FF
 1.931201 1  CFF21CAx        Rx   d 8 2B 00 47 15 3C 3A 00 14
 1.931944 1  18F100F3x       Rx   d 8 03 39 7D A1 F5 FA 14 00
 1.932803 1  18F102F3x       Rx   d 8 10 23 10 1C 10 0C 00 07
 1.934123 1  18F106F3x       Rx   d 8 45 E0 FC FF FF FF FF FF
 1.935341 1  18F107F3x       Rx   d 8 38 A4 27 10 01 73 00 00
 1.937524 1  18F108F3x       Rx   d 8 00 00 00 00 00 00 00 00
 1.938395 1  18F155F3x       Rx   d 8 37 37 38 38 38 39 38 00
 1.939295 1  18F156F3x       Rx   d 8 00 00 00 00 00 00 00 00
 1.940166 1  18F157F3x       Rx   d 8 00 00 00 00 00 00 00 00
 1.941064 1  18F158F3x       Rx   d 8 00 00 00 00 00 00 00 00
 1.941965 1  18F159F3x       Rx   d 8 00 00 00 00 00 00 00 00
 1.942882 1  18F15AF3x       Rx   d 8 00 00 00 00 00 00 00 00
 1.943426 1  CFF21CAx        Rx   d 8 2B 00 49 15 3C 3A 00 14
 1.943945 1  18F15BF3x       Rx   d 7 00 00 00 00 00 00 00
 1.957830 1  18F15CF3x       Rx   d 8 00 00 00 00 00 00 00 00
 1.957956 1  18F15DF3x       Rx   d 8 00 00 00 00 00 00 00 00
 1.958060 1  18F15EF3x       Rx   d 8 00 00 00 00 00 00 00 00
 1.958159 1  18F100D0x       Rx   d 8 0C FF FF FF FF FF FF FF
 1.958258 1  CFF21CAx        Rx   d 8 2B 00 49 15 3C 3A 00 14
 1.966911 1  CFF21CAx        Rx   d 8 2B 00 4B 15 3C 3A 00 14
 1.979435 1  CFF21CAx        Rx   d 8 2B 00 48 15 3C 3A 00 14
 1.979955 1  18F100D0x       Rx   d 8 0C FF FF FF FF FF FF FF
 1.986581 1  18FF2112x       Rx   d 8 01 00 00 00 00 00 00 00
 1.991061 1  CFF21CAx        Rx   d 8 2B 00 44 15 3C 3A 00 14
 2.003514 1  CFF21CAx        Rx   d 8 2B 00 41 15 3C 3A 00 14
 2.003962 1  18F100D0x       Rx   d 8 0C FF FF FF FF FF FF FF
 2.015229 1  CFF21CAx        Rx   d 8 2B 00 42 15 3C 3A 00 14
 2.027689 1  CFF21CAx        Rx   d 8 2B 00 42 15 3C 3A 00 14
 2.028151 1  18F100D0x       Rx   d 8 0C FF FF FF FF FF FF FF
 2.031984 1  18F100F3x       Rx   d 8 03 39 7D A4 F5 FA 14 00
 2.032824 1  18F102F3x       Rx   d 8 10 23 10 1C 10 0C 00 07
 2.034162 1  18F106F3x       Rx   d 8 45 E0 FC FF FF FF FF FF
 2.035394 1  18F107F3x       Rx   d 8 38 A4 27 10 01 73 00 00
 2.037422 1  18F108F3x       Rx   d 8 00 00 00 00 00 00 00 00
 2.038274 1  18F155F3x       Rx   d 8 37 37 38 38 38 39 38 00
 2.039213 1  18F156F3x       Rx   d 8 00 00 00 00 00 00 00 00
 2.039757 1  CFF21CAx        Rx   d 8 2B 00 3C 15 3C 3A 00 14
 2.040332 1  18F157F3x       Rx   d 8 00 00 00 00 00 00 00 00
 2.041223 1  18F158F3x       Rx   d 8 00 00 00 00 00 00 00 00
 2.042146 1  18F159F3x       Rx   d 8 00 00 00 00 00 00 00 00
 2.042972 1  18F15AF3x       Rx   d 8 00 00 00 00 00 00 00 00
 2.044574 1  18F15BF3x       Rx   d 7 00 00 00 00 00 00 00
 2.044741 1  18F15CF3x       Rx   d 8 00 00 00 00 00 00 00 00
 2.045593 1  18F15DF3x       Rx   d 8 00 00 00 00 00 00 00 00
 2.046449 1  18F15EF3x       Rx   d 8 00 00 00 00 00 00 00 00
 2.051282 1  CFF21CAx        Rx   d 8 2D 00 3D 15 3C 3A 00 14
 2.051834 1  18F100D0x       Rx   d 8 0C FF FF FF FF FF FF FF
 2.063463 1  CFF21CAx        Rx   d 8 2D 00 3A 15 3C 3A 00 14
 2.075972 1  CFF21CAx        Rx   d 8 2E 00 3F 15 3C 3A 00 14
 2.076523 1  18F100D0x       Rx   d 8 0C FF FF FF FF FF FF FF
 2.084088 1  18FF2112x       Rx   d 8 01 00 00 00 00 00 00 00
 2.087565 1  CFF21CAx        Rx   d 8 2E 00 3A 15 3C 3A 00 14
 2.099584 1  CFF21CAx        Rx   d 8 2E 00 3C 15 3C 3A 00 14
 2.100136 1  18F100D0x       Rx   d 8 0C FF FF FF FF FF FF FF
 2.111704 1  CFF21CAx        Rx   d 8 2E 00 3A 15 3C 3A 00 14
 2.124198 1  CFF21CAx        Rx   d 8 2E 00 40 15 3C 3A 00 14
 2.124611 1  18F100D0x       Rx   d 8 0C FF FF FF FF FF FF FF
 2.132122 1  18F100F3x       Rx   d 8 03 39 7D A4 F5 FA 14 00
 2.132975 1  18F102F3x       Rx   d 8 10 23 10 1C 10 0C 00 07
 2.134279 1  18F106F3x       Rx   d 8 45 E0 FC FF FF FF FF FF
 2.135537 1  18F107F3x       Rx   d 8 38 A4 27 10 01 73 00 00
 2.136028 1  CFF21CAx        Rx   d 8 2F 00 3C 15 3C 3A 00 14
 2.137389 1  18F108F3x       Rx   d 8 00 00 00 00 00 00 00 00
 2.138268 1  18F155F3x       Rx   d 8 37 37 38 38 38 39 38 00
 2.139325 1  18F156F3x       Rx   d 8 00 00 00 00 00 00 00 00
 2.140299 1  18F157F3x       Rx   d 8 00 00 00 00 00 00 00 00
 2.141315 1  18F158F3x       Rx   d 8 00 00 00 00 00 00 00 00
 2.141854 1  18F159F3x       Rx   d 8 00 00 00 00 00 00 00 00
 2.142845 1  18F15AF3x       Rx   d 8 00 00 00 00 00 00 00 00
 2.143742 1  18F15BF3x       Rx   d 7 00 00 00 00 00 00 00
 2.144559 1  18F15CF3x       Rx   d 8 00 00 00 00 00 00 00 00
 2.145461 1  18F15DF3x       Rx   d 8 00 00 00 00 00 00 00 00
 2.146312 1  18F15EF3x       Rx   d 8 00 00 00 00 00 00 00 00
 2.147601 1  CFF21CAx        Rx   d 8 2F 00 42 15 3C 3A 00 14
 2.151665 1  18F100D0x       Rx   d 8 0C FF FF FF FF FF FF FF
 2.159768 1  CFF21CAx        Rx   d 8 2F 00 45 15 3C 3A 00 14
 2.177396 1  CFF21CAx        Rx   d 8 2F 00 4B 15 3C 3A 00 14
 2.177528 1  18F100D0x       Rx   d 8 0C FF FF FF FF FF FF FF
 2.177636 1  18FECACAx       Rx   d 8 00 00 00 00 00 00 FF FF
 2.181034 1  18FF2112x       Rx   d 8 01 00 00 00 00 00 00 00
 2.183770 1  CFF21CAx        Rx   d 8 2F 00 4B 15 3C 3A 00 14
 2.195827 1  CFF21CAx        Rx   d 8 2F 00 4F 15 3C 3A 00 14
 2.203868 1  18F100D0x       Rx   d 8 0C FF FF FF FF FF FF FF
 2.207940 1  CFF21CAx        Rx   d 8 2E 00 52 15 3C 3A 00 14
 2.220307 1  CFF21CAx        Rx   d 8 2E 00 54 15 3C 3A 00 14
 2.227970 1  18F100D0x       Rx   d 8 0C FF FF FF FF FF FF FF
 2.231996 1  18F100F3x       Rx   d 8 03 39 7D B2 F5 FA 14 00
 2.232512 1  CFF21CAx        Rx   d 8 2E 00 56 15 3C 3A 00 14
 2.233103 1  18F102F3x       Rx   d 8 10 23 10 1C 10 0C 00 07
 2.234295 1  18F106F3x       Rx   d 8 45 E0 FC FF FF FF FF FF
 2.235621 1  18F107F3x       Rx   d 8 38 A4 27 10 01 73 00 00
 2.237700 1  18F108F3x       Rx   d 8 00 00 00 00 00 00 00 00
 2.238611 1  18F155F3x       Rx   d 8 37 37 38 38 38 39 38 00
 2.239519 1  18F156F3x       Rx   d 8 00 00 00 00 00 00 00 00
 2.240409 1  18F157F3x       Rx   d 8 00 00 00 00 00 00 00 00
 2.241262 1  18F158F3x       Rx   d 8 00 00 00 00 00 00 00 00
 2.242146 1  18F159F3x       Rx   d 8 00 00 00 00 00 00 00 00
 2.243164 1  18F15AF3x       Rx   d 8 00 00 00 00 00 00 00 00
 2.243819 1  18F15BF3x       Rx   d 7 00 00 00 00 00 00 00
 2.244373 1  CFF21CAx        Rx   d 8 2C 00 5B 15 3C 3A 00 14
 2.244928 1  18F15CF3x       Rx   d 8 00 00 00 00 00 00 00 00
 2.246442 1  18F15DF3x       Rx   d 8 00 00 00 00 00 00 00 00
 2.246952 1  18F15EF3x       Rx   d 8 00 00 00 00 00 00 00 00
 2.252159 1  18F100D0x       Rx   d 8 0C FF FF FF FF FF FF FF
 2.256361 1  CFF21CAx        Rx   d 8 2C 00 57 15 3C 3A 00 14
 2.268204 1  CFF21CAx        Rx   d 8 2B 00 57 15 3C 3A 00 14
 2.276190 1  18F100D0x       Rx   d 8 0C FF FF FF FF FF FF FF
 2.278436 1  18FF2112x       Rx   d 8 01 00 00 00 00 00 00 00
 2.280176 1  CFF21CAx        Rx   d 8 2B 00 52 15 3C 3A 00 14
 2.292353 1  CFF21CAx        Rx   d 8 2B 00 50 15 3C 3A 00 14
 2.304458 1  CFF21CAx        Rx   d 8 2A 00 4C 15 3C 3A 00 14
 2.305003 1  18F100D0x       Rx   d 8 0C FF FF FF FF FF FF FF
 2.316843 1  CFF21CAx        Rx   d 8 2A 00 4C 15 3C 3A 00 14
 2.328447 1  CFF21CAx        Rx   d 8 2A 00 4A 15 3C 3A 00 14
 2.328993 1  18F100D0x       Rx   d 8 0C FF FF FF FF FF FF FF
 2.332114 1  18F100F3x       Rx   d 8 03 39 7D B2 F5 FA 14 00
 2.332929 1  18F102F3x       Rx   d 8 10 23 10 1C 10 0C 00 07
 2.334206 1  18F106F3x       Rx   d 8 45 E0 FC FF FF FF FF FF
 2.335384 1  18F107F3x       Rx   d 8 38 A4 27 10 01 73 00 00
 2.337589 1  18F108F3x       Rx   d 8 00 00 00 00 00 00 00 00
 2.338456 1  18F155F3x       Rx   d 8 37 37 38 38 38 39 38 00
 2.339162 1  18F156F3x       Rx   d 8 00 00 00 00 00 00 00 00
 2.340128 1  18F157F3x       Rx   d 8 00 00 00 00 00 00 00 00
 2.340632 1  CFF21CAx        Rx   d 8 29 00 48 15 3C 3A 00 14
 2.341214 1  18F158F3x       Rx   d 8 00 00 00 00 00 00 00 00
 2.342150 1  18F159F3x       Rx   d 8 00 00 00 00 00 00 00 00
 2.342963 1  18F15AF3x       Rx   d 8 00 00 00 00 00 00 00 00
 2.343910 1  18F15BF3x       Rx   d 7 00 00 00 00 00 00 00
 2.344697 1  18F15CF3x       Rx   d 8 00 00 00 00 00 00 00 00
 2.345741 1  18F15DF3x       Rx   d 8 00 00 00 00 00 00 00 00
 2.346576 1  18F15EF3x       Rx   d 8 00 00 00 00 00 00 00 00
 2.352913 1  CFF21CAx        Rx   d 8 29 00 42 15 3C 3A 00 14
 2.353547 1  18F100D0x       Rx   d 8 0C FF FF FF FF FF FF FF
 2.364859 1  CFF21CAx        Rx   d 8 2A 00 43 15 3C 3A 00 14
 2.375657 1  18FF2112x       Rx   d 8 01 00 00 00 00 00 00 00
 2.376633 1  CFF21CAx        Rx   d 8 2A 00 45 15 3C 3A 00 14
 2.377285 1  18F100D0x       Rx   d 8 0C FF FF FF FF FF FF FF
 2.396852 1  CFF21CAx        Rx   d 8 2A 00 45 15 3C 3A 00 14
 2.401051 1  CFF21CAx        Rx   d 8 2A 00 42 15 3C 3A 00 14
 2.401613 1  18F100D0x       Rx   d 8 0C FF FF FF FF FF FF FF
 2.413104 1  CFF21CAx        Rx   d 8 2A 00 43 15 3C 3A 00 14
 2.425215 1  CFF21CAx        Rx   d 8 2B 00 43 15 3C 3A 00 14
 2.428740 1  18F100D0x       Rx   d 8 0C FF FF FF FF FF FF FF
 2.431963 1  18F100F3x       Rx   d 8 03 39 7D B2 F5 FA 14 00
 2.432919 1  18F102F3x       Rx   d 8 10 23 10 1C 10 0C 00 07
 2.434292 1  18F106F3x       Rx   d 8 45 E0 FC FF FF FF FF FF
 2.435439 1  18F107F3x       Rx   d 8 38 A4 27 10 01 73 00 00
 2.437201 1  CFF21CAx        Rx   d 8 2B 00 43 15 3C 3A 00 14
 2.437789 1  18F108F3x       Rx   d 8 00 00 00 00 00 00 00 00
 2.438682 1  18F155F3x       Rx   d 8 37 37 38 38 38 39 38 00
 2.439647 1  18F156F3x       Rx   d 8 00 00 00 00 00 00 00 00
 2.440499 1  18F157F3x       Rx   d 8 00 00 00 00 00 00 00 00
 2.441364 1  18F158F3x       Rx   d 8 00 00 00 00 00 00 00 00
 2.442233 1  18F159F3x       Rx   d 8 00 00 00 00 00 00 00 00
 2.443125 1  18F15AF3x       Rx   d 8 00 00 00 00 00 00 00 00
 2.443934 1  18F15BF3x       Rx   d 7 00 00 00 00 00 00 00
 2.444833 1  18F15CF3x       Rx   d 8 00 00 00 00 00 00 00 00
 2.445736 1  18F15DF3x       Rx   d 8 00 00 00 00 00 00 00 00
 2.446918 1  18F15EF3x       Rx   d 8 00 00 00 00 00 00 00 00
 2.449254 1  CFF21CAx        Rx   d 8 2B 00 47 15 3C 3A 00 14
 2.452873 1  18F100D0x       Rx   d 8 0C FF FF FF FF FF FF FF
 2.460901 1  CFF21CAx        Rx   d 8 2B 00 47 15 3C 3A 00 14
 2.473006 1  18FF2112x       Rx   d 8 01 00 00 00 00 00 00 00
 2.473413 1  CFF21CAx        Rx   d 8 2B 00 42 15 3C 3A 00 14
 2.477036 1  18F100D0x       Rx   d 8 0C FF FF FF FF FF FF FF
 2.485200 1  CFF21CAx        Rx   d 8 2B 00 3E 15 3C 3A 00 14
 2.497614 1  CFF21CAx        Rx   d 8 2B 00 3E 15 3C 3A 00 14
 2.501199 1  18F100D0x       Rx   d 8 0C FF FF FF FF FF FF FF
 2.509559 1  CFF21CAx        Rx   d 8 2B 00 42 15 3C 3A 00 14
 2.521545 1  CFF21CAx        Rx   d 8 2B 00 43 15 3C 3A 00 14
 2.529744 1  18F100D0x       Rx   d 8 0C FF FF FF FF FF FF FF
 2.532051 1  18F100F3x       Rx   d 8 03 39 7D A9 F5 FA 14 00
 2.532870 1  18F102F3x       Rx   d 8 10 23 10 1C 10 0C 00 07
 2.533642 1  CFF21CAx        Rx   d 8 2C 00 44 15 3C 3A 00 14
 2.534260 1  18F106F3x       Rx   d 8 45 E0 FC FF FF FF FF FF
 2.535498 1  18F107F3x       Rx   d 8 38 A4 27 10 01 73 00 00
 2.537618 1  18F108F3x       Rx   d 8 00 00 00 00 00 00 00 00
 2.538475 1  18F155F3x       Rx   d 8 37 37 38 38 38 39 38 00
 2.539456 1  18F156F3x       Rx   d 8 00 00 00 00 00 00 00 00
 2.540092 1  18F157F3x       Rx   d 8 00 00 00 00 00 00 00 00
 2.540952 1  18F158F3x       Rx   d 8 00 00 00 00 00 00 00 00
 2.541938 1  18F159F3x       Rx   d 8 00 00 00 00 00 00 00 00
 2.542811 1  18F15AF3x       Rx   d 8 00 00 00 00 00 00 00 00
 2.543660 1  18F15BF3x       Rx   d 7 00 00 00 00 00 00 00
 2.544649 1  18F15CF3x       Rx   d 8 00 00 00 00 00 00 00 00
 2.545493 1  18F15DF3x       Rx   d 8 00 00 00 00 00 00 00 00
 2.546061 1  CFF21CAx        Rx   d 8 2C 00 40 15 3C 3A 00 14
 2.546628 1  18F15EF3x       Rx   d 8 00 00 00 00 00 00 00 00
 2.553820 1  18F100D0x       Rx   d 8 0C FF FF FF FF FF FF FF
 2.557374 1  CFF21CAx        Rx   d 8 2C 00 44 15 3C 3A 00 14
 2.569952 1  CFF21CAx        Rx   d 8 2E 00 47 15 3C 3A 00 14
 2.570460 1  18FF2112x       Rx   d 8 01 00 00 00 00 00 00 00
 2.578009 1  18F100D0x       Rx   d 8 0C FF FF FF FF FF FF FF
 2.581618 1  CFF21CAx        Rx   d 8 2E 00 47 15 3C 3A 00 14
 2.593924 1  CFF21CAx        Rx   d 8 2C 00 48 15 3C 3A 00 14
 2.602083 1  18F100D0x       Rx   d 8 0C FF FF FF FF FF FF FF
 2.616657 1  CFF21CAx        Rx   d 8 2C 00 46 15 3C 3A 00 14
 2.617925 1  CFF21CAx        Rx   d 8 2C 00 47 15 3C 3A 00 14
 2.626188 1  18F100D0x       Rx   d 8 0C FF FF FF FF FF FF FF
 2.629559 1  CFF21CAx        Rx   d 8 2D 00 47 15 3C 3A 00 14
 2.631996 1  18F100F3x       Rx   d 8 03 39 7D A9 F5 FA 14 00
 2.632893 1  18F102F3x       Rx   d 8 10 23 10 1C 10 0C 00 07
 2.634173 1  18F106F3x       Rx   d 8 45 E0 FC FF FF FF FF FF
 2.635427 1  18F107F3x       Rx   d 8 38 A4 27 10 01 73 00 00
 2.637458 1  18F108F3x       Rx   d 8 00 00 00 00 00 00 00 00
 2.638332 1  18F155F3x       Rx   d 8 37 37 38 38 38 39 38 00
 2.639219 1  18F156F3x       Rx   d 8 00 00 00 00 00 00 00 00
 2.640151 1  18F157F3x       Rx   d 8 00 00 00 00 00 00 00 00
 2.641000 1  18F158F3x       Rx   d 8 00 00 00 00 00 00 00 00
 2.641892 1  18F159F3x       Rx   d 8 00 00 00 00 00 00 00 00
 2.642438 1  CFF21CAx        Rx   d 8 2D 00 4B 15 3C 3A 00 14
 2.643021 1  18F15AF3x       Rx   d 8 00 00 00 00 00 00 00 00
 2.643831 1  18F15BF3x       Rx   d 7 00 00 00 00 00 00 00
 2.644736 1  18F15CF3x       Rx   d 8 00 00 00 00 00 00 00 00
 2.645647 1  18F15DF3x       Rx   d 8 00 00 00 00 00 00 00 00
 2.646802 1  18F15EF3x       Rx   d 8 00 00 00 00 00 00 00 00
 2.653708 1  CFF21CAx        Rx   d 8 2C 00 44 15 3C 3A 00 14
 2.654284 1  18F100D0x       Rx   d 8 0C FF FF FF FF FF FF FF
 2.666206 1  CFF21CAx        Rx   d 8 2C 00 46 15 3C 3A 00 14
 2.667389 1  18FF2112x       Rx   d 8 01 00 00 00 00 00 00 00
 2.677790 1  CFF21CAx        Rx   d 8 2C 00 43 15 3C 3A 00 14
 2.678335 1  18F100D0x       Rx   d 8 0C FF FF FF FF FF FF FF
 2.690598 1  CFF21CAx        Rx   d 8 2C 00 40 15 3C 3A 00 14
 2.702288 1  CFF21CAx        Rx   d 8 2C 00 40 15 3C 3A 00 14
 2.702834 1  18F100D0x       Rx   d 8 0C FF FF FF FF FF FF FF
 2.714538 1  CFF21CAx        Rx   d 8 2C 00 3E 15 3C 3A 00 14
 2.726140 1  CFF21CAx        Rx   d 8 2C 00 37 15 3C 3A 00 14
 2.726684 1  18F100D0x       Rx   d 8 0C FF FF FF FF FF FF FF
 2.731970 1  18F100F3x       Rx   d 8 03 39 7D B6 F5 FA 14 00
 2.732908 1  18F102F3x       Rx   d 8 10 23 10 1C 10 0C 00 07
 2.734138 1  18F106F3x       Rx   d 8 45 E0 FC FF FF FF FF FF
 2.735531 1  18F107F3x       Rx   d 8 38 A4 27 10 01 73 00 00
 2.737574 1  18F108F3x       Rx   d 8 00 00 00 00 00 00 00 00
 2.738445 1  18F155F3x       Rx   d 8 37 37 38 38 38 39 38 00
 2.739001 1  CFF21CAx        Rx   d 8 2C 00 3B 15 3C 3A 00 14
 2.739573 1  18F156F3x       Rx   d 8 00 00 00 00 00 00 00 00
 2.740333 1  18F157F3x       Rx   d 8 00 00 00 00 00 00 00 00
 2.741214 1  18F158F3x       Rx   d 8 00 00 00 00 00 00 00 00
 2.742116 1  18F159F3x       Rx   d 8 00 00 00 00 00 00 00 00
 2.743095 1  18F15AF3x       Rx   d 8 00 00 00 00 00 00 00 00
 2.743929 1  18F15BF3x       Rx   d 7 00 00 00 00 00 00 00
 2.744703 1  18F15CF3x       Rx   d 8 00 00 00 00 00 00 00 00
 2.745748 1  18F15DF3x       Rx   d 8 00 00 00 00 00 00 00 00
 2.746455 1  18F15EF3x       Rx   d 8 00 00 00 00 00 00 00 00
 2.750256 1  CFF21CAx        Rx   d 8 2E 00 3C 15 3C 3A 00 14
 2.754669 1  18F100D0x       Rx   d 8 0C FF FF FF FF FF FF FF
 2.762591 1  CFF21CAx        Rx   d 8 2E 00 3F 15 3C 3A 00 14
 2.764640 1  18FF2112x       Rx   d 8 01 00 00 00 00 00 00 00
 2.774153 1  CFF21CAx        Rx   d 8 2E 00 42 15 3C 3A 00 14
 2.778689 1  18F100D0x       Rx   d 8 0C FF FF FF FF FF FF FF
 2.786679 1  CFF21CAx        Rx   d 8 2F 00 42 15 3C 3A 00 14
 2.798714 1  CFF21CAx        Rx   d 8 2F 00 46 15 3C 3A 00 14
 2.802743 1  18F100D0x       Rx   d 8 0C FF FF FF FF FF FF FF
 2.810884 1  CFF21CAx        Rx   d 8 2E 00 48 15 3C 3A 00 14
 2.822449 1  CFF21CAx        Rx   d 8 2E 00 4C 15 3C 3A 00 14
 2.836261 1  18F100D0x       Rx   d 8 0C FF FF FF FF FF FF FF
 2.836385 1  18F104F3x       Rx   d 8 39 37 06 01 02 FF FF FF
 2.836486 1  18F113F3x       Rx   d 8 10 1E 10 1F 10 1F 10 1F
 2.836589 1  18F114F3x       Rx   d 8 10 1D 10 1D 10 20 10 1F
 2.836692 1  18F115F3x       Rx   d 8 10 1D 10 1D 10 1D 10 1C
 2.836791 1  18F116F3x       Rx   d 8 10 21 10 1F 10 21 10 23
 2.836888 1  18F100F3x       Rx   d 8 03 39 7D B6 F5 FA 14 00
 2.837002 1  18F102F3x       Rx   d 8 10 23 10 1C 10 0C 00 07
 2.837104 1  CFF21CAx        Rx   d 8 2E 00 50 15 3C 3A 00 14
 2.837203 1  18F106F3x       Rx   d 8 45 E0 FC FF FF FF FF FF
 2.837302 1  18F107F3x       Rx   d 8 38 A4 27 10 01 73 00 00
 2.838934 1  18F108F3x       Rx   d 8 00 00 00 00 00 00 00 00
 2.839910 1  18F117F3x       Rx   d 8 10 1F 10 1F 10 23 10 22
 2.840867 1  18F118F3x       Rx   d 8 00 00 00 00 00 00 00 00
 2.841946 1  18F119F3x       Rx   d 8 00 00 00 00 00 00 00 00
 2.842919 1  18F11AF3x       Rx   d 8 00 00 00 00 00 00 00 00
 2.843893 1  18F11BF3x       Rx   d 8 00 00 00 00 00 00 00 00
 2.844859 1  18F11CF3x       Rx   d 8 00 00 00 00 00 00 00 00
 2.845846 1  18F11DF3x       Rx   d 8 00 00 00 00 00 00 00 00
 2.846476 1  CFF21CAx        Rx   d 8 2E 00 50 15 3C 3A 00 14
 2.847140 1  18F11EF3x       Rx   d 8 00 00 00 00 00 00 00 00
 2.848024 1  18F11FF3x       Rx   d 8 00 00 00 00 00 00 00 00
 2.848920 1  18F120F3x       Rx   d 8 00 00 00 00 00 00 00 00
 2.849921 1  18F121F3x       Rx   d 8 00 00 00 00 00 00 00 00
 2.850871 1  18F122F3x       Rx   d 8 00 00 00 00 00 00 00 00
 2.851439 1  18F100D0x       Rx   d 8 0C FF FF FF FF FF FF FF
 2.852017 1  18F123F3x       Rx   d 8 00 00 00 00 00 00 00 00
 2.852936 1  18F124F3x       Rx   d 8 00 00 00 00 00 00 00 00
 2.853903 1  18F125F3x       Rx   d 8 00 00 00 00 00 00 00 00
 2.854850 1  18F126F3x       Rx   d 8 00 00 00 00 00 00 00 00
 2.855791 1  18F127F3x       Rx   d 8 00 00 00 00 00 00 00 00
 2.857005 1  18F128F3x       Rx   d 8 00 00 00 00 00 00 00 00
 2.857932 1  18F129F3x       Rx   d 8 00 00 00 00 00 00 00 00
 2.858878 1  18F12AF3x       Rx   d 8 00 00 00 00 00 00 00 00
 2.859433 1  CFF21CAx        Rx   d 8 2D 00 50 15 3C 3A 00 14
 2.860013 1  18F12BF3x       Rx   d 8 00 00 00 00 00 00 00 00
 2.860940 1  18F12CF3x       Rx   d 8 00 00 00 00 00 00 00 00
 2.862290 1  18F12DF3x       Rx   d 8 00 00 00 00 00 00 00 00
 2.862411 1  18FF2112x       Rx   d 8 01 00 00 00 00 00 00 00
 2.863008 1  18F12EF3x       Rx   d 8 00 00 00 00 00 00 00 00
 2.863909 1  18F12FF3x       Rx   d 8 00 00 00 00 00 00 00 00
 2.864842 1  18F130F3x       Rx   d 8 00 00 00 00 00 00 00 00
 2.865809 1  18F131F3x       Rx   d 8 00 00 00 00 00 00 00 00
 2.867014 1  18F132F3x       Rx   d 8 00 00 00 00 00 00 00 00
 2.867928 1  18F133F3x       Rx   d 8 00 00 00 00 00 00 00 00
 2.868842 1  18F134F3x       Rx   d 8 00 00 00 00 00 00 00 00
 2.869754 1  18F135F3x       Rx   d 8 00 00 00 00 00 00 00 00
 2.870543 1  CFF21CAx        Rx   d 8 2D 00 4E 15 3C 3A 00 14
 2.871144 1  18F136F3x       Rx   d 8 00 00 00 00 00 00 00 00
 2.871992 1  18F137F3x       Rx   d 8 00 00 00 00 00 00 00 00
 2.872885 1  18F138F3x       Rx   d 8 00 00 00 00 00 00 00 00
 2.873801 1  18F139F3x       Rx   d 8 00 00 00 00 00 00 00 00
 2.874738 1  18F13AF3x       Rx   d 8 00 00 00 00 00 00 00 00
 2.875650 1  18F13BF3x       Rx   d 8 00 00 00 00 00 00 00 00
 2.876484 1  18F13CF3x       Rx   d 8 00 00 00 00 00 00 00 00
 2.877342 1  18F155F3x       Rx   d 8 37 37 38 38 38 39 38 00
 2.878215 1  18F156F3x       Rx   d 8 00 00 00 00 00 00 00 00
 2.878794 1  18F100D0x       Rx   d 8 0C FF FF FF FF FF FF FF
 2.879432 1  18F157F3x       Rx   d 8 00 00 00 00 00 00 00 00
 2.880276 1  18F158F3x       Rx   d 8 00 00 00 00 00 00 00 00
 2.881173 1  18F159F3x       Rx   d 8 00 00 00 00 00 00 00 00
 2.882016 1  18F15AF3x       Rx   d 8 00 00 00 00 00 00 00 00
 2.882819 1  18F15BF3x       Rx   d 7 00 00 00 00 00 00 00
 2.883407 1  CFF21CAx        Rx   d 8 2D 00 4A 15 3C 3A 00 14
 2.883990 1  18F15CF3x       Rx   d 8 00 00 00 00 00 00 00 00
 2.884872 1  18F15DF3x       Rx   d 8 00 00 00 00 00 00 00 00
 2.885764 1  18F15EF3x       Rx   d 8 00 00 00 00 00 00 00 00
 2.895015 1  CFF21CAx        Rx   d 8 2D 00 47 15 3C 3A 00 14
 2.902723 1  18F100D0x       Rx   d 8 0C FF FF FF FF FF FF FF
 2.907160 1  CFF21CAx        Rx   d 8 2D 00 48 15 3C 3A 00 14
 2.918825 1  CFF21CAx        Rx   d 8 2D 00 45 15 3C 3A 00 14
 2.926852 1  18F100D0x       Rx   d 8 0C FF FF FF FF FF FF FF
 2.931292 1  CFF21CAx        Rx   d 8 2D 00 41 15 3C 3A 00 14
 2.932134 1  18F100F3x       Rx   d 8 03 39 7D B6 F5 FA 14 00
 2.932940 1  18F102F3x       Rx   d 8 10 23 10 1C 10 0C 00 07
 2.934166 1  18F106F3x       Rx   d 8 45 E0 FC FF FF FF FF FF
 2.935485 1  18F107F3x       Rx   d 8 38 A4 27 10 01 73 00 00
 2.937520 1  18F108F3x       Rx   d 8 00 00 00 00 00 00 00 00
 2.938449 1  18F155F3x       Rx   d 8 37 37 38 38 38 39 38 00
 2.939354 1  18F156F3x       Rx   d 8 00 00 00 00 00 00 00 00
 2.940214 1  18F157F3x       Rx   d 8 00 00 00 00 00 00 00 00
 2.941073 1  18F158F3x       Rx   d 8 00 00 00 00 00 00 00 00
 2.941897 1  18F159F3x       Rx   d 8 00 00 00 00 00 00 00 00
 2.942791 1  18F15AF3x       Rx   d 8 00 00 00 00 00 00 00 00
 2.943334 1  CFF21CAx        Rx   d 8 2D 00 3E 15 3C 3A 00 14
 2.944005 1  18F15BF3x       Rx   d 7 00 00 00 00 00 00 00
 2.944780 1  18F15CF3x       Rx   d 8 00 00 00 00 00 00 00 00
 2.945813 1  18F15DF3x       Rx   d 8 00 00 00 00 00 00 00 00
 2.946844 1  18F15EF3x       Rx   d 8 00 00 00 00 00 00 00 00
 2.950921 1  18F100D0x       Rx   d 8 0C FF FF FF FF FF FF FF
 2.955361 1  CFF21CAx        Rx   d 8 2E 00 3D 15 3C 3A 00 14
 2.959280 1  18FF2112x       Rx   d 8 01 00 00 00 00 00 00 00
 2.967002 1  CFF21CAx        Rx   d 8 2E 00 3F 15 3C 3A 00 14
 2.975022 1  18F100D0x       Rx   d 8 0C FF FF FF FF FF FF FF
 2.979478 1  CFF21CAx        Rx   d 8 2F 00 3B 15 3C 3A 00 14
 2.991499 1  CFF21CAx        Rx   d 8 2F 00 3B 15 3C 3A 00 14
 2.999123 1  18F100D0x       Rx   d 8 0C FF FF FF FF FF FF FF
 3.003567 1  CFF21CAx        Rx   d 8 2F 00 3D 15 3C 3A 00 14
 3.015171 1  CFF21CAx        Rx   d 8 2F 00 3F 15 3C 3A 00 14
 3.027433 1  CFF21CAx        Rx   d 8 2F 00 41 15 3C 3A 00 14
 3.027967 1  18F100D0x       Rx   d 8 0C FF FF FF FF FF FF FF
 3.032049 1  18F100F3x       Rx   d 8 03 39 7D BD F5 FA 14 00
 3.032923 1  18F102F3x       Rx   d 8 10 23 10 1C 10 0C 00 07
 3.034199 1  18F106F3x       Rx   d 8 45 E0 FC FF FF FF FF FF
 3.035405 1  18F107F3x       Rx   d 8 38 A4 27 10 01 73 00 00
 3.037441 1  18F108F3x       Rx   d 8 00 00 00 00 00 00 00 00
 3.038304 1  18F155F3x       Rx   d 8 37 37 38 38 38 39 38 00
 3.039187 1  18F156F3x       Rx   d 8 00 00 00 00 00 00 00 00
 3.039760 1  CFF21CAx        Rx   d 8 2F 00 40 15 3C 3A 00 14
 3.040487 1  18F157F3x       Rx   d 8 00 00 00 00 00 00 00 00
 3.041264 1  18F158F3x       Rx   d 8 00 00 00 00 00 00 00 00
 3.042324 1  18F159F3x       Rx   d 8 00 00 00 00 00 00 00 00
 3.055790 1  18F15AF3x       Rx   d 8 00 00 00 00 00 00 00 00
 3.055917 1  18F15BF3x       Rx   d 7 00 00 00 00 00 00 00
 3.056033 1  18F15CF3x       Rx   d 8 00 00 00 00 00 00 00 00
 3.056134 1  18F15DF3x       Rx   d 8 00 00 00 00 00 00 00 00
 3.056240 1  18F15EF3x       Rx   d 8 00 00 00 00 00 00 00 00
 3.056355 1  CFF21CAx        Rx   d 8 2F 00 41 15 3C 3A 00 14
 3.056487 1  18F100D0x       Rx   d 8 0C FF FF FF FF FF FF FF
 3.056656 1  18FF2112x       Rx   d 8 01 00 00 00 00 00 00 00
 3.063312 1  CFF21CAx        Rx   d 8 2F 00 46 15 3C 3A 00 14
 3.075422 1  CFF21CAx        Rx   d 8 30 00 46 15 3C 3A 00 14
 3.075986 1  18F100D0x       Rx   d 8 0C FF FF FF FF FF FF FF
 3.087854 1  CFF21CAx        Rx   d 8 30 00 45 15 3C 3A 00 14
 3.099983 1  CFF21CAx        Rx   d 8 30 00 47 15 3C 3A 00 14
 3.103541 1  18F100D0x       Rx   d 8 0C FF FF FF FF FF FF FF
 3.111632 1  CFF21CAx        Rx   d 8 2F 00 41 15 3C 3A 00 14
 3.123671 1  CFF21CAx        Rx   d 8 2F 00 40 15 3C 3A 00 14
 3.127652 1  18F100D0x       Rx   d 8 0C FF FF FF FF FF FF FF
 3.131988 1  18F100F3x       Rx   d 8 03 39 7D BD F5 FA 14 00
 3.132942 1  18F102F3x       Rx   d 8 10 23 10 1C 10 0C 00 07
 3.134252 1  18F106F3x       Rx   d 8 45 E0 FC FF FF FF FF FF
 3.135462 1  18F107F3x       Rx   d 8 38 A4 27 10 01 73 00 00
 3.136141 1  CFF21CAx        Rx   d 8 30 00 3F 15 3C 3A 00 14
 3.137524 1  18F108F3x       Rx   d 8 00 00 00 00 00 00 00 00
 3.138341 1  18F155F3x       Rx   d 8 37 37 38 38 38 39 38 00
 3.139263 1  18F156F3x       Rx   d 8 00 00 00 00 00 00 00 00
 3.140231 1  18F157F3x       Rx   d 8 00 00 00 00 00 00 00 00
 3.140962 1  18F158F3x       Rx   d 8 00 00 00 00 00 00 00 00
 3.141910 1  18F159F3x       Rx   d 8 00 00 00 00 00 00 00 00
 3.142821 1  18F15AF3x       Rx   d 8 00 00 00 00 00 00 00 00
 3.143650 1  18F15BF3x       Rx   d 7 00 00 00 00 00 00 00
 3.144608 1  18F15CF3x       Rx   d 8 00 00 00 00 00 00 00 00
 3.145410 1  18F15DF3x       Rx   d 8 00 00 00 00 00 00 00 00
 3.146194 1  18F15EF3x       Rx   d 8 00 00 00 00 00 00 00 00
 3.148099 1  CFF21CAx        Rx   d 8 30 00 3D 15 3C 3A 00 14
 3.151823 1  18F100D0x       Rx   d 8 0C FF FF FF FF FF FF FF
 3.153971 1  18FF2112x       Rx   d 8 01 00 00 00 00 00 00 00
 3.159737 1  CFF21CAx        Rx   d 8 30 00 3E 15 3C 3A 00 14
 3.171884 1  CFF21CAx        Rx   d 8 30 00 40 15 3C 3A 00 14
 3.176033 1  18F100D0x       Rx   d 8 0C FF FF FF FF FF FF FF
 3.184266 1  CFF21CAx        Rx   d 8 30 00 41 15 3C 3A 00 14
 3.188000 1  18FECACAx       Rx   d 8 00 00 00 00 00 00 FF FF
 3.196087 1  CFF21CAx        Rx   d 8 30 00 41 15 3C 3A 00 14
 3.199912 1  18F100D0x       Rx   d 8 0C FF FF FF FF FF FF FF
 3.208004 1  CFF21CAx        Rx   d 8 30 00 4B 15 3C 3A 00 14
 3.220195 1  CFF21CAx        Rx   d 8 30 00 4D 15 3C 3A 00 14
 3.228109 1  18F100D0x       Rx   d 8 0C FF FF FF FF FF FF FF
 3.232155 1  18F100F3x       Rx   d 8 03 39 7D C4 F5 FA 14 00
 3.232684 1  CFF21CAx        Rx   d 8 30 00 52 15 3C 3A 00 14
 3.233284 1  18F102F3x       Rx   d 8 10 23 10 1C 10 0C 00 07
 3.234495 1  18F106F3x       Rx   d 8 45 E0 FC FF FF FF FF FF
 3.235813 1  18F107F3x       Rx   d 8 38 A4 27 10 01 73 00 00
 3.237885 1  18F108F3x       Rx   d 8 00 00 00 00 00 00 00 00
 3.238792 1  18F155F3x       Rx   d 8 37 37 38 38 38 39 38 00
 3.239819 1  18F156F3x       Rx   d 8 00 00 00 00 00 00 00 00
 3.240582 1  18F157F3x       Rx   d 8 00 00 00 00 00 00 00 00
 3.241283 1  18F158F3x       Rx   d 8 00 00 00 00 00 00 00 00
 3.242347 1  18F159F3x       Rx   d 8 00 00 00 00 00 00 00 00
 3.243282 1  18F15AF3x       Rx   d 8 00 00 00 00 00 00 00 00
 3.243847 1  18F15BF3x       Rx   d 7 00 00 00 00 00 00 00
 3.244437 1  CFF21CAx        Rx   d 8 2E 00 54 15 3C 3A 00 14
 3.244990 1  18F15CF3x       Rx   d 8 00 00 00 00 00 00 00 00
 3.245844 1  18F15DF3x       Rx   d 8 00 00 00 00 00 00 00 00
 3.247202 1  18F15EF3x       Rx   d 8 00 00 00 00 00 00 00 00
 3.251281 1  18FF2112x       Rx   d 8 01 00 00 00 00 00 00 00
 3.252293 1  18F100D0x       Rx   d 8 0C FF FF FF FF FF FF FF
 3.256301 1  CFF21CAx        Rx   d 8 2E 00 58 15 3C 3A 00 14
 3.276153 1  CFF21CAx        Rx   d 8 2D 00 59 15 3C 3A 00 14
 3.280626 1  CFF21CAx        Rx   d 8 2D 00 56 15 3C 3A 00 14
 3.281240 1  18F100D0x       Rx   d 8 0C FF FF FF FF FF FF FF
 3.292335 1  CFF21CAx        Rx   d 8 2D 00 53 15 3C 3A 00 14
 3.304380 1  CFF21CAx        Rx   d 8 2B 00 53 15 3C 3A 00 14
 3.304927 1  18F100D0x       Rx   d 8 0C FF FF FF FF FF FF FF
 3.316420 1  CFF21CAx        Rx   d 8 2B 00 52 15 3C 3A 00 14
 3.328871 1  CFF21CAx        Rx   d 8 2B 00 4F 15 3C 3A 00 14
 3.329388 1  18F100D0x       Rx   d 8 0C FF FF FF FF FF FF FF
 3.332029 1  18F100F3x       Rx   d 8 03 39 7D C4 F5 FA 14 00
 3.332937 1  18F102F3x       Rx   d 8 10 23 10 1C 10 0C 00 07
 3.334292 1  18F106F3x       Rx   d 8 45 E0 FC FF FF FF FF FF
 3.335557 1  18F107F3x       Rx   d 8 38 A4 27 10 01 73 00 00
 3.337658 1  18F108F3x       Rx   d 8 00 00 00 00 00 00 00 00
 3.338634 1  18F155F3x       Rx   d 8 37 37 38 38 38 39 38 00
 3.339530 1  18F156F3x       Rx   d 8 00 00 00 00 00 00 00 00
 3.340441 1  18F157F3x       Rx   d 8 00 00 00 00 00 00 00 00
 3.340943 1  CFF21CAx        Rx   d 8 2B 00 4F 15 3C 3A 00 14
 3.341520 1  18F158F3x       Rx   d 8 00 00 00 00 00 00 00 00
 3.342386 1  18F159F3x       Rx   d 8 00 00 00 00 00 00 00 00
 3.343285 1  18F15AF3x       Rx   d 8 00 00 00 00 00 00 00 00
 3.344152 1  18F15BF3x       Rx   d 7 00 00 00 00 00 00 00
 3.345076 1  18F15CF3x       Rx   d 8 00 00 00 00 00 00 00 00
 3.345869 1  18F15DF3x       Rx   d 8 00 00 00 00 00 00 00 00
 3.347049 1  18F15EF3x       Rx   d 8 00 00 00 00 00 00 00 00
 3.348346 1  18FF2112x       Rx   d 8 01 00 00 00 00 00 00 00
 3.352476 1  CFF21CAx        Rx   d 8 2B 00 49 15 3C 3A 00 14
 3.353030 1  18F100D0x       Rx   d 8 0C FF FF FF FF FF FF FF
 3.364820 1  CFF21CAx        Rx   d 8 2B 00 4A 15 3C 3A 00 14
 3.377129 1  CFF21CAx        Rx   d 8 2B 00 4B 15 3C 3A 00 14
 3.377617 1  18F100D0x       Rx   d 8 0C FF FF FF FF FF FF FF
 3.388850 1  CFF21CAx        Rx   d 8 2B 00 4B 15 3C 3A 00 14
 3.400933 1  CFF21CAx        Rx   d 8 2A 00 50 15 3C 3A 00 14
 3.401388 1  18F100D0x       Rx   d 8 0C FF FF FF FF FF FF FF
 3.412937 1  CFF21CAx        Rx   d 8 2A 00 53 15 3C 3A 00 14
 3.425387 1  CFF21CAx        Rx   d 8 2B 00 52 15 3C 3A 00 14
 3.425920 1  18F100D0x       Rx   d 8 0C FF FF FF FF FF FF FF
 3.432193 1  18F100F3x       Rx   d 8 03 39 7D C4 F5 FA 14 00
 3.433093 1  18F102F3x       Rx   d 8 10 23 10 1C 10 0C 00 07
 3.434356 1  18F106F3x       Rx   d 8 45 E0 FC FF FF FF FF FF
 3.435512 1  18F107F3x       Rx   d 8 38 A4 27 10 01 73 00 00
 3.437414 1  CFF21CAx        Rx   d 8 2B 00 56 15 3C 3A 00 14
 3.437857 1  18F108F3x       Rx   d 8 00 00 00 00 00 00 00 00
 3.438873 1  18F155F3x       Rx   d 8 37 37 38 38 38 39 38 00
 3.439930 1  18F156F3x       Rx   d 8 00 00 00 00 00 00 00 00
 3.440742 1  18F157F3x       Rx   d 8 00 00 00 00 00 00 00 00
 3.441415 1  18F158F3x       Rx   d 8 00 00 00 00 00 00 00 00
 3.442396 1  18F159F3x       Rx   d 8 00 00 00 00 00 00 00 00
 3.443346 1  18F15AF3x       Rx   d 8 00 00 00 00 00 00 00 00
 3.444065 1  18F15BF3x       Rx   d 7 00 00 00 00 00 00 00
 3.445022 1  18F15CF3x       Rx   d 8 00 00 00 00 00 00 00 00
 3.445771 1  18FF2112x       Rx   d 8 01 00 00 00 00 00 00 00
 3.446323 1  18F15DF3x       Rx   d 8 00 00 00 00 00 00 00 00
 3.447262 1  18F15EF3x       Rx   d 8 00 00 00 00 00 00 00 00
 3.448919 1  CFF21CAx        Rx   d 8 2B 00 54 15 3C 3A 00 14
 3.453067 1  18F100D0x       Rx   d 8 0C FF FF FF FF FF FF FF
 3.461015 1  CFF21CAx        Rx   d 8 2A 00 53 15 3C 3A 00 14
 3.473623 1  CFF21CAx        Rx   d 8 2A 00 50 15 3C 3A 00 14
 3.477208 1  18F100D0x       Rx   d 8 0C FF FF FF FF FF FF FF
 3.495491 1  CFF21CAx        Rx   d 8 2A 00 50 15 3C 3A 00 14
 3.497608 1  CFF21CAx        Rx   d 8 29 00 4D 15 3C 3A 00 14
 3.505512 1  18F100D0x       Rx   d 8 0C FF FF FF FF FF FF FF
 3.509174 1  CFF21CAx        Rx   d 8 29 00 4D 15 3C 3A 00 14
 3.521866 1  CFF21CAx        Rx   d 8 29 00 49 15 3C 3A 00 14
 3.529376 1  18F100D0x       Rx   d 8 0C FF FF FF FF FF FF FF
 3.532086 1  18F100F3x       Rx   d 8 03 39 7D A5 F5 FA 14 00
 3.532927 1  18F102F3x       Rx   d 8 10 23 10 1C 10 0C 00 07
 3.533678 1  CFF21CAx        Rx   d 8 29 00 47 15 3C 3A 00 14
 3.534252 1  18F106F3x       Rx   d 8 45 E0 FC FF FF FF FF FF
 3.535507 1  18F107F3x       Rx   d 8 38 A4 27 10 01 73 00 00
 3.537553 1  18F108F3x       Rx   d 8 00 00 00 00 00 00 00 00
 3.538396 1  18F155F3x       Rx   d 8 37 37 38 38 38 39 38 00
 3.539319 1  18F156F3x       Rx   d 8 00 00 00 00 00 00 00 00
 3.540203 1  18F157F3x       Rx   d 8 00 00 00 00 00 00 00 00
 3.541051 1  18F158F3x       Rx   d 8 00 00 00 00 00 00 00 00
 3.541921 1  18F159F3x       Rx   d 8 00 00 00 00 00 00 00 00
 3.542843 1  18F15AF3x       Rx   d 8 00 00 00 00 00 00 00 00
 3.543414 1  18FF2112x       Rx   d 8 01 00 00 00 00 00 00 00
 3.543961 1  18F15BF3x       Rx   d 7 00 00 00 00 00 00 00
 3.544900 1  18F15CF3x       Rx   d 8 00 00 00 00 00 00 00 00
 3.545671 1  CFF21CAx        Rx   d 8 29 00 44 15 3C 3A 00 14
 3.546236 1  18F15DF3x       Rx   d 8 00 00 00 00 00 00 00 00
 3.547130 1  18F15EF3x       Rx   d 8 00 00 00 00 00 00 00 00
 3.553747 1  18F100D0x       Rx   d 8 0C FF FF FF FF FF FF FF
 3.557377 1  CFF21CAx        Rx   d 8 29 00 42 15 3C 3A 00 14
 3.569937 1  CFF21CAx        Rx   d 8 29 00 42 15 3C 3A 00 14
 3.577910 1  18F100D0x       Rx   d 8 0C FF FF FF FF FF FF FF
 3.581580 1  CFF21CAx        Rx   d 8 29 00 42 15 3C 3A 00 14
 3.594056 1  CFF21CAx        Rx   d 8 2B 00 40 15 3C 3A 00 14
 3.602023 1  18F100D0x       Rx   d 8 0C FF FF FF FF FF FF FF
 3.605716 1  CFF21CAx        Rx   d 8 2B 00 40 15 3C 3A 00 14
 3.618229 1  CFF21CAx        Rx   d 8 2B 00 3C 15 3C 3A 00 14
 3.626231 1  18F100D0x       Rx   d 8 0C FF FF FF FF FF FF FF
 3.629683 1  CFF21CAx        Rx   d 8 2C 00 3E 15 3C 3A 00 14
 3.632069 1  18F100F3x       Rx   d 8 03 39 7D A5 F5 FA 14 00
 3.632965 1  18F102F3x       Rx   d 8 10 23 10 1C 10 0C 00 07
 3.634264 1  18F106F3x       Rx   d 8 45 E0 FC FF FF FF FF FF
 3.635487 1  18F107F3x       Rx   d 8 38 A4 27 10 01 73 00 00
 3.637644 1  18F108F3x       Rx   d 8 00 00 00 00 00 00 00 00
 3.638510 1  18F155F3x       Rx   d 8 37 37 38 38 38 39 38 00
 3.639406 1  18F156F3x       Rx   d 8 00 00 00 00 00 00 00 00
 3.640342 1  18F157F3x       Rx   d 8 00 00 00 00 00 00 00 00
 3.640835 1  18FF2112x       Rx   d 8 01 00 00 00 00 00 00 00
 3.641283 1  18F158F3x       Rx   d 8 00 00 00 00 00 00 00 00
 3.642153 1  CFF21CAx        Rx   d 8 2C 00 40 15 3C 3A 00 14
 3.642709 1  18F159F3x       Rx   d 8 00 00 00 00 00 00 00 00
 3.643682 1  18F15AF3x       Rx   d 8 00 00 00 00 00 00 00 00
 3.644323 1  18F15BF3x       Rx   d 7 00 00 00 00 00 00 00
 3.645186 1  18F15CF3x       Rx   d 8 00 00 00 00 00 00 00 00
 3.646003 1  18F15DF3x       Rx   d 8 00 00 00 00 00 00 00 00
 3.647111 1  18F15EF3x       Rx   d 8 00 00 00 00 00 00 00 00
 3.650324 1  18F100D0x       Rx   d 8 0C FF FF FF FF FF FF FF
 3.653774 1  CFF21CAx        Rx   d 8 2D 00 40 15 3C 3A 00 14
 3.666294 1  CFF21CAx        Rx   d 8 2D 00 3C 15 3C 3A 00 14
 3.677922 1  CFF21CAx        Rx   d 8 2D 00 3F 15 3C 3A 00 14
 3.678461 1  18F100D0x       Rx   d 8 0C FF FF FF FF FF FF FF
 3.690422 1  CFF21CAx        Rx   d 8 2E 00 40 15 3C 3A 00 14
 3.715647 1  CFF21CAx        Rx   d 8 2E 00 40 15 3C 3A 00 14
 3.715769 1  18F100D0x       Rx   d 8 0C FF FF FF FF FF FF FF
 3.715870 1  CFF21CAx        Rx   d 8 2E 00 43 15 3C 3A 00 14
 3.726075 1  CFF21CAx        Rx   d 8 2E 00 3E 15 3C 3A 00 14
 3.726635 1  18F100D0x       Rx   d 8 0C FF FF FF FF FF FF FF
 3.731994 1  18F100F3x       Rx   d 8 03 39 7D B6 F5 FA 14 00
 3.732901 1  18F102F3x       Rx   d 8 10 23 10 1C 10 0C 00 07
 3.734217 1  18F106F3x       Rx   d 8 45 E0 FC FF FF FF FF FF
 3.735498 1  18F107F3x       Rx   d 8 38 A4 27 10 01 73 00 00
 3.737447 1  18FF2112x       Rx   d 8 01 00 00 00 00 00 00 00
 3.738023 1  18F108F3x       Rx   d 8 00 00 00 00 00 00 00 00
 3.738573 1  CFF21CAx        Rx   d 8 2E 00 3D 15 3C 3A 00 14
 3.739163 1  18F155F3x       Rx   d 8 37 37 38 38 38 39 38 00
 3.740018 1  18F156F3x       Rx   d 8 00 00 00 00 00 00 00 00
 3.740924 1  18F157F3x       Rx   d 8 00 00 00 00 00 00 00 00
 3.741870 1  18F158F3x       Rx   d 8 00 00 00 00 00 00 00 00
 3.742793 1  18F159F3x       Rx   d 8 00 00 00 00 00 00 00 00
 3.743714 1  18F15AF3x       Rx   d 8 00 00 00 00 00 00 00 00
 3.744525 1  18F15BF3x       Rx   d 7 00 00 00 00 00 00 00
 3.745359 1  18F15CF3x       Rx   d 8 00 00 00 00 00 00 00 00
 3.746236 1  18F15DF3x       Rx   d 8 00 00 00 00 00 00 00 00
 3.747142 1  18F15EF3x       Rx   d 8 00 00 00 00 00 00 00 00
 3.750175 1  CFF21CAx        Rx   d 8 2F 00 3F 15 3C 3A 00 14
 3.754650 1  18F100D0x       Rx   d 8 0C FF FF FF FF FF FF FF
 3.762604 1  CFF21CAx        Rx   d 8 2F 00 42 15 3C 3A 00 14
 3.774269 1  CFF21CAx        Rx   d 8 2F 00 44 15 3C 3A 00 14
 3.778831 1  18F100D0x       Rx   d 8 0C FF FF FF FF FF FF FF
 3.786966 1  CFF21CAx        Rx   d 8 2F 00 44 15 3C 3A 00 14
 3.798402 1  CFF21CAx        Rx   d 8 2F 00 47 15 3C 3A 00 14
 3.802830 1  18F100D0x       Rx   d 8 0C FF FF FF FF FF FF FF
 3.810859 1  CFF21CAx        Rx   d 8 2F 00 4E 15 3C 3A 00 14
 3.822569 1  CFF21CAx        Rx   d 8 2F 00 51 15 3C 3A 00 14
 3.827015 1  18F100D0x       Rx   d 8 0C FF FF FF FF FF FF FF
 3.828068 1  18F104F3x       Rx   d 8 39 37 06 01 02 FF FF FF
 3.828998 1  18F113F3x       Rx   d 8 10 1E 10 1E 10 1F 10 1F
 3.830064 1  18F114F3x       Rx   d 8 10 1D 10 1D 10 20 10 1F
 3.830877 1  18F115F3x       Rx   d 8 10 1D 10 1D 10 1D 10 1C
 3.831803 1  18F116F3x       Rx   d 8 10 21 10 1F 10 21 10 23
 3.832856 1  18F100F3x       Rx   d 8 03 39 7D B6 F5 FA 14 00
 3.833835 1  18F102F3x       Rx   d 8 10 23 10 1C 10 0C 00 07
 3.834894 1  18FF2112x       Rx   d 8 01 00 00 00 00 00 00 00
 3.835461 1  CFF21CAx        Rx   d 8 2F 00 54 15 3C 3A 00 14
 3.836026 1  18F106F3x       Rx   d 8 45 E0 FC FF FF FF FF FF
 3.837664 1  18F107F3x       Rx   d 8 38 A4 27 10 01 73 00 00
 3.839517 1  18F108F3x       Rx   d 8 00 00 00 00 00 00 00 00
 3.840477 1  18F117F3x       Rx   d 8 10 1F 10 1F 10 23 10 22
 3.841408 1  18F118F3x       Rx   d 8 00 00 00 00 00 00 00 00
 3.842349 1  18F119F3x       Rx   d 8 00 00 00 00 00 00 00 00
 3.843297 1  18F11AF3x       Rx   d 8 00 00 00 00 00 00 00 00
 3.844267 1  18F11BF3x       Rx   d 8 00 00 00 00 00 00 00 00
 3.845168 1  18F11CF3x       Rx   d 8 00 00 00 00 00 00 00 00
 3.846118 1  18F11DF3x       Rx   d 8 00 00 00 00 00 00 00 00
 3.846683 1  CFF21CAx        Rx   d 8 2F 00 54 15 3C 3A 00 14
 3.847315 1  18F11EF3x       Rx   d 8 00 00 00 00 00 00 00 00
 3.848268 1  18F11FF3x       Rx   d 8 00 00 00 00 00 00 00 00
 3.849268 1  18F120F3x       Rx   d 8 00 00 00 00 00 00 00 00
 3.850149 1  18F121F3x       Rx   d 8 00 00 00 00 00 00 00 00
 3.851105 1  18F122F3x       Rx   d 8 00 00 00 00 00 00 00 00
 3.851672 1  18F100D0x       Rx   d 8 0C FF FF FF FF FF FF FF
 3.852256 1  18F123F3x       Rx   d 8 00 00 00 00 00 00 00 00
 3.853172 1  18F124F3x       Rx   d 8 00 00 00 00 00 00 00 00
 3.854085 1  18F125F3x       Rx   d 8 00 00 00 00 00 00 00 00
 3.855120 1  18F126F3x       Rx   d 8 00 00 00 00 00 00 00 00
 3.856065 1  18F127F3x       Rx   d 8 00 00 00 00 00 00 00 00
 3.857291 1  18F128F3x       Rx   d 8 00 00 00 00 00 00 00 00
 3.858257 1  18F129F3x       Rx   d 8 00 00 00 00 00 00 00 00
 3.859085 1  18F12AF3x       Rx   d 8 00 00 00 00 00 00 00 00
 3.859636 1  CFF21CAx        Rx   d 8 2D 00 58 15 3C 3A 00 14
 3.860253 1  18F12BF3x       Rx   d 8 00 00 00 00 00 00 00 00
 3.861116 1  18F12CF3x       Rx   d 8 00 00 00 00 00 00 00 00
 3.862076 1  18F12DF3x       Rx   d 8 00 00 00 00 00 00 00 00
 3.863140 1  18F12EF3x       Rx   d 8 00 00 00 00 00 00 00 00
 3.863963 1  18F12FF3x       Rx   d 8 00 00 00 00 00 00 00 00
 3.864883 1  18F130F3x       Rx   d 8 00 00 00 00 00 00 00 00
 3.865818 1  18F131F3x       Rx   d 8 00 00 00 00 00 00 00 00
 3.867007 1  18F132F3x       Rx   d 8 00 00 00 00 00 00 00 00
 3.867941 1  18F133F3x       Rx   d 8 00 00 00 00 00 00 00 00
 3.868862 1  18F134F3x       Rx   d 8 00 00 00 00 00 00 00 00
 3.869797 1  18F135F3x       Rx   d 8 00 00 00 00 00 00 00 00
 3.870670 1  18F136F3x       Rx   d 8 00 00 00 00 00 00 00 00
 3.871261 1  CFF21CAx        Rx   d 8 2D 00 5A 15 3C 3A 00 14
 3.871818 1  18F137F3x       Rx   d 8 00 00 00 00 00 00 00 00
 3.872692 1  18F138F3x       Rx   d 8 00 00 00 00 00 00 00 00
 3.873563 1  18F139F3x       Rx   d 8 00 00 00 00 00 00 00 00
 3.874440 1  18F13AF3x       Rx   d 8 00 00 00 00 00 00 00 00
 3.875091 1  18F100D0x       Rx   d 8 0C FF FF FF FF FF FF FF
 3.875615 1  18F13BF3x       Rx   d 8 00 00 00 00 00 00 00 00
 3.876623 1  18F13CF3x       Rx   d 8 00 00 00 00 00 00 00 00
 3.877500 1  18F155F3x       Rx   d 8 37 37 38 38 38 39 38 00
 3.878406 1  18F156F3x       Rx   d 8 00 00 00 00 00 00 00 00
 3.879351 1  18F157F3x       Rx   d 8 00 00 00 00 00 00 00 00
 3.880170 1  18F158F3x       Rx   d 8 00 00 00 00 00 00 00 00
 3.881062 1  18F159F3x       Rx   d 8 00 00 00 00 00 00 00 00
 3.881984 1  18F15AF3x       Rx   d 8 00 00 00 00 00 00 00 00
 3.882845 1  18F15BF3x       Rx   d 7 00 00 00 00 00 00 00
 3.883416 1  CFF21CAx        Rx   d 8 2C 00 5A 15 3C 3A 00 14
 3.884089 1  18F15CF3x       Rx   d 8 00 00 00 00 00 00 00 00
 3.884894 1  18F15DF3x       Rx   d 8 00 00 00 00 00 00 00 00
 3.885798 1  18F15EF3x       Rx   d 8 00 00 00 00 00 00 00 00
 3.894941 1  CFF21CAx        Rx   d 8 2C 00 59 15 3C 3A 00 14
 3.899159 1  18F100D0x       Rx   d 8 0C FF FF FF FF FF FF FF
 3.907327 1  CFF21CAx        Rx   d 8 2C 00 5B 15 3C 3A 00 14
 3.918985 1  CFF21CAx        Rx   d 8 2A 00 57 15 3C 3A 00 14
 3.935853 1  18F100D0x       Rx   d 8 0C FF FF FF FF FF FF FF
 3.935979 1  CFF21CAx        Rx   d 8 2A 00 55 15 3C 3A 00 14
 3.936087 1  18FF2112x       Rx   d 8 01 00 00 00 00 00 00 00
 3.936187 1  18F100F3x       Rx   d 8 03 39 7D B6 F5 FA 14 00
 3.936294 1  18F102F3x       Rx   d 8 10 23 10 1C 10 0C 00 07
 3.936396 1  18F106F3x       Rx   d 8 45 E0 FC FF FF FF FF FF
 3.936495 1  18F107F3x       Rx   d 8 38 A4 27 10 01 73 00 00
 3.938056 1  18F108F3x       Rx   d 8 00 00 00 00 00 00 00 00
 3.938956 1  18F155F3x       Rx   d 8 37 37 38 38 38 39 38 00
 3.939880 1  18F156F3x       Rx   d 8 00 00 00 00 00 00 00 00
 3.940788 1  18F157F3x       Rx   d 8 00 00 00 00 00 00 00 00
 3.941747 1  18F158F3x       Rx   d 8 00 00 00 00 00 00 00 00
 3.942639 1  18F159F3x       Rx   d 8 00 00 00 00 00 00 00 00
 3.943158 1  CFF21CAx        Rx   d 8 2A 00 52 15 3C 3A 00 14
 3.943740 1  18F15AF3x       Rx   d 8 00 00 00 00 00 00 00 00
 3.944536 1  18F15BF3x       Rx   d 7 00 00 00 00 00 00 00
 3.945430 1  18F15CF3x       Rx   d 8 00 00 00 00 00 00 00 00
 3.946284 1  18F15DF3x       Rx   d 8 00 00 00 00 00 00 00 00
 3.947136 1  18F15EF3x       Rx   d 8 00 00 00 00 00 00 00 00
 3.950967 1  18F100D0x       Rx   d 8 0C FF FF FF FF FF FF FF
 3.955387 1  CFF21CAx        Rx   d 8 2A 00 4F 15 3C 3A 00 14
 3.967095 1  CFF21CAx        Rx   d 8 2A 00 4A 15 3C 3A 00 14
 3.975070 1  18F100D0x       Rx   d 8 0C FF FF FF FF FF FF FF
 3.979581 1  CFF21CAx        Rx   d 8 29 00 4D 15 3C 3A 00 14
 3.991262 1  CFF21CAx        Rx   d 8 29 00 4B 15 3C 3A 00 14
 4.003707 1  CFF21CAx        Rx   d 8 29 00 4A 15 3C 3A 00 14
 4.004161 1  18F100D0x       Rx   d 8 0C FF FF FF FF FF FF FF
 4.015359 1  CFF21CAx        Rx   d 8 29 00 45 15 3C 3A 00 14
 4.027843 1  CFF21CAx        Rx   d 8 29 00 47 15 3C 3A 00 14
 4.028246 1  18F100D0x       Rx   d 8 0C FF FF FF FF FF FF FF
 4.029227 1  18FF2112x       Rx   d 8 01 00 00 00 00 00 00 00
 4.032040 1  18F100F3x       Rx   d 8 03 39 7D A7 F5 FA 14 00
 4.032957 1  18F102F3x       Rx   d 8 10 23 10 1C 10 0C 00 07
 4.034238 1  18F106F3x       Rx   d 8 45 E0 FC FF FF FF FF FF
 4.035448 1  18F107F3x       Rx   d 8 38 A4 27 10 01 73 00 00
 4.037653 1  18F108F3x       Rx   d 8 00 00 00 00 00 00 00 00
 4.038365 1  18F155F3x       Rx   d 8 37 37 38 38 38 39 38 00
 4.039337 1  18F156F3x       Rx   d 8 00 00 00 00 00 00 00 00
 4.039955 1  CFF21CAx        Rx   d 8 2A 00 47 15 3C 3A 00 14
 4.040379 1  18F157F3x       Rx   d 8 00 00 00 00 00 00 00 00
 4.041355 1  18F158F3x       Rx   d 8 00 00 00 00 00 00 00 00
 4.042316 1  18F159F3x       Rx   d 8 00 00 00 00 00 00 00 00
 4.043175 1  18F15AF3x       Rx   d 8 00 00 00 00 00 00 00 00
 4.043877 1  18F15BF3x       Rx   d 7 00 00 00 00 00 00 00
 4.044781 1  18F15CF3x       Rx   d 8 00 00 00 00 00 00 00 00
 4.045674 1  18F15DF3x       Rx   d 8 00 00 00 00 00 00 00 00
 4.046839 1  18F15EF3x       Rx   d 8 00 00 00 00 00 00 00 00
 4.051766 1  CFF21CAx        Rx   d 8 2A 00 47 15 3C 3A 00 14
 4.052307 1  18F100D0x       Rx   d 8 0C FF FF FF FF FF FF FF
 4.063590 1  CFF21CAx        Rx   d 8 2A 00 48 15 3C 3A 00 14
 4.075954 1  CFF21CAx        Rx   d 8 2B 00 43 15 3C 3A 00 14
 4.076508 1  18F100D0x       Rx   d 8 0C FF FF FF FF FF FF FF
 4.087531 1  CFF21CAx        Rx   d 8 2B 00 43 15 3C 3A 00 14
 4.099773 1  CFF21CAx        Rx   d 8 2C 00 42 15 3C 3A 00 14
 4.100272 1  18F100D0x       Rx   d 8 0C FF FF FF FF FF FF FF
 4.111624 1  CFF21CAx        Rx   d 8 2C 00 45 15 3C 3A 00 14
 4.124337 1  CFF21CAx        Rx   d 8 2C 00 3F 15 3C 3A 00 14
 4.124671 1  18F100D0x       Rx   d 8 0C FF FF FF FF FF FF FF
 4.126553 1  18FF2112x       Rx   d 8 01 00 00 00 00 00 00 00
 4.132224 1  18F100F3x       Rx   d 8 03 39 7D A7 F5 FA 14 00
 4.132950 1  18F102F3x       Rx   d 8 10 23 10 1C 10 0C 00 07
 4.134306 1  18F106F3x       Rx   d 8 45 E0 FC FF FF FF FF FF
 4.135630 1  18F107F3x       Rx   d 8 38 A4 27 10 01 73 00 00
 4.136209 1  CFF21CAx        Rx   d 8 2D 00 41 15 3C 3A 00 14
 4.137659 1  18F108F3x       Rx   d 8 00 00 00 00 00 00 00 00
 4.138523 1  18F155F3x       Rx   d 8 37 37 38 38 38 39 38 00
 4.139516 1  18F156F3x       Rx   d 8 00 00 00 00 00 00 00 00
 4.141249 1  18F157F3x       Rx   d 8 00 00 00 00 00 00 00 00
 4.141452 1  18F158F3x       Rx   d 8 00 00 00 00 00 00 00 00
 4.153418 1  18F159F3x       Rx   d 8 00 00 00 00 00 00 00 00
 4.153537 1  18F15AF3x       Rx   d 8 00 00 00 00 00 00 00 00
 4.153637 1  18F15BF3x       Rx   d 7 00 00 00 00 00 00 00
 4.153737 1  18F15CF3x       Rx   d 8 00 00 00 00 00 00 00 00
 4.153836 1  18F15DF3x       Rx   d 8 00 00 00 00 00 00 00 00
 4.153935 1  18F15EF3x       Rx   d 8 00 00 00 00 00 00 00 00
 4.154034 1  CFF21CAx        Rx   d 8 2D 00 3E 15 3C 3A 00 14
 4.154134 1  18F100D0x       Rx   d 8 0C FF FF FF FF FF FF FF
 4.159801 1  CFF21CAx        Rx   d 8 2D 00 42 15 3C 3A 00 14
 4.172321 1  CFF21CAx        Rx   d 8 2D 00 41 15 3C 3A 00 14
 4.175925 1  18F100D0x       Rx   d 8 0C FF FF FF FF FF FF FF
 4.183916 1  CFF21CAx        Rx   d 8 2D 00 40 15 3C 3A 00 14
 4.196055 1  CFF21CAx        Rx   d 8 2D 00 40 15 3C 3A 00 14
 4.199965 1  18F100D0x       Rx   d 8 0C FF FF FF FF FF FF FF
 4.200515 1  18FECACAx       Rx   d 8 00 00 00 00 00 00 FF FF
 4.208105 1  CFF21CAx        Rx   d 8 2D 00 40 15 3C 3A 00 14
 4.220069 1  CFF21CAx        Rx   d 8 2D 00 42 15 3C 3A 00 14
 4.223839 1  18FF2112x       Rx   d 8 01 00 00 00 00 00 00 00
 4.228110 1  18F100D0x       Rx   d 8 0C FF FF FF FF FF FF FF
 4.232073 1  18F100F3x       Rx   d 8 03 39 7D B5 F5 FA 14 00
 4.232608 1  CFF21CAx        Rx   d 8 2E 00 40 15 3C 3A 00 14
 4.233175 1  18F102F3x       Rx   d 8 10 23 10 1C 10 0C 00 07
 4.234450 1  18F106F3x       Rx   d 8 45 E0 FC FF FF FF FF FF
 4.235738 1  18F107F3x       Rx   d 8 38 A4 27 10 01 73 00 00
 4.237883 1  18F108F3x       Rx   d 8 00 00 00 00 00 00 00 00
 4.238714 1  18F155F3x       Rx   d 8 37 37 38 38 38 39 38 00
 4.239679 1  18F156F3x       Rx   d 8 00 00 00 00 00 00 00 00
 4.240517 1  18F157F3x       Rx   d 8 00 00 00 00 00 00 00 00
 4.241374 1  18F158F3x       Rx   d 8 00 00 00 00 00 00 00 00
 4.242255 1  18F159F3x       Rx   d 8 00 00 00 00 00 00 00 00
 4.243177 1  18F15AF3x       Rx   d 8 00 00 00 00 00 00 00 00
 4.243930 1  18F15BF3x       Rx   d 7 00 00 00 00 00 00 00
 4.244500 1  CFF21CAx        Rx   d 8 2E 00 3F 15 3C 3A 00 14
 4.245089 1  18F15CF3x       Rx   d 8 00 00 00 00 00 00 00 00
 4.245901 1  18F15DF3x       Rx   d 8 00 00 00 00 00 00 00 00
 4.247097 1  18F15EF3x       Rx   d 8 00 00 00 00 00 00 00 00
 4.252373 1  18F100D0x       Rx   d 8 0C FF FF FF FF FF FF FF
 4.256438 1  CFF21CAx        Rx   d 8 2E 00 3E 15 3C 3A 00 14
 4.268487 1  CFF21CAx        Rx   d 8 2F 00 40 15 3C 3A 00 14
 4.276376 1  18F100D0x       Rx   d 8 0C FF FF FF FF FF FF FF
 4.280252 1  CFF21CAx        Rx   d 8 2F 00 41 15 3C 3A 00 14
 4.292436 1  CFF21CAx        Rx   d 8 30 00 41 15 3C 3A 00 14
 4.300398 1  18F100D0x       Rx   d 8 0C FF FF FF FF FF FF FF
 4.304559 1  CFF21CAx        Rx   d 8 30 00 41 15 3C 3A 00 14
 4.316606 1  CFF21CAx        Rx   d 8 30 00 43 15 3C 3A 00 14
 4.321318 1  18FF2112x       Rx   d 8 01 00 00 00 00 00 00 00
 4.328511 1  CFF21CAx        Rx   d 8 2F 00 45 15 3C 3A 00 14
 4.329273 1  18F100D0x       Rx   d 8 0C FF FF FF FF FF FF FF
 4.332275 1  18F100F3x       Rx   d 8 03 39 7D B5 F5 FA 14 00
 4.332978 1  18F102F3x       Rx   d 8 10 23 10 1C 10 0C 00 07
 4.334334 1  18F106F3x       Rx   d 8 45 E0 FC FF FF FF FF FF
 4.335636 1  18F107F3x       Rx   d 8 38 A4 27 10 01 73 00 00
 4.337676 1  18F108F3x       Rx   d 8 00 00 00 00 00 00 00 00
 4.338555 1  18F155F3x       Rx   d 8 37 37 38 38 38 39 38 00
 4.339283 1  18F156F3x       Rx   d 8 00 00 00 00 00 00 00 00
 4.340301 1  18F157F3x       Rx   d 8 00 00 00 00 00 00 00 00
 4.340902 1  CFF21CAx        Rx   d 8 2F 00 44 15 3C 3A 00 14
 4.341559 1  18F158F3x       Rx   d 8 00 00 00 00 00 00 00 00
 4.343314 1  18F159F3x       Rx   d 8 00 00 00 00 00 00 00 00
 4.343485 1  18F15AF3x       Rx   d 8 00 00 00 00 00 00 00 00
 4.344176 1  18F15BF3x       Rx   d 7 00 00 00 00 00 00 00
 4.344948 1  18F15CF3x       Rx   d 8 00 00 00 00 00 00 00 00
 4.345961 1  18F15DF3x       Rx   d 8 00 00 00 00 00 00 00 00
 4.347124 1  18F15EF3x       Rx   d 8 00 00 00 00 00 00 00 00
 4.352605 1  CFF21CAx        Rx   d 8 2F 00 4A 15 3C 3A 00 14
 4.353163 1  18F100D0x       Rx   d 8 0C FF FF FF FF FF FF FF
 4.372390 1  CFF21CAx        Rx   d 8 2E 00 4B 15 3C 3A 00 14
 4.377081 1  CFF21CAx        Rx   d 8 2E 00 4C 15 3C 3A 00 14
 4.377602 1  18F100D0x       Rx   d 8 0C FF FF FF FF FF FF FF
 4.388763 1  CFF21CAx        Rx   d 8 2E 00 4F 15 3C 3A 00 14
 4.401217 1  CFF21CAx        Rx   d 8 2E 00 51 15 3C 3A 00 14
 4.401749 1  18F100D0x       Rx   d 8 0C FF FF FF FF FF FF FF
 4.412838 1  CFF21CAx        Rx   d 8 2E 00 51 15 3C 3A 00 14
 4.418380 1  18FF2112x       Rx   d 8 01 00 00 00 00 00 00 00
 4.425289 1  CFF21CAx        Rx   d 8 2D 00 57 15 3C 3A 00 14
 4.425808 1  18F100D0x       Rx   d 8 0C FF FF FF FF FF FF FF
 4.432207 1  18F100F3x       Rx   d 8 03 39 7D B5 F5 FA 14 00
 4.432956 1  18F102F3x       Rx   d 8 10 23 10 1C 10 06 00 07
 4.434251 1  18F106F3x       Rx   d 8 45 E0 FC FF FF FF FF FF
 4.435502 1  18F107F3x       Rx   d 8 38 A4 27 10 01 73 00 00
 4.437362 1  CFF21CAx        Rx   d 8 2D 00 58 15 3C 3A 00 14
 4.437936 1  18F108F3x       Rx   d 8 00 00 00 00 00 00 00 00
 4.438851 1  18F155F3x       Rx   d 8 37 37 38 38 38 39 38 00
 4.439817 1  18F156F3x       Rx   d 8 00 00 00 00 00 00 00 00
 4.440682 1  18F157F3x       Rx   d 8 00 00 00 00 00 00 00 00
 4.441727 1  18F158F3x       Rx   d 8 00 00 00 00 00 00 00 00
 4.442471 1  18F159F3x       Rx   d 8 00 00 00 00 00 00 00 00
 4.443318 1  18F15AF3x       Rx   d 8 00 00 00 00 00 00 00 00
 4.444127 1  18F15BF3x       Rx   d 7 00 00 00 00 00 00 00
 4.444968 1  18F15CF3x       Rx   d 8 00 00 00 00 00 00 00 00
 4.445943 1  18F15DF3x       Rx   d 8 00 00 00 00 00 00 00 00
 4.447086 1  18F15EF3x       Rx   d 8 00 00 00 00 00 00 00 00
 4.449351 1  CFF21CAx        Rx   d 8 2B 00 59 15 3C 3A 00 14
 4.453034 1  18F100D0x       Rx   d 8 0C FF FF FF FF FF FF FF
 4.461107 1  CFF21CAx        Rx   d 8 2B 00 59 15 3C 3A 00 14
 4.473726 1  CFF21CAx        Rx   d 8 2B 00 5B 15 3C 3A 00 14
 4.477191 1  18F100D0x       Rx   d 8 0C FF FF FF FF FF FF FF
 4.485397 1  CFF21CAx        Rx   d 8 2A 00 5C 15 3C 3A 00 14
 4.497738 1  CFF21CAx        Rx   d 8 2A 00 57 15 3C 3A 00 14
 4.501209 1  18F100D0x       Rx   d 8 0C FF FF FF FF FF FF FF
 4.509202 1  CFF21CAx        Rx   d 8 2A 00 57 15 3C 3A 00 14
 4.515644 1  18FF2112x       Rx   d 8 01 00 00 00 00 00 00 00
 4.521851 1  CFF21CAx        Rx   d 8 2A 00 57 15 3C 3A 00 14
 4.525275 1  18F100D0x       Rx   d 8 0C FF FF FF FF FF FF FF
 4.532187 1  18F100F3x       Rx   d 8 03 39 7D B4 F5 FA 14 00
 4.533003 1  18F102F3x       Rx   d 8 10 23 10 1C 10 06 00 07
 4.533750 1  CFF21CAx        Rx   d 8 29 00 53 15 3C 3A 00 14
 4.534323 1  18F106F3x       Rx   d 8 45 E0 FC FF FF FF FF FF
 4.535558 1  18F107F3x       Rx   d 8 38 A4 27 10 01 73 00 00
 4.537727 1  18F108F3x       Rx   d 8 00 00 00 00 00 00 00 00
 4.538600 1  18F155F3x       Rx   d 8 37 37 38 38 38 39 38 00
 4.539503 1  18F156F3x       Rx   d 8 00 00 00 00 00 00 00 00
 4.540411 1  18F157F3x       Rx   d 8 00 00 00 00 00 00 00 00
 4.541185 1  18F158F3x       Rx   d 8 00 00 00 00 00 00 00 00
 4.542016 1  18F159F3x       Rx   d 8 00 00 00 00 00 00 00 00
 4.542942 1  18F15AF3x       Rx   d 8 00 00 00 00 00 00 00 00
 4.543788 1  18F15BF3x       Rx   d 7 00 00 00 00 00 00 00
 4.544584 1  18F15CF3x       Rx   d 8 00 00 00 00 00 00 00 00
 4.545442 1  18F15DF3x       Rx   d 8 00 00 00 00 00 00 00 00
 4.545988 1  CFF21CAx        Rx   d 8 29 00 53 15 3C 3A 00 14
 4.546567 1  18F15EF3x       Rx   d 8 00 00 00 00 00 00 00 00
 4.553973 1  18F100D0x       Rx   d 8 0C FF FF FF FF FF FF FF
 4.557408 1  CFF21CAx        Rx   d 8 28 00 50 15 3C 3A 00 14
 4.570071 1  CFF21CAx        Rx   d 8 28 00 4C 15 3C 3A 00 14
 4.578067 1  18F100D0x       Rx   d 8 0C FF FF FF FF FF FF FF
 4.591140 1  CFF21CAx        Rx   d 8 28 00 4A 15 3C 3A 00 14
 4.594023 1  CFF21CAx        Rx   d 8 28 00 4E 15 3C 3A 00 14
 4.601983 1  18F100D0x       Rx   d 8 0C FF FF FF FF FF FF FF
 4.605594 1  CFF21CAx        Rx   d 8 28 00 4D 15 3C 3A 00 14
 4.612959 1  18FF2112x       Rx   d 8 01 00 00 00 00 00 00 00
 4.618084 1  CFF21CAx        Rx   d 8 28 00 4C 15 3C 3A 00 14
 4.626563 1  18F100D0x       Rx   d 8 0C FF FF FF FF FF FF FF
 4.630220 1  CFF21CAx        Rx   d 8 28 00 4E 15 3C 3A 00 14
 4.632182 1  18F100F3x       Rx   d 8 03 39 7D B4 F5 FA 14 00
 4.632952 1  18F102F3x       Rx   d 8 10 23 10 1C 10 06 00 07
 4.634252 1  18F106F3x       Rx   d 8 45 E0 FC FF FF FF FF FF
 4.635481 1  18F107F3x       Rx   d 8 38 A4 27 10 01 73 00 00
 4.637534 1  18F108F3x       Rx   d 8 00 00 00 00 00 00 00 00
 4.638410 1  18F155F3x       Rx   d 8 37 37 38 38 38 39 38 00
 4.639304 1  18F156F3x       Rx   d 8 00 00 00 00 00 00 00 00
 4.640256 1  18F157F3x       Rx   d 8 00 00 00 00 00 00 00 00
 4.641122 1  18F158F3x       Rx   d 8 00 00 00 00 00 00 00 00
 4.641955 1  18F159F3x       Rx   d 8 00 00 00 00 00 00 00 00
 4.642531 1  CFF21CAx        Rx   d 8 28 00 4E 15 3C 3A 00 14
 4.643115 1  18F15AF3x       Rx   d 8 00 00 00 00 00 00 00 00
 4.643963 1  18F15BF3x       Rx   d 7 00 00 00 00 00 00 00
 4.644873 1  18F15CF3x       Rx   d 8 00 00 00 00 00 00 00 00
 4.645759 1  18F15DF3x       Rx   d 8 00 00 00 00 00 00 00 00
 4.646880 1  18F15EF3x       Rx   d 8 00 00 00 00 00 00 00 00
 4.653900 1  CFF21CAx        Rx   d 8 29 00 4F 15 3C 3A 00 14
 4.654411 1  18F100D0x       Rx   d 8 0C FF FF FF FF FF FF FF
 4.666348 1  CFF21CAx        Rx   d 8 29 00 4D 15 3C 3A 00 14
 4.678042 1  CFF21CAx        Rx   d 8 29 00 4D 15 3C 3A 00 14
 4.678490 1  18F100D0x       Rx   d 8 0C FF FF FF FF FF FF FF
 4.690433 1  CFF21CAx        Rx   d 8 29 00 4D 15 3C 3A 00 14
 4.701953 1  CFF21CAx        Rx   d 8 29 00 4E 15 3C 3A 00 14
 4.702663 1  18F100D0x       Rx   d 8 0C FF FF FF FF FF FF FF
 4.710353 1  18FF2112x       Rx   d 8 01 00 00 00 00 00 00 00
 4.714653 1  CFF21CAx        Rx   d 8 2A 00 4B 15 3C 3A 00 14
 4.726601 1  CFF21CAx        Rx   d 8 2A 00 4E 15 3C 3A 00 14
 4.727161 1  18F100D0x       Rx   d 8 0C FF FF FF FF FF FF FF
 4.732129 1  18F100F3x       Rx   d 8 03 39 7D 9D F5 FA 14 00
 4.733130 1  18F102F3x       Rx   d 8 10 23 10 1C 10 06 00 07
 4.734221 1  18F106F3x       Rx   d 8 45 E0 FC FF FF FF FF FF
 4.735633 1  18F107F3x       Rx   d 8 38 A4 27 10 01 73 00 00
 4.737704 1  18F108F3x       Rx   d 8 00 00 00 00 00 00 00 00
 4.738557 1  18F155F3x       Rx   d 8 37 37 38 38 38 39 38 00
 4.739107 1  CFF21CAx        Rx   d 8 2A 00 4A 15 3C 3A 00 14
 4.739690 1  18F156F3x       Rx   d 8 00 00 00 00 00 00 00 00
 4.740419 1  18F157F3x       Rx   d 8 00 00 00 00 00 00 00 00
 4.741456 1  18F158F3x       Rx   d 8 00 00 00 00 00 00 00 00
 4.742333 1  18F159F3x       Rx   d 8 00 00 00 00 00 00 00 00
 4.743288 1  18F15AF3x       Rx   d 8 00 00 00 00 00 00 00 00
 4.744039 1  18F15BF3x       Rx   d 7 00 00 00 00 00 00 00
 4.744818 1  18F15CF3x       Rx   d 8 00 00 00 00 00 00 00 00
 4.745843 1  18F15DF3x       Rx   d 8 00 00 00 00 00 00 00 00
 4.746707 1  18F15EF3x       Rx   d 8 00 00 00 00 00 00 00 00
 4.750290 1  CFF21CAx        Rx   d 8 2A 00 48 15 3C 3A 00 14
 4.750849 1  18F100D0x       Rx   d 8 0C FF FF FF FF FF FF FF
 4.762696 1  CFF21CAx        Rx   d 8 2A 00 41 15 3C 3A 00 14
 4.774304 1  CFF21CAx        Rx   d 8 2A 00 45 15 3C 3A 00 14
 4.778768 1  18F100D0x       Rx   d 8 0C FF FF FF FF FF FF FF
 4.786743 1  CFF21CAx        Rx   d 8 2A 00 40 15 3C 3A 00 14
 4.814549 1  CFF21CAx        Rx   d 8 2A 00 41 15 3C 3A 00 14
 4.814692 1  18F100D0x       Rx   d 8 0C FF FF FF FF FF FF FF
 4.814798 1  18FF2112x       Rx   d 8 01 00 00 00 00 00 00 00
 4.814896 1  CFF21CAx        Rx   d 8 2B 00 3F 15 3C 3A 00 14
 4.822842 1  CFF21CAx        Rx   d 8 2B 00 3F 15 3C 3A 00 14
 4.826964 1  18F100D0x       Rx   d 8 0C FF FF FF FF FF FF FF
 4.827949 1  18F104F3x       Rx   d 8 39 37 06 01 02 FF FF FF
 4.828884 1  18F113F3x       Rx   d 8 10 1E 10 1E 10 1E 10 1F
 4.829835 1  18F114F3x       Rx   d 8 10 1D 10 1C 10 1F 10 1F
 4.830787 1  18F115F3x       Rx   d 8 10 1D 10 1C 10 1D 10 1C
 4.831748 1  18F116F3x       Rx   d 8 10 20 10 1F 10 21 10 23
 4.832708 1  18F100F3x       Rx   d 8 03 39 7D 9D F5 FA 14 00
 4.833720 1  18F102F3x       Rx   d 8 10 23 10 1C 10 06 00 07
 4.835007 1  CFF21CAx        Rx   d 8 2B 00 3F 15 3C 3A 00 14
 4.835584 1  18F106F3x       Rx   d 8 45 E0 FC FF FF FF FF FF
 4.837201 1  18F107F3x       Rx   d 8 38 A4 27 10 01 73 00 00
 4.839068 1  18F108F3x       Rx   d 8 00 00 00 00 00 00 00 00
 4.840045 1  18F117F3x       Rx   d 8 10 1E 10 1F 10 22 10 22
 4.841018 1  18F118F3x       Rx   d 8 00 00 00 00 00 00 00 00
 4.842068 1  18F119F3x       Rx   d 8 00 00 00 00 00 00 00 00
 4.843057 1  18F11AF3x       Rx   d 8 00 00 00 00 00 00 00 00
 4.844019 1  18F11BF3x       Rx   d 8 00 00 00 00 00 00 00 00
 4.844987 1  18F11CF3x       Rx   d 8 00 00 00 00 00 00 00 00
 4.845963 1  18F11DF3x       Rx   d 8 00 00 00 00 00 00 00 00
 4.846591 1  CFF21CAx        Rx   d 8 2C 00 3D 15 3C 3A 00 14
 4.847210 1  18F11EF3x       Rx   d 8 00 00 00 00 00 00 00 00
 4.848163 1  18F11FF3x       Rx   d 8 00 00 00 00 00 00 00 00
 4.849050 1  18F120F3x       Rx   d 8 00 00 00 00 00 00 00 00
 4.850011 1  18F121F3x       Rx   d 8 00 00 00 00 00 00 00 00
 4.850966 1  18F122F3x       Rx   d 8 00 00 00 00 00 00 00 00
 4.851555 1  18F100D0x       Rx   d 8 0C FF FF FF FF FF FF FF
 4.852160 1  18F123F3x       Rx   d 8 00 00 00 00 00 00 00 00
 4.853057 1  18F124F3x       Rx   d 8 00 00 00 00 00 00 00 00
 4.853993 1  18F125F3x       Rx   d 8 00 00 00 00 00 00 00 00
 4.854961 1  18F126F3x       Rx   d 8 00 00 00 00 00 00 00 00
 4.855919 1  18F127F3x       Rx   d 8 00 00 00 00 00 00 00 00
 4.857150 1  18F128F3x       Rx   d 8 00 00 00 00 00 00 00 00
 4.858037 1  18F129F3x       Rx   d 8 00 00 00 00 00 00 00 00
 4.858995 1  18F12AF3x       Rx   d 8 00 00 00 00 00 00 00 00
 4.859538 1  CFF21CAx        Rx   d 8 2C 00 3D 15 3C 3A 00 14
 4.860140 1  18F12BF3x       Rx   d 8 00 00 00 00 00 00 00 00
 4.861015 1  18F12CF3x       Rx   d 8 00 00 00 00 00 00 00 00
 4.861956 1  18F12DF3x       Rx   d 8 00 00 00 00 00 00 00 00
 4.862905 1  18F12EF3x       Rx   d 8 00 00 00 00 00 00 00 00
 4.863829 1  18F12FF3x       Rx   d 8 00 00 00 00 00 00 00 00
 4.864773 1  18F130F3x       Rx   d 8 00 00 00 00 00 00 00 00
 4.865706 1  18F131F3x       Rx   d 8 00 00 00 00 00 00 00 00
 4.866898 1  18F132F3x       Rx   d 8 00 00 00 00 00 00 00 00
 4.867820 1  18F133F3x       Rx   d 8 00 00 00 00 00 00 00 00
 4.868794 1  18F134F3x       Rx   d 8 00 00 00 00 00 00 00 00
 4.869578 1  18F135F3x       Rx   d 8 00 00 00 00 00 00 00 00
 4.870477 1  18F136F3x       Rx   d 8 00 00 00 00 00 00 00 00
 4.871159 1  CFF21CAx        Rx   d 8 2C 00 3F 15 3C 3A 00 14
 4.871658 1  18F137F3x       Rx   d 8 00 00 00 00 00 00 00 00
 4.872549 1  18F138F3x       Rx   d 8 00 00 00 00 00 00 00 00
 4.873432 1  18F139F3x       Rx   d 8 00 00 00 00 00 00 00 00
 4.874296 1  18F13AF3x       Rx   d 8 00 00 00 00 00 00 00 00
 4.875171 1  18F13BF3x       Rx   d 8 00 00 00 00 00 00 00 00
 4.876020 1  18F13CF3x       Rx   d 8 00 00 00 00 00 00 00 00
 4.877229 1  18F155F3x       Rx   d 8 37 37 38 38 38 39 38 00
 4.878140 1  18F156F3x       Rx   d 8 00 00 00 00 00 00 00 00
 4.878684 1  18F100D0x       Rx   d 8 0C FF FF FF FF FF FF FF
 4.879296 1  18F157F3x       Rx   d 8 00 00 00 00 00 00 00 00
 4.880180 1  18F158F3x       Rx   d 8 00 00 00 00 00 00 00 00
 4.881067 1  18F159F3x       Rx   d 8 00 00 00 00 00 00 00 00
 4.881964 1  18F15AF3x       Rx   d 8 00 00 00 00 00 00 00 00
 4.882841 1  18F15BF3x       Rx   d 7 00 00 00 00 00 00 00
 4.883387 1  CFF21CAx        Rx   d 8 2D 00 41 15 3C 3A 00 14
 4.883975 1  18F15CF3x       Rx   d 8 00 00 00 00 00 00 00 00
 4.884873 1  18F15DF3x       Rx   d 8 00 00 00 00 00 00 00 00
 4.885771 1  18F15EF3x       Rx   d 8 00 00 00 00 00 00 00 00
 4.894869 1  CFF21CAx        Rx   d 8 2D 00 44 15 3C 3A 00 14
 4.902876 1  18F100D0x       Rx   d 8 0C FF FF FF FF FF FF FF
