date Sat May 09 09:48:06.961 2026
base hex  timestamps absolute
internal events logged
Begin Triggerblock Sat May 09 09:48:06.967 2026
 0.000000 Start of measurement
 0.000000 1  CFF21CAx        Rx   d 8 69 00 A6 11 3D 3B 00 14
 0.000200 1  CFF21CAx        Rx   d 8 69 00 A6 11 3D 3B 00 14
 0.000301 1  18F100D0x       Rx   d 8 0C FF FF FF FF FF FF FF
 0.003170 1  CFF21CAx        Rx   d 8 66 00 D4 11 3D 3B 00 14
 0.015250 1  CFF21CAx        Rx   d 8 66 00 EB 11 3D 3B 00 14
 0.021075 1  18F100F3x       Rx   d 8 03 37 7F 72 F4 FA 14 00
 0.021950 1  18F102F3x       Rx   d 8 10 16 10 0E 10 0C 00 08
 0.023332 1  18F100D0x       Rx   d 8 0C FF FF FF FF FF FF FF
 0.023894 1  18F106F3x       Rx   d 8 45 E0 FC FF FF FF FF FF
 0.025218 1  18F107F3x       Rx   d 8 38 A4 27 10 01 72 00 00
 0.026935 1  18F108F3x       Rx   d 8 00 00 00 00 00 00 00 00
 0.027539 1  CFF21CAx        Rx   d 8 66 00 E8 11 3D 3B 00 14
 0.028078 1  18F155F3x       Rx   d 8 38 37 38 38 38 39 38 00
 0.028994 1  18F156F3x       Rx   d 8 00 00 00 00 00 00 00 00
 0.029878 1  18F157F3x       Rx   d 8 00 00 00 00 00 00 00 00
 0.030785 1  18F158F3x       Rx   d 8 00 00 00 00 00 00 00 00
 0.031761 1  18F159F3x       Rx   d 8 00 00 00 00 00 00 00 00
 0.032904 1  18F15AF3x       Rx   d 8 00 00 00 00 00 00 00 00
 0.033768 1  18F15BF3x       Rx   d 7 00 00 00 00 00 00 00
 0.034673 1  18F15CF3x       Rx   d 8 00 00 00 00 00 00 00 00
 0.035517 1  18F15DF3x       Rx   d 8 00 00 00 00 00 00 00 00
 0.036343 1  18F15EF3x       Rx   d 8 00 00 00 00 00 00 00 00
 0.039285 1  CFF21CAx        Rx   d 8 63 00 A0 11 3D 3B 00 14
 0.051413 1  CFF21CAx        Rx   d 8 63 00 75 11 3D 3B 00 14
 0.051946 1  18F100D0x       Rx   d 8 0C FF FF FF FF FF FF FF
 0.054151 1  18FF2112x       Rx   d 8 01 00 00 00 00 00 00 00
 0.063421 1  CFF21CAx        Rx   d 8 67 00 84 11 3D 3B 00 14
 0.075520 1  CFF21CAx        Rx   d 8 67 00 A2 11 3D 3B 00 14
 0.079560 1  18F100D0x       Rx   d 8 0C FF FF FF FF FF FF FF
 0.087549 1  CFF21CAx        Rx   d 8 67 00 A2 11 3D 3B 00 14
 0.099604 1  CFF21CAx        Rx   d 8 69 00 DC 11 3D 3B 00 14
 0.107667 1  18F100D0x       Rx   d 8 0C FF FF FF FF FF FF FF
 0.110530 1  18F104F3x       Rx   d 8 39 37 06 02 02 FF FF FF
 0.111478 1  18F113F3x       Rx   d 8 10 11 10 11 10 11 10 12
 0.112018 1  CFF21CAx        Rx   d 8 69 00 0B 12 3D 3B 00 14
 0.112568 1  18F114F3x       Rx   d 8 10 10 10 0F 10 13 10 12
 0.113490 1  18F115F3x       Rx   d 8 10 10 10 10 10 10 10 0E
 0.114355 1  18F116F3x       Rx   d 8 10 14 10 12 10 15 10 16
 0.115284 1  18F117F3x       Rx   d 8 10 11 10 11 10 16 10 14
 0.116185 1  18F118F3x       Rx   d 8 00 00 00 00 00 00 00 00
 0.117086 1  18F119F3x       Rx   d 8 00 00 00 00 00 00 00 00
 0.118066 1  18F11AF3x       Rx   d 8 00 00 00 00 00 00 00 00
 0.119008 1  18F11BF3x       Rx   d 8 00 00 00 00 00 00 00 00
 0.120064 1  18F11CF3x       Rx   d 8 00 00 00 00 00 00 00 00
 0.121178 1  18F11DF3x       Rx   d 8 00 00 00 00 00 00 00 00
 0.121931 1  18F100F3x       Rx   d 8 03 37 7F 72 F4 FA 14 00
 0.123193 1  18F102F3x       Rx   d 8 10 16 10 0E 10 0C 00 08
 0.123777 1  CFF21CAx        Rx   d 8 65 00 39 12 3D 3B 00 14
 0.124429 1  18F106F3x       Rx   d 8 45 E0 FC FF FF FF FF FF
 0.125858 1  18F107F3x       Rx   d 8 38 A4 27 10 01 72 00 00
 0.127677 1  18F108F3x       Rx   d 8 00 00 00 00 00 00 00 00
 0.128683 1  18F11EF3x       Rx   d 8 00 00 00 00 00 00 00 00
 0.129515 1  18F11FF3x       Rx   d 8 00 00 00 00 00 00 00 00
 0.130442 1  18F120F3x       Rx   d 8 00 00 00 00 00 00 00 00
 0.131371 1  18F121F3x       Rx   d 8 00 00 00 00 00 00 00 00
 0.132339 1  18F122F3x       Rx   d 8 00 00 00 00 00 00 00 00
 0.133188 1  18F123F3x       Rx   d 8 00 00 00 00 00 00 00 00
 0.134099 1  18F124F3x       Rx   d 8 00 00 00 00 00 00 00 00
 0.135000 1  18F125F3x       Rx   d 8 00 00 00 00 00 00 00 00
 0.135766 1  CFF21CAx        Rx   d 8 65 00 5A 12 3D 3B 00 14
 0.136277 1  18F100D0x       Rx   d 8 0C FF FF FF FF FF FF FF
 0.136843 1  18F126F3x       Rx   d 8 00 00 00 00 00 00 00 00
 0.137833 1  18F127F3x       Rx   d 8 00 00 00 00 00 00 00 00
 0.138770 1  18F128F3x       Rx   d 8 00 00 00 00 00 00 00 00
 0.139774 1  18F129F3x       Rx   d 8 00 00 00 00 00 00 00 00
 0.140636 1  18F12AF3x       Rx   d 8 00 00 00 00 00 00 00 00
 0.141618 1  18F12BF3x       Rx   d 8 00 00 00 00 00 00 00 00
 0.142480 1  18F12CF3x       Rx   d 8 00 00 00 00 00 00 00 00
 0.143335 1  18F12DF3x       Rx   d 8 00 00 00 00 00 00 00 00
 0.144321 1  18F12EF3x       Rx   d 8 00 00 00 00 00 00 00 00
 0.145164 1  18F12FF3x       Rx   d 8 00 00 00 00 00 00 00 00
 0.146053 1  18F130F3x       Rx   d 8 00 00 00 00 00 00 00 00
 0.147044 1  18F131F3x       Rx   d 8 00 00 00 00 00 00 00 00
 0.147759 1  CFF21CAx        Rx   d 8 65 00 59 12 3D 3B 00 14
 0.148407 1  18F132F3x       Rx   d 8 00 00 00 00 00 00 00 00
 0.149287 1  18F133F3x       Rx   d 8 00 00 00 00 00 00 00 00
 0.150175 1  18F134F3x       Rx   d 8 00 00 00 00 00 00 00 00
 0.151048 1  18F135F3x       Rx   d 8 00 00 00 00 00 00 00 00
 0.151567 1  18FF2112x       Rx   d 8 01 00 00 00 00 00 00 00
 0.152121 1  18F136F3x       Rx   d 8 00 00 00 00 00 00 00 00
 0.153293 1  18F137F3x       Rx   d 8 00 00 00 00 00 00 00 00
 0.154170 1  18F138F3x       Rx   d 8 00 00 00 00 00 00 00 00
 0.155081 1  18F139F3x       Rx   d 8 00 00 00 00 00 00 00 00
 0.155823 1  18F13AF3x       Rx   d 8 00 00 00 00 00 00 00 00
 0.156922 1  18F13BF3x       Rx   d 8 00 00 00 00 00 00 00 00
 0.157749 1  18F13CF3x       Rx   d 8 00 00 00 00 00 00 00 00
 0.158646 1  18F155F3x       Rx   d 8 38 37 38 38 38 39 38 00
 0.159526 1  18F156F3x       Rx   d 8 00 00 00 00 00 00 00 00
 0.159944 1  CFF21CAx        Rx   d 8 61 00 44 12 3D 3B 00 14
 0.160648 1  18F157F3x       Rx   d 8 00 00 00 00 00 00 00 00
 0.161531 1  18F158F3x       Rx   d 8 00 00 00 00 00 00 00 00
 0.162407 1  18F159F3x       Rx   d 8 00 00 00 00 00 00 00 00
 0.163291 1  18F15AF3x       Rx   d 8 00 00 00 00 00 00 00 00
 0.163993 1  18F100D0x       Rx   d 8 0C FF FF FF FF FF FF FF
 0.164362 1  18F15BF3x       Rx   d 7 00 00 00 00 00 00 00
 0.165392 1  18F15CF3x       Rx   d 8 00 00 00 00 00 00 00 00
 0.166245 1  18F15DF3x       Rx   d 8 00 00 00 00 00 00 00 00
 0.167091 1  18F15EF3x       Rx   d 8 00 00 00 00 00 00 00 00
 0.171891 1  CFF21CAx        Rx   d 8 61 00 44 12 3D 3B 00 14
 0.184097 1  CFF21CAx        Rx   d 8 61 00 3A 12 3D 3B 00 14
 0.192137 1  18F100D0x       Rx   d 8 0C FF FF FF FF FF FF FF
 0.196120 1  CFF21CAx        Rx   d 8 60 00 4D 12 3D 3B 00 14
 0.215115 1  CFF21CAx        Rx   d 8 60 00 6C 12 3D 3B 00 14
 0.220138 1  CFF21CAx        Rx   d 8 5E 00 74 12 3D 3B 00 14
 0.220683 1  18F100D0x       Rx   d 8 0C FF FF FF FF FF FF FF
 0.221226 1  18F100F3x       Rx   d 8 03 37 7F 72 F4 FA 14 00
 0.222083 1  18F102F3x       Rx   d 8 10 16 10 0E 10 0C 00 08
 0.223558 1  18F106F3x       Rx   d 8 45 E0 FC FF FF FF FF FF
 0.224852 1  18F107F3x       Rx   d 8 38 A4 27 10 01 72 00 00
 0.226622 1  18F108F3x       Rx   d 8 00 00 00 00 00 00 00 00
 0.227489 1  18F155F3x       Rx   d 8 38 37 38 38 38 39 38 00
 0.228407 1  18F156F3x       Rx   d 8 00 00 00 00 00 00 00 00
 0.229292 1  18F157F3x       Rx   d 8 00 00 00 00 00 00 00 00
 0.230162 1  18F158F3x       Rx   d 8 00 00 00 00 00 00 00 00
 0.231019 1  18F159F3x       Rx   d 8 00 00 00 00 00 00 00 00
 0.231940 1  18F15AF3x       Rx   d 8 00 00 00 00 00 00 00 00
 0.232486 1  CFF21CAx        Rx   d 8 5E 00 4C 12 3D 3B 00 14
 0.233066 1  18FECACAx       Rx   d 8 00 00 00 00 00 00 FF FF
 0.233602 1  18F15BF3x       Rx   d 7 00 00 00 00 00 00 00
 0.234479 1  18F15CF3x       Rx   d 8 00 00 00 00 00 00 00 00
 0.235322 1  18F15DF3x       Rx   d 8 00 00 00 00 00 00 00 00
 0.236231 1  18F15EF3x       Rx   d 8 00 00 00 00 00 00 00 00
 0.244212 1  CFF21CAx        Rx   d 8 5E 00 14 12 3D 3B 00 14
 0.244793 1  18F100D0x       Rx   d 8 0C FF FF FF FF FF FF FF
 0.248715 1  18FF2112x       Rx   d 8 01 00 00 00 00 00 00 00
 0.256299 1  CFF21CAx        Rx   d 8 5E 00 14 12 3D 3B 00 14
 0.268386 1  CFF21CAx        Rx   d 8 65 00 2B 12 3D 3B 00 14
 0.275927 1  18F100D0x       Rx   d 8 0C FF FF FF FF FF FF FF
 0.280367 1  CFF21CAx        Rx   d 8 65 00 4C 12 3D 3B 00 14
 0.293025 1  CFF21CAx        Rx   d 8 67 00 8C 12 3D 3B 00 14
 0.304497 1  CFF21CAx        Rx   d 8 67 00 BB 12 3D 3B 00 14
 0.304977 1  18F100D0x       Rx   d 8 0C FF FF FF FF FF FF FF
 0.316556 1  CFF21CAx        Rx   d 8 64 00 D8 12 3D 3B 00 14
 0.321081 1  18F100F3x       Rx   d 8 03 37 7F 98 F4 FA 14 00
 0.321928 1  18F102F3x       Rx   d 8 10 16 10 0E 10 0C 00 08
 0.323530 1  18F106F3x       Rx   d 8 45 E0 FC FF FF FF FF FF
 0.324931 1  18F107F3x       Rx   d 8 38 A4 27 10 01 72 00 00
 0.326776 1  18F108F3x       Rx   d 8 00 00 00 00 00 00 00 00
 0.327627 1  18F155F3x       Rx   d 8 38 37 38 38 38 39 38 00
 0.328521 1  18F156F3x       Rx   d 8 00 00 00 00 00 00 00 00
 0.329047 1  CFF21CAx        Rx   d 8 64 00 F2 12 3D 3B 00 14
 0.329620 1  18F100D0x       Rx   d 8 0C FF FF FF FF FF FF FF
 0.330194 1  18F157F3x       Rx   d 8 00 00 00 00 00 00 00 00
 0.330954 1  18F158F3x       Rx   d 8 00 00 00 00 00 00 00 00
 0.332035 1  18F159F3x       Rx   d 8 00 00 00 00 00 00 00 00
 0.333254 1  18F15AF3x       Rx   d 8 00 00 00 00 00 00 00 00
 0.333941 1  18F15BF3x       Rx   d 7 00 00 00 00 00 00 00
 0.334812 1  18F15CF3x       Rx   d 8 00 00 00 00 00 00 00 00
 0.335772 1  18F15DF3x       Rx   d 8 00 00 00 00 00 00 00 00
 0.336540 1  18F15EF3x       Rx   d 8 00 00 00 00 00 00 00 00
 0.340253 1  CFF21CAx        Rx   d 8 64 00 0A 13 3D 3B 00 14
 0.346018 1  18FF2112x       Rx   d 8 01 00 00 00 00 00 00 00
 0.353013 1  CFF21CAx        Rx   d 8 5F 00 13 13 3D 3B 00 14
 0.356364 1  18F100D0x       Rx   d 8 0C FF FF FF FF FF FF FF
 0.364621 1  CFF21CAx        Rx   d 8 5F 00 22 13 3D 3B 00 14
 0.376927 1  CFF21CAx        Rx   d 8 5F 00 22 13 3D 3B 00 14
 0.380332 1  18F100D0x       Rx   d 8 0C FF FF FF FF FF FF FF
 0.388790 1  CFF21CAx        Rx   d 8 5A 00 FD 12 3D 3B 00 14
 0.400926 1  CFF21CAx        Rx   d 8 5A 00 FD 12 3D 3B 00 14
 0.404403 1  18F100D0x       Rx   d 8 0C FF FF FF FF FF FF FF
 0.413001 1  CFF21CAx        Rx   d 8 5A 00 AD 12 3D 3B 00 14
 0.421271 1  18F100F3x       Rx   d 8 03 37 7F 98 F4 FA 14 00
 0.436656 1  18F102F3x       Rx   d 8 10 16 10 0E 10 0C 00 08
 0.436812 1  18F106F3x       Rx   d 8 45 E0 FC FF FF FF FF FF
 0.436920 1  18F107F3x       Rx   d 8 38 A4 27 10 01 72 00 00
 0.437021 1  CFF21CAx        Rx   d 8 5F 00 94 12 3D 3B 00 14
 0.437123 1  18F108F3x       Rx   d 8 00 00 00 00 00 00 00 00
 0.437224 1  18F155F3x       Rx   d 8 38 37 38 38 38 39 38 00
 0.437331 1  18F156F3x       Rx   d 8 00 00 00 00 00 00 00 00
 0.437431 1  18F157F3x       Rx   d 8 00 00 00 00 00 00 00 00
 0.437530 1  18F158F3x       Rx   d 8 00 00 00 00 00 00 00 00
 0.437629 1  18F159F3x       Rx   d 8 00 00 00 00 00 00 00 00
 0.437728 1  18F15AF3x       Rx   d 8 00 00 00 00 00 00 00 00
 0.437907 1  18F100D0x       Rx   d 8 0C FF FF FF FF FF FF FF
 0.438028 1  18F15BF3x       Rx   d 7 00 00 00 00 00 00 00
 0.438137 1  18F15CF3x       Rx   d 8 00 00 00 00 00 00 00 00
 0.438240 1  18F15DF3x       Rx   d 8 00 00 00 00 00 00 00 00
 0.438339 1  18F15EF3x       Rx   d 8 00 00 00 00 00 00 00 00
 0.438443 1  CFF21CAx        Rx   d 8 5F 00 9F 12 3D 3B 00 14
 0.443458 1  18FF2112x       Rx   d 8 01 00 00 00 00 00 00 00
 0.449012 1  CFF21CAx        Rx   d 8 64 00 D3 12 3D 3B 00 14
 0.457054 1  18F100D0x       Rx   d 8 0C FF FF FF FF FF FF FF
 0.461067 1  CFF21CAx        Rx   d 8 64 00 F5 12 3D 3B 00 14
 0.473184 1  CFF21CAx        Rx   d 8 64 00 34 13 3D 3B 00 14
 0.484912 1  CFF21CAx        Rx   d 8 61 00 5A 13 3D 3B 00 14
 0.485316 1  18F100D0x       Rx   d 8 0C FF FF FF FF FF FF FF
 0.497281 1  CFF21CAx        Rx   d 8 61 00 7A 13 3D 3B 00 14
 0.509348 1  CFF21CAx        Rx   d 8 5B 00 90 13 3D 3B 00 14
 0.509804 1  18F100D0x       Rx   d 8 0C FF FF FF FF FF FF FF
 0.521120 1  18F100F3x       Rx   d 8 03 37 7F BC F4 FA 14 00
 0.521608 1  CFF21CAx        Rx   d 8 5B 00 95 13 3D 3B 00 14
 0.522237 1  18F102F3x       Rx   d 8 10 16 10 0E 10 0C 00 08
 0.523585 1  18F106F3x       Rx   d 8 45 E0 FC FF FF FF FF FF
 0.524903 1  18F107F3x       Rx   d 8 38 A4 27 10 01 72 00 00
 0.526648 1  18F108F3x       Rx   d 8 00 00 00 00 00 00 00 00
 0.527523 1  18F155F3x       Rx   d 8 38 37 38 38 38 39 38 00
 0.528447 1  18F156F3x       Rx   d 8 00 00 00 00 00 00 00 00
 0.529311 1  18F157F3x       Rx   d 8 00 00 00 00 00 00 00 00
 0.530250 1  18F158F3x       Rx   d 8 00 00 00 00 00 00 00 00
 0.531057 1  18F159F3x       Rx   d 8 00 00 00 00 00 00 00 00
 0.531991 1  18F15AF3x       Rx   d 8 00 00 00 00 00 00 00 00
 0.532909 1  CFF21CAx        Rx   d 8 5B 00 97 13 3D 3B 00 14
 0.533500 1  18F100D0x       Rx   d 8 0C FF FF FF FF FF FF FF
 0.534048 1  18F15BF3x       Rx   d 7 00 00 00 00 00 00 00
 0.534983 1  18F15CF3x       Rx   d 8 00 00 00 00 00 00 00 00
 0.535890 1  18F15DF3x       Rx   d 8 00 00 00 00 00 00 00 00
 0.536720 1  18F15EF3x       Rx   d 8 00 00 00 00 00 00 00 00
 0.540699 1  18FF2112x       Rx   d 8 01 00 00 00 00 00 00 00
 0.545696 1  CFF21CAx        Rx   d 8 57 00 80 13 3D 3B 00 14
 0.557586 1  CFF21CAx        Rx   d 8 57 00 47 13 3D 3B 00 14
 0.561661 1  18F100D0x       Rx   d 8 0C FF FF FF FF FF FF FF
 0.569708 1  CFF21CAx        Rx   d 8 57 00 47 13 3D 3B 00 14
 0.581330 1  CFF21CAx        Rx   d 8 5C 00 09 13 3D 3B 00 14
 0.585681 1  18F100D0x       Rx   d 8 0C FF FF FF FF FF FF FF
 0.593761 1  CFF21CAx        Rx   d 8 5C 00 09 13 3D 3B 00 14
 0.605767 1  CFF21CAx        Rx   d 8 5C 00 26 13 3D 3B 00 14
 0.613562 1  18F100D0x       Rx   d 8 0C FF FF FF FF FF FF FF
 0.617806 1  CFF21CAx        Rx   d 8 63 00 56 13 3D 3B 00 14
 0.621056 1  18F100F3x       Rx   d 8 03 37 7F BC F4 FA 14 00
 0.621931 1  18F102F3x       Rx   d 8 10 16 10 0E 10 0C 00 08
 0.623567 1  18F106F3x       Rx   d 8 45 E0 FC FF FF FF FF FF
 0.624905 1  18F107F3x       Rx   d 8 38 A4 27 10 01 72 00 00
 0.626762 1  18F108F3x       Rx   d 8 00 00 00 00 00 00 00 00
 0.627507 1  18F155F3x       Rx   d 8 38 37 38 38 38 39 38 00
 0.628503 1  18F156F3x       Rx   d 8 00 00 00 00 00 00 00 00
 0.629383 1  18F157F3x       Rx   d 8 00 00 00 00 00 00 00 00
 0.630184 1  CFF21CAx        Rx   d 8 63 00 88 13 3D 3B 00 14
 0.630636 1  18F158F3x       Rx   d 8 00 00 00 00 00 00 00 00
 0.631421 1  18F159F3x       Rx   d 8 00 00 00 00 00 00 00 00
 0.632185 1  18F15AF3x       Rx   d 8 00 00 00 00 00 00 00 00
 0.633283 1  18F15BF3x       Rx   d 7 00 00 00 00 00 00 00
 0.633996 1  18F15CF3x       Rx   d 8 00 00 00 00 00 00 00 00
 0.635044 1  18F15DF3x       Rx   d 8 00 00 00 00 00 00 00 00
 0.635934 1  18F15EF3x       Rx   d 8 00 00 00 00 00 00 00 00
 0.637397 1  18F100D0x       Rx   d 8 0C FF FF FF FF FF FF FF
 0.637970 1  18FF2112x       Rx   d 8 01 00 00 00 00 00 00 00
 0.652207 1  CFF21CAx        Rx   d 8 60 00 B7 13 3D 3B 00 14
 0.653866 1  CFF21CAx        Rx   d 8 60 00 D8 13 3D 3B 00 14
 0.661459 1  18F100D0x       Rx   d 8 0C FF FF FF FF FF FF FF
 0.665916 1  CFF21CAx        Rx   d 8 60 00 EB 13 3D 3B 00 14
 0.677526 1  CFF21CAx        Rx   d 8 5B 00 F9 13 3D 3B 00 14
 0.690176 1  CFF21CAx        Rx   d 8 5B 00 03 14 3D 3B 00 14
 0.690588 1  18F100D0x       Rx   d 8 0C FF FF FF FF FF FF FF
 0.701731 1  CFF21CAx        Rx   d 8 56 00 08 14 3D 3B 00 14
 0.714286 1  CFF21CAx        Rx   d 8 56 00 05 14 3D 3B 00 14
 0.714696 1  18F100D0x       Rx   d 8 0C FF FF FF FF FF FF FF
 0.721341 1  18F100F3x       Rx   d 8 03 37 7F BC F4 FA 14 00
 0.722013 1  18F102F3x       Rx   d 8 10 15 10 0C 10 0C 00 09
 0.723538 1  18F106F3x       Rx   d 8 45 E0 FC FF FF FF FF FF
 0.724852 1  18F107F3x       Rx   d 8 38 A4 27 10 01 72 00 00
 0.726162 1  CFF21CAx        Rx   d 8 56 00 E3 13 3D 3B 00 14
 0.726805 1  18F108F3x       Rx   d 8 00 00 00 00 00 00 00 00
 0.727595 1  18F155F3x       Rx   d 8 38 37 38 38 38 39 38 00
 0.728489 1  18F156F3x       Rx   d 8 00 00 00 00 00 00 00 00
 0.729427 1  18F157F3x       Rx   d 8 00 00 00 00 00 00 00 00
 0.730289 1  18F158F3x       Rx   d 8 00 00 00 00 00 00 00 00
 0.731117 1  18F159F3x       Rx   d 8 00 00 00 00 00 00 00 00
 0.732023 1  18F15AF3x       Rx   d 8 00 00 00 00 00 00 00 00
 0.733161 1  18F15BF3x       Rx   d 7 00 00 00 00 00 00 00
 0.734028 1  18F15CF3x       Rx   d 8 00 00 00 00 00 00 00 00
 0.734964 1  18F15DF3x       Rx   d 8 00 00 00 00 00 00 00 00
 0.735466 1  18FF2112x       Rx   d 8 01 00 00 00 00 00 00 00
 0.736052 1  18F15EF3x       Rx   d 8 00 00 00 00 00 00 00 00
 0.738459 1  CFF21CAx        Rx   d 8 57 00 B2 13 3D 3B 00 14
 0.738982 1  18F100D0x       Rx   d 8 0C FF FF FF FF FF FF FF
 0.750208 1  CFF21CAx        Rx   d 8 57 00 B3 13 3D 3B 00 14
 0.762575 1  CFF21CAx        Rx   d 8 57 00 B3 13 3D 3B 00 14
 0.766094 1  18F100D0x       Rx   d 8 0C FF FF FF FF FF FF FF
 0.773997 1  CFF21CAx        Rx   d 8 5B 00 E2 13 3D 3B 00 14
 0.786561 1  CFF21CAx        Rx   d 8 5B 00 E2 13 3D 3B 00 14
 0.790054 1  18F100D0x       Rx   d 8 0C FF FF FF FF FF FF FF
 0.798519 1  CFF21CAx        Rx   d 8 5B 00 0A 14 3D 3B 00 14
 0.810739 1  CFF21CAx        Rx   d 8 5A 00 25 14 3D 3B 00 14
 0.818710 1  18F100D0x       Rx   d 8 0C FF FF FF FF FF FF FF
 0.821307 1  18F100F3x       Rx   d 8 03 37 7F B1 F4 FA 14 00
 0.822234 1  18F102F3x       Rx   d 8 10 15 10 0C 10 0C 00 09
 0.822708 1  CFF21CAx        Rx   d 8 5A 00 35 14 3D 3B 00 14
 0.823562 1  18F106F3x       Rx   d 8 45 E0 FC FF FF FF FF FF
 0.824888 1  18F107F3x       Rx   d 8 38 A4 27 10 01 72 00 00
 0.826792 1  18F108F3x       Rx   d 8 00 00 00 00 00 00 00 00
 0.827648 1  18F155F3x       Rx   d 8 38 37 38 38 38 39 38 00
 0.828525 1  18F156F3x       Rx   d 8 00 00 00 00 00 00 00 00
 0.829405 1  18F157F3x       Rx   d 8 00 00 00 00 00 00 00 00
 0.830385 1  18F158F3x       Rx   d 8 00 00 00 00 00 00 00 00
 0.831090 1  18F159F3x       Rx   d 8 00 00 00 00 00 00 00 00
 0.832008 1  18F15AF3x       Rx   d 8 00 00 00 00 00 00 00 00
 0.832605 1  18FF2112x       Rx   d 8 01 00 00 00 00 00 00 00
 0.833184 1  18F15BF3x       Rx   d 7 00 00 00 00 00 00 00
 0.834086 1  18F15CF3x       Rx   d 8 00 00 00 00 00 00 00 00
 0.834621 1  CFF21CAx        Rx   d 8 57 00 4A 14 3D 3B 00 14
 0.835285 1  18F15DF3x       Rx   d 8 00 00 00 00 00 00 00 00
 0.836054 1  18F15EF3x       Rx   d 8 00 00 00 00 00 00 00 00
 0.842694 1  18F100D0x       Rx   d 8 0C FF FF FF FF FF FF FF
 0.846832 1  CFF21CAx        Rx   d 8 57 00 55 14 3D 3B 00 14
 0.873267 1  CFF21CAx        Rx   d 8 57 00 28 14 3D 3B 00 14
 0.873412 1  CFF21CAx        Rx   d 8 59 00 E6 13 3D 3B 00 14
 0.873524 1  18F100D0x       Rx   d 8 0C FF FF FF FF FF FF FF
 0.882726 1  CFF21CAx        Rx   d 8 59 00 CA 13 3D 3B 00 14
 0.894875 1  CFF21CAx        Rx   d 8 62 00 D6 13 3D 3B 00 14
 0.895367 1  18F100D0x       Rx   d 8 0C FF FF FF FF FF FF FF
 0.906990 1  CFF21CAx        Rx   d 8 62 00 F7 13 3D 3B 00 14
 0.918557 1  CFF21CAx        Rx   d 8 62 00 26 14 3D 3B 00 14
 0.919039 1  18F100D0x       Rx   d 8 0C FF FF FF FF FF FF FF
 0.921111 1  18F100F3x       Rx   d 8 03 37 7F B1 F4 FA 14 00
 0.921990 1  18F102F3x       Rx   d 8 10 15 10 0C 10 0C 00 09
 0.923532 1  18F106F3x       Rx   d 8 45 E0 FC FF FF FF FF FF
 0.924850 1  18F107F3x       Rx   d 8 38 A4 27 10 01 72 00 00
 0.926620 1  18F108F3x       Rx   d 8 00 00 00 00 00 00 00 00
 0.927516 1  18F155F3x       Rx   d 8 38 37 38 38 38 39 38 00
 0.928390 1  18F156F3x       Rx   d 8 00 00 00 00 00 00 00 00
 0.929299 1  18F157F3x       Rx   d 8 00 00 00 00 00 00 00 00
 0.929870 1  18FF2112x       Rx   d 8 01 00 00 00 00 00 00 00
 0.930495 1  18F158F3x       Rx   d 8 00 00 00 00 00 00 00 00
 0.930973 1  CFF21CAx        Rx   d 8 61 00 51 14 3D 3B 00 14
 0.931567 1  18F159F3x       Rx   d 8 00 00 00 00 00 00 00 00
 0.932417 1  18F15AF3x       Rx   d 8 00 00 00 00 00 00 00 00
 0.933252 1  18F15BF3x       Rx   d 7 00 00 00 00 00 00 00
 0.934102 1  18F15CF3x       Rx   d 8 00 00 00 00 00 00 00 00
 0.935006 1  18F15DF3x       Rx   d 8 00 00 00 00 00 00 00 00
 0.935888 1  18F15EF3x       Rx   d 8 00 00 00 00 00 00 00 00
 0.942949 1  CFF21CAx        Rx   d 8 61 00 7E 14 3D 3B 00 14
 0.943537 1  18F100D0x       Rx   d 8 0C FF FF FF FF FF FF FF
 0.955237 1  CFF21CAx        Rx   d 8 5D 00 A3 14 3D 3B 00 14
 0.966768 1  CFF21CAx        Rx   d 8 5D 00 BB 14 3D 3B 00 14
 0.967303 1  18F100D0x       Rx   d 8 0C FF FF FF FF FF FF FF
 0.978843 1  CFF21CAx        Rx   d 8 5D 00 CC 14 3D 3B 00 14
 0.990920 1  CFF21CAx        Rx   d 8 56 00 CF 14 3D 3B 00 14
 0.994984 1  18F100D0x       Rx   d 8 0C FF FF FF FF FF FF FF
 1.003280 1  CFF21CAx        Rx   d 8 56 00 D1 14 3D 3B 00 14
 1.015000 1  CFF21CAx        Rx   d 8 56 00 D2 14 3D 3B 00 14
 1.018885 1  18F100D0x       Rx   d 8 0C FF FF FF FF FF FF FF
 1.021242 1  18F100F3x       Rx   d 8 03 37 7F FB F4 FA 14 00
 1.022116 1  18F102F3x       Rx   d 8 10 15 10 0C 10 0C 00 09
 1.023695 1  18F106F3x       Rx   d 8 45 E0 FC FF FF FF FF FF
 1.024987 1  18F107F3x       Rx   d 8 38 A4 27 10 01 72 00 00
 1.026657 1  18F108F3x       Rx   d 8 00 00 00 00 00 00 00 00
 1.027221 1  18FF2112x       Rx   d 8 01 00 00 00 00 00 00 00
 1.027925 1  CFF21CAx        Rx   d 8 56 00 D2 14 3D 3B 00 14
 1.028449 1  18F155F3x       Rx   d 8 38 37 38 38 38 39 38 00
 1.029343 1  18F156F3x       Rx   d 8 00 00 00 00 00 00 00 00
 1.030217 1  18F157F3x       Rx   d 8 00 00 00 00 00 00 00 00
 1.031025 1  18F158F3x       Rx   d 8 00 00 00 00 00 00 00 00
 1.032075 1  18F159F3x       Rx   d 8 00 00 00 00 00 00 00 00
 1.033318 1  18F15AF3x       Rx   d 8 00 00 00 00 00 00 00 00
 1.035124 1  18F15BF3x       Rx   d 7 00 00 00 00 00 00 00
 1.035305 1  18F15CF3x       Rx   d 8 00 00 00 00 00 00 00 00
 1.035819 1  18F15DF3x       Rx   d 8 00 00 00 00 00 00 00 00
 1.036620 1  18F15EF3x       Rx   d 8 00 00 00 00 00 00 00 00
 1.039061 1  CFF21CAx        Rx   d 8 52 00 D9 14 3D 3B 00 14
 1.043125 1  18F100D0x       Rx   d 8 0C FF FF FF FF FF FF FF
 1.051117 1  CFF21CAx        Rx   d 8 52 00 D9 14 3D 3B 00 14
 1.063169 1  CFF21CAx        Rx   d 8 52 00 BD 14 3D 3B 00 14
 1.071125 1  18F100D0x       Rx   d 8 0C FF FF FF FF FF FF FF
 1.075298 1  CFF21CAx        Rx   d 8 52 00 79 14 3D 3B 00 14
 1.092924 1  CFF21CAx        Rx   d 8 52 00 45 14 3D 3B 00 14
 1.095229 1  18F100D0x       Rx   d 8 0C FF FF FF FF FF FF FF
 1.099197 1  CFF21CAx        Rx   d 8 5B 00 40 14 3D 3B 00 14
 1.110602 1  18F104F3x       Rx   d 8 39 37 06 02 02 FF FF FF
 1.111253 1  CFF21CAx        Rx   d 8 5B 00 5D 14 3D 3B 00 14
 1.111831 1  18F113F3x       Rx   d 8 10 10 10 11 10 10 10 11
 1.113023 1  18F114F3x       Rx   d 8 10 0F 10 0F 10 12 10 11
 1.113976 1  18F115F3x       Rx   d 8 10 0F 10 0F 10 10 10 0C
 1.114963 1  18F116F3x       Rx   d 8 10 13 10 12 10 14 10 15
 1.115901 1  18F117F3x       Rx   d 8 10 10 10 11 10 14 10 14
 1.116879 1  18F118F3x       Rx   d 8 00 00 00 00 00 00 00 00
 1.117832 1  18F119F3x       Rx   d 8 00 00 00 00 00 00 00 00
 1.118812 1  18F11AF3x       Rx   d 8 00 00 00 00 00 00 00 00
 1.119398 1  18F100D0x       Rx   d 8 0C FF FF FF FF FF FF FF
 1.119975 1  18F11BF3x       Rx   d 8 00 00 00 00 00 00 00 00
 1.120929 1  18F11CF3x       Rx   d 8 00 00 00 00 00 00 00 00
 1.121894 1  18F100F3x       Rx   d 8 03 37 7F FB F4 FA 14 00
 1.123101 1  18F102F3x       Rx   d 8 10 15 10 0C 10 0C 00 09
 1.123838 1  CFF21CAx        Rx   d 8 61 00 85 14 3D 3B 00 14
 1.124345 1  18FF2112x       Rx   d 8 01 00 00 00 00 00 00 00
 1.124915 1  18F106F3x       Rx   d 8 45 E0 FC FF FF FF FF FF
 1.126312 1  18F107F3x       Rx   d 8 38 A4 27 10 01 72 00 00
 1.128192 1  18F108F3x       Rx   d 8 00 00 00 00 00 00 00 00
 1.129078 1  18F11DF3x       Rx   d 8 00 00 00 00 00 00 00 00
 1.130138 1  18F11EF3x       Rx   d 8 00 00 00 00 00 00 00 00
 1.131075 1  18F11FF3x       Rx   d 8 00 00 00 00 00 00 00 00
 1.132028 1  18F120F3x       Rx   d 8 00 00 00 00 00 00 00 00
 1.133287 1  18F121F3x       Rx   d 8 00 00 00 00 00 00 00 00
 1.134174 1  18F122F3x       Rx   d 8 00 00 00 00 00 00 00 00
 1.135076 1  18F123F3x       Rx   d 8 00 00 00 00 00 00 00 00
 1.135777 1  CFF21CAx        Rx   d 8 61 00 B5 14 3D 3B 00 14
 1.136280 1  18F124F3x       Rx   d 8 00 00 00 00 00 00 00 00
 1.137237 1  18F125F3x       Rx   d 8 00 00 00 00 00 00 00 00
 1.138114 1  18F126F3x       Rx   d 8 00 00 00 00 00 00 00 00
 1.139054 1  18F127F3x       Rx   d 8 00 00 00 00 00 00 00 00
 1.140041 1  18F128F3x       Rx   d 8 00 00 00 00 00 00 00 00
 1.140960 1  18F129F3x       Rx   d 8 00 00 00 00 00 00 00 00
 1.141903 1  18F12AF3x       Rx   d 8 00 00 00 00 00 00 00 00
 1.143125 1  18F12BF3x       Rx   d 8 00 00 00 00 00 00 00 00
 1.143664 1  18F100D0x       Rx   d 8 0C FF FF FF FF FF FF FF
 1.144242 1  18F12CF3x       Rx   d 8 00 00 00 00 00 00 00 00
 1.145171 1  18F12DF3x       Rx   d 8 00 00 00 00 00 00 00 00
 1.146054 1  18F12EF3x       Rx   d 8 00 00 00 00 00 00 00 00
 1.146998 1  18F12FF3x       Rx   d 8 00 00 00 00 00 00 00 00
 1.147527 1  CFF21CAx        Rx   d 8 61 00 E5 14 3D 3B 00 14
 1.148104 1  18F130F3x       Rx   d 8 00 00 00 00 00 00 00 00
 1.149026 1  18F131F3x       Rx   d 8 00 00 00 00 00 00 00 00
 1.149988 1  18F132F3x       Rx   d 8 00 00 00 00 00 00 00 00
 1.150898 1  18F133F3x       Rx   d 8 00 00 00 00 00 00 00 00
 1.151823 1  18F134F3x       Rx   d 8 00 00 00 00 00 00 00 00
 1.153043 1  18F135F3x       Rx   d 8 00 00 00 00 00 00 00 00
 1.153948 1  18F136F3x       Rx   d 8 00 00 00 00 00 00 00 00
 1.154902 1  18F137F3x       Rx   d 8 00 00 00 00 00 00 00 00
 1.155804 1  18F138F3x       Rx   d 8 00 00 00 00 00 00 00 00
 1.156688 1  18F139F3x       Rx   d 8 00 00 00 00 00 00 00 00
 1.157549 1  18F13AF3x       Rx   d 8 00 00 00 00 00 00 00 00
 1.158422 1  18F13BF3x       Rx   d 8 00 00 00 00 00 00 00 00
 1.159281 1  18F13CF3x       Rx   d 8 00 00 00 00 00 00 00 00
 1.159828 1  CFF21CAx        Rx   d 8 5D 00 0F 15 3D 3B 00 14
 1.160370 1  18F155F3x       Rx   d 8 38 37 38 38 38 39 38 00
 1.161297 1  18F156F3x       Rx   d 8 00 00 00 00 00 00 00 00
 1.162166 1  18F157F3x       Rx   d 8 00 00 00 00 00 00 00 00
 1.163262 1  18F158F3x       Rx   d 8 00 00 00 00 00 00 00 00
 1.164112 1  18F159F3x       Rx   d 8 00 00 00 00 00 00 00 00
 1.165053 1  18F15AF3x       Rx   d 8 00 00 00 00 00 00 00 00
 1.165915 1  18F15BF3x       Rx   d 7 00 00 00 00 00 00 00
 1.166838 1  18F15CF3x       Rx   d 8 00 00 00 00 00 00 00 00
 1.167513 1  18F100D0x       Rx   d 8 0C FF FF FF FF FF FF FF
 1.168097 1  18F15DF3x       Rx   d 8 00 00 00 00 00 00 00 00
 1.168961 1  18F15EF3x       Rx   d 8 00 00 00 00 00 00 00 00
 1.171482 1  CFF21CAx        Rx   d 8 5D 00 32 15 3D 3B 00 14
 1.183618 1  CFF21CAx        Rx   d 8 5D 00 4A 15 3D 3B 00 14
 1.191645 1  18F100D0x       Rx   d 8 0C FF FF FF FF FF FF FF
 1.195641 1  CFF21CAx        Rx   d 8 56 00 56 15 3D 3B 00 14
 1.207914 1  CFF21CAx        Rx   d 8 56 00 54 15 3D 3B 00 14
 1.215900 1  18F100D0x       Rx   d 8 0C FF FF FF FF FF FF FF
 1.219880 1  CFF21CAx        Rx   d 8 51 00 43 15 3D 3B 00 14
 1.221265 1  18F100F3x       Rx   d 8 03 37 7F FB F4 FA 14 00
 1.221838 1  18FF2112x       Rx   d 8 01 00 00 00 00 00 00 00
 1.222379 1  18F102F3x       Rx   d 8 10 15 10 0C 10 0C 00 09
 1.223745 1  18F106F3x       Rx   d 8 45 E0 FC FF FF FF FF FF
 1.225044 1  18F107F3x       Rx   d 8 38 A4 27 10 01 72 00 00
 1.226674 1  18F108F3x       Rx   d 8 00 00 00 00 00 00 00 00
 1.227637 1  18F155F3x       Rx   d 8 38 37 38 38 38 39 38 00
 1.228440 1  18F156F3x       Rx   d 8 00 00 00 00 00 00 00 00
 1.229465 1  18F157F3x       Rx   d 8 00 00 00 00 00 00 00 00
 1.230192 1  18F158F3x       Rx   d 8 00 00 00 00 00 00 00 00
 1.231070 1  18F159F3x       Rx   d 8 00 00 00 00 00 00 00 00
 1.232019 1  18F15AF3x       Rx   d 8 00 00 00 00 00 00 00 00
 1.232572 1  CFF21CAx        Rx   d 8 51 00 3C 15 3D 3B 00 14
 1.233135 1  18F15BF3x       Rx   d 7 00 00 00 00 00 00 00
 1.233986 1  18F15CF3x       Rx   d 8 00 00 00 00 00 00 00 00
 1.234928 1  18F15DF3x       Rx   d 8 00 00 00 00 00 00 00 00
 1.235788 1  18F15EF3x       Rx   d 8 00 00 00 00 00 00 00 00
 1.239802 1  18F100D0x       Rx   d 8 0C FF FF FF FF FF FF FF
 1.243840 1  CFF21CAx        Rx   d 8 51 00 3E 15 3D 3B 00 14
 1.255858 1  CFF21CAx        Rx   d 8 51 00 24 15 3D 3B 00 14
 1.256383 1  18FECACAx       Rx   d 8 00 00 00 00 00 00 FF FF
 1.264543 1  18F100D0x       Rx   d 8 0C FF FF FF FF FF FF FF
 1.267892 1  CFF21CAx        Rx   d 8 51 00 EF 14 3D 3B 00 14
 1.280541 1  CFF21CAx        Rx   d 8 59 00 D2 14 3D 3B 00 14
 1.292307 1  CFF21CAx        Rx   d 8 59 00 DB 14 3D 3B 00 14
 1.292642 1  18F100D0x       Rx   d 8 0C FF FF FF FF FF FF FF
 1.309864 1  CFF21CAx        Rx   d 8 59 00 09 15 3D 3B 00 14
 1.316117 1  CFF21CAx        Rx   d 8 5C 00 33 15 3D 3B 00 14
 1.318786 1  18FF2112x       Rx   d 8 01 00 00 00 00 00 00 00
 1.320152 1  18F100D0x       Rx   d 8 0C FF FF FF FF FF FF FF
 1.321328 1  18F100F3x       Rx   d 8 03 37 7F F4 F4 FA 14 00
 1.322198 1  18F102F3x       Rx   d 8 10 15 10 0C 10 0C 00 09
 1.323601 1  18F106F3x       Rx   d 8 45 E0 FC FF FF FF FF FF
 1.324922 1  18F107F3x       Rx   d 8 38 A4 27 10 01 72 00 00
 1.326718 1  18F108F3x       Rx   d 8 00 00 00 00 00 00 00 00
 1.327568 1  18F155F3x       Rx   d 8 38 37 38 38 38 39 38 00
 1.328464 1  18F156F3x       Rx   d 8 00 00 00 00 00 00 00 00
 1.329007 1  CFF21CAx        Rx   d 8 5C 00 5B 15 3D 3B 00 14
 1.329593 1  18F157F3x       Rx   d 8 00 00 00 00 00 00 00 00
 1.330507 1  18F158F3x       Rx   d 8 00 00 00 00 00 00 00 00
 1.331352 1  18F159F3x       Rx   d 8 00 00 00 00 00 00 00 00
 1.332207 1  18F15AF3x       Rx   d 8 00 00 00 00 00 00 00 00
 1.333195 1  18F15BF3x       Rx   d 7 00 00 00 00 00 00 00
 1.334051 1  18F15CF3x       Rx   d 8 00 00 00 00 00 00 00 00
 1.334993 1  18F15DF3x       Rx   d 8 00 00 00 00 00 00 00 00
 1.335881 1  18F15EF3x       Rx   d 8 00 00 00 00 00 00 00 00
 1.340243 1  CFF21CAx        Rx   d 8 58 00 88 15 3D 3B 00 14
 1.344627 1  18F100D0x       Rx   d 8 0C FF FF FF FF FF FF FF
 1.352685 1  CFF21CAx        Rx   d 8 58 00 A9 15 3D 3B 00 14
 1.364295 1  CFF21CAx        Rx   d 8 58 00 BF 15 3D 3B 00 14
 1.368420 1  18F100D0x       Rx   d 8 0C FF FF FF FF FF FF FF
 1.377053 1  CFF21CAx        Rx   d 8 50 00 C4 15 3D 3B 00 14
 1.388582 1  CFF21CAx        Rx   d 8 50 00 99 15 3D 3B 00 14
 1.392975 1  18F100D0x       Rx   d 8 0C FF FF FF FF FF FF FF
 1.401020 1  CFF21CAx        Rx   d 8 50 00 71 15 3D 3B 00 14
 1.412648 1  CFF21CAx        Rx   d 8 54 00 5D 15 3D 3B 00 14
 1.416193 1  18FF2112x       Rx   d 8 01 00 00 00 00 00 00 00
 1.417071 1  18F100D0x       Rx   d 8 0C FF FF FF FF FF FF FF
 1.421295 1  18F100F3x       Rx   d 8 03 37 7F F4 F4 FA 14 00
 1.422302 1  18F102F3x       Rx   d 8 10 15 10 0C 10 0C 00 09
 1.423616 1  18F106F3x       Rx   d 8 45 E0 FC FF FF FF FF FF
 1.425012 1  18F107F3x       Rx   d 8 38 A4 27 10 01 72 00 00
 1.425489 1  CFF21CAx        Rx   d 8 54 00 67 15 3D 3B 00 14
 1.426818 1  18F108F3x       Rx   d 8 00 00 00 00 00 00 00 00
 1.427604 1  18F155F3x       Rx   d 8 38 37 38 38 38 39 38 00
 1.428607 1  18F156F3x       Rx   d 8 00 00 00 00 00 00 00 00
 1.429507 1  18F157F3x       Rx   d 8 00 00 00 00 00 00 00 00
 1.430573 1  18F158F3x       Rx   d 8 00 00 00 00 00 00 00 00
 1.431221 1  18F159F3x       Rx   d 8 00 00 00 00 00 00 00 00
 1.432116 1  18F15AF3x       Rx   d 8 00 00 00 00 00 00 00 00
 1.433232 1  18F15BF3x       Rx   d 7 00 00 00 00 00 00 00
 1.434048 1  18F15CF3x       Rx   d 8 00 00 00 00 00 00 00 00
 1.434964 1  18F15DF3x       Rx   d 8 00 00 00 00 00 00 00 00
 1.435832 1  18F15EF3x       Rx   d 8 00 00 00 00 00 00 00 00
 1.436675 1  CFF21CAx        Rx   d 8 54 00 67 15 3D 3B 00 14
 1.441234 1  18F100D0x       Rx   d 8 0C FF FF FF FF FF FF FF
 1.449027 1  CFF21CAx        Rx   d 8 56 00 90 15 3D 3B 00 14
 1.460873 1  CFF21CAx        Rx   d 8 56 00 90 15 3D 3B 00 14
 1.465189 1  18F100D0x       Rx   d 8 0C FF FF FF FF FF FF FF
 1.473223 1  CFF21CAx        Rx   d 8 56 00 B6 15 3D 3B 00 14
 1.484889 1  CFF21CAx        Rx   d 8 56 00 D6 15 3D 3B 00 14
 1.489423 1  18F100D0x       Rx   d 8 0C FF FF FF FF FF FF FF
 1.497480 1  CFF21CAx        Rx   d 8 56 00 EB 15 3D 3B 00 14
 1.508899 1  CFF21CAx        Rx   d 8 56 00 EB 15 3D 3B 00 14
 1.513459 1  18FF2112x       Rx   d 8 01 00 00 00 00 00 00 00
 1.514073 1  18F100D0x       Rx   d 8 0C FF FF FF FF FF FF FF
 1.528829 1  18F100F3x       Rx   d 8 03 37 80 61 F4 FA 14 00
 1.528964 1  CFF21CAx        Rx   d 8 52 00 D6 15 3D 3B 00 14
 1.529069 1  18F102F3x       Rx   d 8 10 15 10 0C 10 0C 00 09
 1.529173 1  18F106F3x       Rx   d 8 45 E0 FC FF FF FF FF FF
 1.529282 1  18F107F3x       Rx   d 8 38 A4 27 10 01 72 00 00
 1.529381 1  18F108F3x       Rx   d 8 00 00 00 00 00 00 00 00
 1.529479 1  18F155F3x       Rx   d 8 38 37 38 38 38 39 38 00
 1.529622 1  18F156F3x       Rx   d 8 00 00 00 00 00 00 00 00
 1.529741 1  18F157F3x       Rx   d 8 00 00 00 00 00 00 00 00
 1.530199 1  18F158F3x       Rx   d 8 00 00 00 00 00 00 00 00
 1.531103 1  18F159F3x       Rx   d 8 00 00 00 00 00 00 00 00
 1.532002 1  18F15AF3x       Rx   d 8 00 00 00 00 00 00 00 00
 1.532962 1  CFF21CAx        Rx   d 8 52 00 CC 15 3D 3B 00 14
 1.533498 1  18F15BF3x       Rx   d 7 00 00 00 00 00 00 00
 1.534351 1  18F15CF3x       Rx   d 8 00 00 00 00 00 00 00 00
 1.535205 1  18F15DF3x       Rx   d 8 00 00 00 00 00 00 00 00
 1.536058 1  18F15EF3x       Rx   d 8 00 00 00 00 00 00 00 00
 1.541024 1  18F100D0x       Rx   d 8 0C FF FF FF FF FF FF FF
 1.545504 1  CFF21CAx        Rx   d 8 53 00 D3 15 3D 3B 00 14
 1.557101 1  CFF21CAx        Rx   d 8 53 00 E2 15 3D 3B 00 14
 1.565197 1  18F100D0x       Rx   d 8 0C FF FF FF FF FF FF FF
 1.569736 1  CFF21CAx        Rx   d 8 53 00 EC 15 3D 3B 00 14
 1.581192 1  CFF21CAx        Rx   d 8 54 00 E6 15 3D 3B 00 14
 1.589271 1  18F100D0x       Rx   d 8 0C FF FF FF FF FF FF FF
 1.593667 1  CFF21CAx        Rx   d 8 54 00 EB 15 3D 3B 00 14
 1.605434 1  CFF21CAx        Rx   d 8 54 00 FE 15 3D 3B 00 14
 1.610623 1  18FF2112x       Rx   d 8 01 00 00 00 00 00 00 00
 1.613352 1  18F100D0x       Rx   d 8 0C FF FF FF FF FF FF FF
 1.617833 1  CFF21CAx        Rx   d 8 54 00 10 16 3D 3B 00 14
 1.621239 1  18F100F3x       Rx   d 8 03 37 80 61 F4 FA 14 00
 1.622303 1  18F102F3x       Rx   d 8 10 15 10 0C 10 0C 00 09
 1.623587 1  18F106F3x       Rx   d 8 45 E0 FC FF FF FF FF FF
 1.624903 1  18F107F3x       Rx   d 8 38 A4 27 10 01 72 00 00
 1.626698 1  18F108F3x       Rx   d 8 00 00 00 00 00 00 00 00
 1.627683 1  18F155F3x       Rx   d 8 38 37 38 38 38 39 38 00
 1.628566 1  18F156F3x       Rx   d 8 00 00 00 00 00 00 00 00
 1.629430 1  18F157F3x       Rx   d 8 00 00 00 00 00 00 00 00
 1.630219 1  CFF21CAx        Rx   d 8 54 00 09 16 3D 3B 00 14
 1.630506 1  18F158F3x       Rx   d 8 00 00 00 00 00 00 00 00
 1.631383 1  18F159F3x       Rx   d 8 00 00 00 00 00 00 00 00
 1.632251 1  18F15AF3x       Rx   d 8 00 00 00 00 00 00 00 00
 1.633257 1  18F15BF3x       Rx   d 7 00 00 00 00 00 00 00
 1.634060 1  18F15CF3x       Rx   d 8 00 00 00 00 00 00 00 00
 1.634933 1  18F15DF3x       Rx   d 8 00 00 00 00 00 00 00 00
 1.635814 1  18F15EF3x       Rx   d 8 00 00 00 00 00 00 00 00
 1.637347 1  18F100D0x       Rx   d 8 0C FF FF FF FF FF FF FF
 1.642078 1  CFF21CAx        Rx   d 8 56 00 FE 15 3D 3B 00 14
 1.653449 1  CFF21CAx        Rx   d 8 56 00 0A 16 3D 3B 00 14
 1.661685 1  18F100D0x       Rx   d 8 0C FF FF FF FF FF FF FF
 1.665949 1  CFF21CAx        Rx   d 8 56 00 12 16 3D 3B 00 14
 1.677685 1  CFF21CAx        Rx   d 8 56 00 30 16 3D 3B 00 14
 1.685639 1  18F100D0x       Rx   d 8 0C FF FF FF FF FF FF FF
 1.690123 1  CFF21CAx        Rx   d 8 56 00 3B 16 3D 3B 00 14
 1.701728 1  CFF21CAx        Rx   d 8 51 00 51 16 3D 3B 00 14
 1.708392 1  18FF2112x       Rx   d 8 01 00 00 00 00 00 00 00
 1.709930 1  18F100D0x       Rx   d 8 0C FF FF FF FF FF FF FF
 1.714272 1  CFF21CAx        Rx   d 8 51 00 5B 16 3D 3B 00 14
 1.721193 1  18F100F3x       Rx   d 8 03 36 80 61 F4 FA 14 00
 1.722275 1  18F102F3x       Rx   d 8 10 12 10 0B 10 0C 00 07
 1.723626 1  18F106F3x       Rx   d 8 45 E0 FC FF FF FF FF FF
 1.724886 1  18F107F3x       Rx   d 8 38 A4 27 10 01 72 00 00
 1.726318 1  CFF21CAx        Rx   d 8 51 00 5B 16 3D 3B 00 14
 1.726782 1  18F108F3x       Rx   d 8 00 00 00 00 00 00 00 00
 1.727799 1  18F155F3x       Rx   d 8 38 37 38 38 38 39 38 00
 1.728687 1  18F156F3x       Rx   d 8 00 00 00 00 00 00 00 00
 1.729553 1  18F157F3x       Rx   d 8 00 00 00 00 00 00 00 00
 1.730483 1  18F158F3x       Rx   d 8 00 00 00 00 00 00 00 00
 1.731194 1  18F159F3x       Rx   d 8 00 00 00 00 00 00 00 00
 1.732073 1  18F15AF3x       Rx   d 8 00 00 00 00 00 00 00 00
 1.733216 1  18F15BF3x       Rx   d 7 00 00 00 00 00 00 00
 1.734076 1  18F15CF3x       Rx   d 8 00 00 00 00 00 00 00 00
 1.749237 1  18F15DF3x       Rx   d 8 00 00 00 00 00 00 00 00
 1.749367 1  18F15EF3x       Rx   d 8 00 00 00 00 00 00 00 00
 1.749473 1  CFF21CAx        Rx   d 8 4E 00 2F 16 3D 3B 00 14
 1.749577 1  18F100D0x       Rx   d 8 0C FF FF FF FF FF FF FF
 1.749861 1  CFF21CAx        Rx   d 8 4E 00 0A 16 3D 3B 00 14
 1.762532 1  CFF21CAx        Rx   d 8 51 00 FD 15 3D 3B 00 14
 1.763086 1  18F100D0x       Rx   d 8 0C FF FF FF FF FF FF FF
 1.773984 1  CFF21CAx        Rx   d 8 51 00 09 16 3D 3B 00 14
 1.786493 1  CFF21CAx        Rx   d 8 51 00 1D 16 3D 3B 00 14
 1.787008 1  18F100D0x       Rx   d 8 0C FF FF FF FF FF FF FF
 1.798225 1  CFF21CAx        Rx   d 8 50 00 33 16 3D 3B 00 14
 1.805231 1  18FF2112x       Rx   d 8 01 00 00 00 00 00 00 00
 1.810592 1  CFF21CAx        Rx   d 8 50 00 4C 16 3D 3B 00 14
 1.811144 1  18F100D0x       Rx   d 8 0C FF FF FF FF FF FF FF
 1.821199 1  18F100F3x       Rx   d 8 03 36 80 42 F4 FA 14 00
 1.822102 1  18F102F3x       Rx   d 8 10 12 10 0B 10 0C 00 07
 1.822606 1  CFF21CAx        Rx   d 8 50 00 6A 16 3D 3B 00 14
 1.823625 1  18F106F3x       Rx   d 8 45 E0 FC FF FF FF FF FF
 1.825102 1  18F107F3x       Rx   d 8 38 A4 27 10 01 72 00 00
 1.826730 1  18F108F3x       Rx   d 8 00 00 00 00 00 00 00 00
 1.827534 1  18F155F3x       Rx   d 8 38 37 38 38 38 39 38 00
 1.828484 1  18F156F3x       Rx   d 8 00 00 00 00 00 00 00 00
 1.829324 1  18F157F3x       Rx   d 8 00 00 00 00 00 00 00 00
 1.830297 1  18F158F3x       Rx   d 8 00 00 00 00 00 00 00 00
 1.831067 1  18F159F3x       Rx   d 8 00 00 00 00 00 00 00 00
 1.832027 1  18F15AF3x       Rx   d 8 00 00 00 00 00 00 00 00
 1.833177 1  18F15BF3x       Rx   d 7 00 00 00 00 00 00 00
 1.834026 1  18F15CF3x       Rx   d 8 00 00 00 00 00 00 00 00
 1.834627 1  CFF21CAx        Rx   d 8 4C 00 83 16 3D 3B 00 14
 1.835212 1  18F100D0x       Rx   d 8 0C FF FF FF FF FF FF FF
 1.835801 1  18F15DF3x       Rx   d 8 00 00 00 00 00 00 00 00
 1.836685 1  18F15EF3x       Rx   d 8 00 00 00 00 00 00 00 00
 1.846262 1  CFF21CAx        Rx   d 8 4C 00 89 16 3D 3B 00 14
 1.858869 1  CFF21CAx        Rx   d 8 45 00 8A 16 3D 3B 00 14
 1.859448 1  18F100D0x       Rx   d 8 0C FF FF FF FF FF FF FF
 1.870549 1  CFF21CAx        Rx   d 8 45 00 8B 16 3D 3B 00 14
 1.883040 1  CFF21CAx        Rx   d 8 45 00 8A 16 3D 3B 00 14
 1.883502 1  18F100D0x       Rx   d 8 0C FF FF FF FF FF FF FF
 1.894674 1  CFF21CAx        Rx   d 8 40 00 82 16 3D 3B 00 14
 1.902492 1  18FF2112x       Rx   d 8 01 00 00 00 00 00 00 00
 1.906985 1  CFF21CAx        Rx   d 8 40 00 7F 16 3D 3B 00 14
 1.907551 1  18F100D0x       Rx   d 8 0C FF FF FF FF FF FF FF
 1.918651 1  CFF21CAx        Rx   d 8 3E 00 7D 16 3D 3B 00 14
 1.921313 1  18F100F3x       Rx   d 8 03 36 80 42 F4 FA 14 00
 1.922305 1  18F102F3x       Rx   d 8 10 12 10 0B 10 0C 00 07
 1.923706 1  18F106F3x       Rx   d 8 45 E0 FC FF FF FF FF FF
 1.924997 1  18F107F3x       Rx   d 8 38 A4 27 10 01 72 00 00
 1.926886 1  18F108F3x       Rx   d 8 00 00 00 00 00 00 00 00
 1.927583 1  18F155F3x       Rx   d 8 38 37 38 38 38 39 38 00
 1.928601 1  18F156F3x       Rx   d 8 00 00 00 00 00 00 00 00
 1.929355 1  18F157F3x       Rx   d 8 00 00 00 00 00 00 00 00
 1.930426 1  18F158F3x       Rx   d 8 00 00 00 00 00 00 00 00
 1.931193 1  CFF21CAx        Rx   d 8 3E 00 81 16 3D 3B 00 14
 1.931742 1  18F159F3x       Rx   d 8 00 00 00 00 00 00 00 00
 1.932568 1  18F15AF3x       Rx   d 8 00 00 00 00 00 00 00 00
 1.933382 1  18F15BF3x       Rx   d 7 00 00 00 00 00 00 00
 1.934332 1  18F15CF3x       Rx   d 8 00 00 00 00 00 00 00 00
 1.934877 1  18F100D0x       Rx   d 8 0C FF FF FF FF FF FF FF
 1.935481 1  18F15DF3x       Rx   d 8 00 00 00 00 00 00 00 00
 1.936320 1  18F15EF3x       Rx   d 8 00 00 00 00 00 00 00 00
 1.942886 1  CFF21CAx        Rx   d 8 3E 00 81 16 3D 3B 00 14
 1.954796 1  CFF21CAx        Rx   d 8 3C 00 6C 16 3D 3B 00 14
 1.968319 1  18F100D0x       Rx   d 8 0C FF FF FF FF FF FF FF
 1.968446 1  CFF21CAx        Rx   d 8 3C 00 53 16 3D 3B 00 14
 1.978819 1  CFF21CAx        Rx   d 8 3C 00 51 16 3D 3B 00 14
 1.982850 1  18F100D0x       Rx   d 8 0C FF FF FF FF FF FF FF
 1.990906 1  CFF21CAx        Rx   d 8 3E 00 50 16 3D 3B 00 14
 1.999872 1  18FF2112x       Rx   d 8 01 00 00 00 00 00 00 00
 2.003251 1  CFF21CAx        Rx   d 8 3E 00 58 16 3D 3B 00 14
 2.006899 1  18F100D0x       Rx   d 8 0C FF FF FF FF FF FF FF
 2.014971 1  CFF21CAx        Rx   d 8 3E 00 58 16 3D 3B 00 14
 2.021176 1  18F100F3x       Rx   d 8 03 36 7F 7B F4 FA 14 00
 2.022056 1  18F102F3x       Rx   d 8 10 12 10 0B 10 0C 00 07
 2.023633 1  18F106F3x       Rx   d 8 45 E0 FC FF FF FF FF FF
 2.024925 1  18F107F3x       Rx   d 8 38 A4 27 10 01 72 00 00
 2.026696 1  18F108F3x       Rx   d 8 00 00 00 00 00 00 00 00
 2.027432 1  CFF21CAx        Rx   d 8 3F 00 63 16 3D 3B 00 14
 2.027997 1  18F155F3x       Rx   d 8 38 37 38 38 38 39 38 00
 2.028933 1  18F156F3x       Rx   d 8 00 00 00 00 00 00 00 00
 2.029870 1  18F157F3x       Rx   d 8 00 00 00 00 00 00 00 00
 2.030727 1  18F158F3x       Rx   d 8 00 00 00 00 00 00 00 00
 2.031612 1  18F159F3x       Rx   d 8 00 00 00 00 00 00 00 00
 2.032496 1  18F15AF3x       Rx   d 8 00 00 00 00 00 00 00 00
 2.033303 1  18F15BF3x       Rx   d 7 00 00 00 00 00 00 00
 2.034157 1  18F15CF3x       Rx   d 8 00 00 00 00 00 00 00 00
 2.035033 1  18F15DF3x       Rx   d 8 00 00 00 00 00 00 00 00
 2.035610 1  18F100D0x       Rx   d 8 0C FF FF FF FF FF FF FF
 2.036332 1  18F15EF3x       Rx   d 8 00 00 00 00 00 00 00 00
 2.039288 1  CFF21CAx        Rx   d 8 3F 00 68 16 3D 3B 00 14
 2.051122 1  CFF21CAx        Rx   d 8 3F 00 71 16 3D 3B 00 14
 2.059173 1  18F100D0x       Rx   d 8 0C FF FF FF FF FF FF FF
 2.063292 1  CFF21CAx        Rx   d 8 3D 00 7A 16 3D 3B 00 14
 2.075344 1  CFF21CAx        Rx   d 8 3D 00 74 16 3D 3B 00 14
 2.083352 1  18F100D0x       Rx   d 8 0C FF FF FF FF FF FF FF
 2.087396 1  CFF21CAx        Rx   d 8 3A 00 73 16 3D 3B 00 14
 2.097101 1  18FF2112x       Rx   d 8 01 00 00 00 00 00 00 00
 2.099773 1  CFF21CAx        Rx   d 8 3A 00 70 16 3D 3B 00 14
 2.107315 1  18F100D0x       Rx   d 8 0C FF FF FF FF FF FF FF
 2.110749 1  18F104F3x       Rx   d 8 39 37 06 02 02 FF FF FF
 2.111496 1  CFF21CAx        Rx   d 8 3A 00 71 16 3D 3B 00 14
 2.112023 1  18F113F3x       Rx   d 8 10 0E 10 0D 10 0D 10 0E
 2.113235 1  18F114F3x       Rx   d 8 10 0D 10 0D 10 10 10 0F
 2.114079 1  18F115F3x       Rx   d 8 10 0C 10 0D 10 0E 10 0B
 2.116554 1  18F116F3x       Rx   d 8 10 11 10 0E 10 11 10 12
 2.116845 1  18F117F3x       Rx   d 8 10 0E 10 0E 10 12 10 11
 2.117109 1  18F118F3x       Rx   d 8 00 00 00 00 00 00 00 00
 2.118048 1  18F119F3x       Rx   d 8 00 00 00 00 00 00 00 00
 2.118836 1  18F11AF3x       Rx   d 8 00 00 00 00 00 00 00 00
 2.119975 1  18F11BF3x       Rx   d 8 00 00 00 00 00 00 00 00
 2.120951 1  18F11CF3x       Rx   d 8 00 00 00 00 00 00 00 00
 2.121780 1  18F100F3x       Rx   d 8 03 36 7F 7B F4 FA 14 00
 2.122558 1  18F102F3x       Rx   d 8 10 12 10 0B 10 0C 00 07
 2.123940 1  CFF21CAx        Rx   d 8 3B 00 66 16 3D 3B 00 14
 2.124493 1  18F106F3x       Rx   d 8 45 E0 FC FF FF FF FF FF
 2.125797 1  18F107F3x       Rx   d 8 38 A4 27 10 01 72 00 00
 2.127643 1  18F108F3x       Rx   d 8 00 00 00 00 00 00 00 00
 2.128568 1  18F11DF3x       Rx   d 8 00 00 00 00 00 00 00 00
 2.129480 1  18F11EF3x       Rx   d 8 00 00 00 00 00 00 00 00
 2.130401 1  18F11FF3x       Rx   d 8 00 00 00 00 00 00 00 00
 2.131173 1  18F120F3x       Rx   d 8 00 00 00 00 00 00 00 00
 2.131933 1  18F100D0x       Rx   d 8 0C FF FF FF FF FF FF FF
 2.132497 1  18F121F3x       Rx   d 8 00 00 00 00 00 00 00 00
 2.133455 1  18F122F3x       Rx   d 8 00 00 00 00 00 00 00 00
 2.134366 1  18F123F3x       Rx   d 8 00 00 00 00 00 00 00 00
 2.135106 1  18F124F3x       Rx   d 8 00 00 00 00 00 00 00 00
 2.135663 1  CFF21CAx        Rx   d 8 3B 00 5A 16 3D 3B 00 14
 2.136246 1  18F125F3x       Rx   d 8 00 00 00 00 00 00 00 00
 2.137150 1  18F126F3x       Rx   d 8 00 00 00 00 00 00 00 00
 2.138073 1  18F127F3x       Rx   d 8 00 00 00 00 00 00 00 00
 2.139063 1  18F128F3x       Rx   d 8 00 00 00 00 00 00 00 00
 2.140041 1  18F129F3x       Rx   d 8 00 00 00 00 00 00 00 00
 2.141076 1  18F12AF3x       Rx   d 8 00 00 00 00 00 00 00 00
 2.142023 1  18F12BF3x       Rx   d 8 00 00 00 00 00 00 00 00
 2.143202 1  18F12CF3x       Rx   d 8 00 00 00 00 00 00 00 00
 2.144179 1  18F12DF3x       Rx   d 8 00 00 00 00 00 00 00 00
 2.145124 1  18F12EF3x       Rx   d 8 00 00 00 00 00 00 00 00
 2.146064 1  18F12FF3x       Rx   d 8 00 00 00 00 00 00 00 00
 2.146995 1  18F130F3x       Rx   d 8 00 00 00 00 00 00 00 00
 2.147464 1  CFF21CAx        Rx   d 8 3B 00 55 16 3D 3B 00 14
 2.148185 1  18F131F3x       Rx   d 8 00 00 00 00 00 00 00 00
 2.149120 1  18F132F3x       Rx   d 8 00 00 00 00 00 00 00 00
 2.150054 1  18F133F3x       Rx   d 8 00 00 00 00 00 00 00 00
 2.150976 1  18F134F3x       Rx   d 8 00 00 00 00 00 00 00 00
 2.151759 1  18F135F3x       Rx   d 8 00 00 00 00 00 00 00 00
 2.152727 1  18F136F3x       Rx   d 8 00 00 00 00 00 00 00 00
 2.153612 1  18F137F3x       Rx   d 8 00 00 00 00 00 00 00 00
 2.154484 1  18F138F3x       Rx   d 8 00 00 00 00 00 00 00 00
 2.155354 1  18F139F3x       Rx   d 8 00 00 00 00 00 00 00 00
 2.155808 1  18F100D0x       Rx   d 8 0C FF FF FF FF FF FF FF
 2.156487 1  18F13AF3x       Rx   d 8 00 00 00 00 00 00 00 00
 2.157382 1  18F13BF3x       Rx   d 8 00 00 00 00 00 00 00 00
 2.158228 1  18F13CF3x       Rx   d 8 00 00 00 00 00 00 00 00
 2.159156 1  18F155F3x       Rx   d 8 38 37 38 38 38 39 38 00
 2.159720 1  CFF21CAx        Rx   d 8 3C 00 55 16 3D 3B 00 14
 2.160136 1  18F156F3x       Rx   d 8 00 00 00 00 00 00 00 00
 2.161210 1  18F157F3x       Rx   d 8 00 00 00 00 00 00 00 00
 2.162144 1  18F158F3x       Rx   d 8 00 00 00 00 00 00 00 00
 2.163338 1  18F159F3x       Rx   d 8 00 00 00 00 00 00 00 00
 2.164094 1  18F15AF3x       Rx   d 8 00 00 00 00 00 00 00 00
 2.165068 1  18F15BF3x       Rx   d 7 00 00 00 00 00 00 00
 2.165983 1  18F15CF3x       Rx   d 8 00 00 00 00 00 00 00 00
 2.166829 1  18F15DF3x       Rx   d 8 00 00 00 00 00 00 00 00
 2.167668 1  18F15EF3x       Rx   d 8 00 00 00 00 00 00 00 00
 2.171636 1  CFF21CAx        Rx   d 8 3C 00 54 16 3D 3B 00 14
 2.186008 1  18F100D0x       Rx   d 8 0C FF FF FF FF FF FF FF
 2.186131 1  CFF21CAx        Rx   d 8 3D 00 54 16 3D 3B 00 14
 2.194359 1  18FF2112x       Rx   d 8 01 00 00 00 00 00 00 00
 2.196020 1  CFF21CAx        Rx   d 8 3D 00 57 16 3D 3B 00 14
 2.203689 1  18F100D0x       Rx   d 8 0C FF FF FF FF FF FF FF
 2.208127 1  CFF21CAx        Rx   d 8 3D 00 5C 16 3D 3B 00 14
 2.219829 1  CFF21CAx        Rx   d 8 3E 00 61 16 3D 3B 00 14
 2.221204 1  18F100F3x       Rx   d 8 03 36 7F 7B F4 FA 14 00
 2.222152 1  18F102F3x       Rx   d 8 10 12 10 0B 10 0C 00 07
 2.223646 1  18F106F3x       Rx   d 8 45 E0 FC FF FF FF FF FF
 2.224936 1  18F107F3x       Rx   d 8 38 A4 27 10 01 72 00 00
 2.226691 1  18F108F3x       Rx   d 8 00 00 00 00 00 00 00 00
 2.227564 1  18F155F3x       Rx   d 8 38 37 38 38 38 39 38 00
 2.228459 1  18F156F3x       Rx   d 8 00 00 00 00 00 00 00 00
 2.229396 1  18F157F3x       Rx   d 8 00 00 00 00 00 00 00 00
 2.230224 1  18F158F3x       Rx   d 8 00 00 00 00 00 00 00 00
 2.231096 1  18F159F3x       Rx   d 8 00 00 00 00 00 00 00 00
 2.232196 1  18F15AF3x       Rx   d 8 00 00 00 00 00 00 00 00
 2.232586 1  CFF21CAx        Rx   d 8 3E 00 61 16 3D 3B 00 14
 2.233421 1  18F100D0x       Rx   d 8 0C FF FF FF FF FF FF FF
 2.233711 1  18F15BF3x       Rx   d 7 00 00 00 00 00 00 00
 2.234542 1  18F15CF3x       Rx   d 8 00 00 00 00 00 00 00 00
 2.235374 1  18F15DF3x       Rx   d 8 00 00 00 00 00 00 00 00
 2.236202 1  18F15EF3x       Rx   d 8 00 00 00 00 00 00 00 00
 2.243850 1  CFF21CAx        Rx   d 8 3E 00 5E 16 3D 3B 00 14
 2.256332 1  CFF21CAx        Rx   d 8 3E 00 5E 16 3D 3B 00 14
 2.256839 1  18F100D0x       Rx   d 8 0C FF FF FF FF FF FF FF
 2.268115 1  CFF21CAx        Rx   d 8 3E 00 64 16 3D 3B 00 14
 2.268539 1  18FECACAx       Rx   d 8 00 00 00 00 00 00 FF FF
 2.280455 1  CFF21CAx        Rx   d 8 3D 00 63 16 3D 3B 00 14
 2.280985 1  18F100D0x       Rx   d 8 0C FF FF FF FF FF FF FF
 2.291741 1  18FF2112x       Rx   d 8 01 00 00 00 00 00 00 00
 2.292556 1  CFF21CAx        Rx   d 8 3D 00 4E 16 3D 3B 00 14
 2.304567 1  CFF21CAx        Rx   d 8 40 00 42 16 3D 3B 00 14
 2.308097 1  18F100D0x       Rx   d 8 0C FF FF FF FF FF FF FF
 2.316336 1  CFF21CAx        Rx   d 8 40 00 49 16 3D 3B 00 14
 2.321317 1  18F100F3x       Rx   d 8 03 35 7F 3D F4 FA 14 00
 2.323096 1  18F102F3x       Rx   d 8 10 0F 10 09 0F 02 00 06
 2.323762 1  18F106F3x       Rx   d 8 45 E0 FC FF FF FF FF FF
 2.325066 1  18F107F3x       Rx   d 8 38 A4 27 10 01 71 00 00
 2.326839 1  18F108F3x       Rx   d 8 00 00 00 00 00 00 00 00
 2.327698 1  18F155F3x       Rx   d 8 38 37 38 38 38 39 38 00
 2.328611 1  18F156F3x       Rx   d 8 00 00 00 00 00 00 00 00
 2.329144 1  CFF21CAx        Rx   d 8 40 00 49 16 3D 3B 00 14
 2.329754 1  18F157F3x       Rx   d 8 00 00 00 00 00 00 00 00
 2.330643 1  18F158F3x       Rx   d 8 00 00 00 00 00 00 00 00
 2.331480 1  18F159F3x       Rx   d 8 00 00 00 00 00 00 00 00
 2.332332 1  18F100D0x       Rx   d 8 0C FF FF FF FF FF FF FF
 2.332949 1  18F15AF3x       Rx   d 8 00 00 00 00 00 00 00 00
 2.333717 1  18F15BF3x       Rx   d 7 00 00 00 00 00 00 00
 2.334572 1  18F15CF3x       Rx   d 8 00 00 00 00 00 00 00 00
 2.335437 1  18F15DF3x       Rx   d 8 00 00 00 00 00 00 00 00
 2.336283 1  18F15EF3x       Rx   d 8 00 00 00 00 00 00 00 00
 2.340227 1  CFF21CAx        Rx   d 8 3F 00 51 16 3D 3B 00 14
 2.352864 1  CFF21CAx        Rx   d 8 3F 00 51 16 3D 3B 00 14
 2.356472 1  18F100D0x       Rx   d 8 0C FF FF FF FF FF FF FF
 2.364460 1  CFF21CAx        Rx   d 8 3F 00 61 16 3D 3B 00 14
 2.376856 1  CFF21CAx        Rx   d 8 3F 00 61 16 3D 3B 00 14
 2.380626 1  18F100D0x       Rx   d 8 0C FF FF FF FF FF FF FF
 2.389044 1  18FF2112x       Rx   d 8 01 00 00 00 00 00 00 00
 2.389348 1  CFF21CAx        Rx   d 8 3D 00 6A 16 3D 3B 00 14
 2.406022 1  CFF21CAx        Rx   d 8 3D 00 6A 16 3D 3B 00 14
 2.406188 1  18F100D0x       Rx   d 8 0C FF FF FF FF FF FF FF
 2.412574 1  CFF21CAx        Rx   d 8 3D 00 61 16 3D 3B 00 14
 2.421240 1  18F100F3x       Rx   d 8 03 35 7F 3D F4 FA 14 00
 2.422096 1  18F102F3x       Rx   d 8 10 0F 10 09 0F 02 00 06
 2.423645 1  18F106F3x       Rx   d 8 45 E0 FC FF FF FF FF FF
 2.424946 1  18F107F3x       Rx   d 8 38 A4 27 10 01 71 00 00
 2.425488 1  CFF21CAx        Rx   d 8 3D 00 60 16 3D 3B 00 14
 2.426763 1  18F108F3x       Rx   d 8 00 00 00 00 00 00 00 00
 2.427590 1  18F155F3x       Rx   d 8 38 37 38 38 38 39 38 00
 2.428499 1  18F156F3x       Rx   d 8 00 00 00 00 00 00 00 00
 2.429069 1  18F100D0x       Rx   d 8 0C FF FF FF FF FF FF FF
 2.429648 1  18F157F3x       Rx   d 8 00 00 00 00 00 00 00 00
 2.430541 1  18F158F3x       Rx   d 8 00 00 00 00 00 00 00 00
 2.431387 1  18F159F3x       Rx   d 8 00 00 00 00 00 00 00 00
 2.432281 1  18F15AF3x       Rx   d 8 00 00 00 00 00 00 00 00
 2.433246 1  18F15BF3x       Rx   d 7 00 00 00 00 00 00 00
 2.434103 1  18F15CF3x       Rx   d 8 00 00 00 00 00 00 00 00
 2.435020 1  18F15DF3x       Rx   d 8 00 00 00 00 00 00 00 00
 2.435906 1  18F15EF3x       Rx   d 8 00 00 00 00 00 00 00 00
 2.436694 1  CFF21CAx        Rx   d 8 3D 00 61 16 3D 3B 00 14
 2.449231 1  CFF21CAx        Rx   d 8 3C 00 60 16 3D 3B 00 14
 2.457174 1  18F100D0x       Rx   d 8 0C FF FF FF FF FF FF FF
 2.460776 1  CFF21CAx        Rx   d 8 3C 00 5A 16 3D 3B 00 14
 2.473195 1  CFF21CAx        Rx   d 8 3D 00 55 16 3D 3B 00 14
 2.481310 1  18F100D0x       Rx   d 8 0C FF FF FF FF FF FF FF
 2.485253 1  CFF21CAx        Rx   d 8 3D 00 56 16 3D 3B 00 14
 2.486062 1  18FF2112x       Rx   d 8 01 00 00 00 00 00 00 00
 2.497417 1  CFF21CAx        Rx   d 8 3D 00 59 16 3D 3B 00 14
 2.505558 1  18F100D0x       Rx   d 8 0C FF FF FF FF FF FF FF
 2.509033 1  CFF21CAx        Rx   d 8 3E 00 58 16 3D 3B 00 14
 2.521213 1  18F100F3x       Rx   d 8 03 35 7F 43 F4 FA 14 00
 2.521808 1  CFF21CAx        Rx   d 8 3E 00 53 16 3D 3B 00 14
 2.522473 1  18F102F3x       Rx   d 8 10 0F 10 09 0F 02 00 06
 2.523703 1  18F106F3x       Rx   d 8 45 E0 FC FF FF FF FF FF
 2.525040 1  18F107F3x       Rx   d 8 38 A4 27 10 01 71 00 00
 2.526832 1  18F108F3x       Rx   d 8 00 00 00 00 00 00 00 00
 2.529386 1  18F155F3x       Rx   d 8 38 37 38 38 38 39 38 00
 2.529606 1  18F156F3x       Rx   d 8 00 00 00 00 00 00 00 00
 2.529768 1  18F157F3x       Rx   d 8 00 00 00 00 00 00 00 00
 2.530098 1  18F100D0x       Rx   d 8 0C FF FF FF FF FF FF FF
 2.530597 1  18F158F3x       Rx   d 8 00 00 00 00 00 00 00 00
 2.531438 1  18F159F3x       Rx   d 8 00 00 00 00 00 00 00 00
 2.532305 1  18F15AF3x       Rx   d 8 00 00 00 00 00 00 00 00
 2.533045 1  CFF21CAx        Rx   d 8 3E 00 52 16 3D 3B 00 14
 2.533608 1  18F15BF3x       Rx   d 7 00 00 00 00 00 00 00
 2.534472 1  18F15CF3x       Rx   d 8 00 00 00 00 00 00 00 00
 2.535326 1  18F15DF3x       Rx   d 8 00 00 00 00 00 00 00 00
 2.536171 1  18F15EF3x       Rx   d 8 00 00 00 00 00 00 00 00
 2.545697 1  CFF21CAx        Rx   d 8 3F 00 54 16 3D 3B 00 14
 2.553765 1  18F100D0x       Rx   d 8 0C FF FF FF FF FF FF FF
 2.557279 1  CFF21CAx        Rx   d 8 3F 00 52 16 3D 3B 00 14
 2.569870 1  CFF21CAx        Rx   d 8 3E 00 53 16 3D 3B 00 14
 2.581684 1  CFF21CAx        Rx   d 8 3E 00 51 16 3D 3B 00 14
 2.582210 1  18F100D0x       Rx   d 8 0C FF FF FF FF FF FF FF
 2.583352 1  18FF2112x       Rx   d 8 01 00 00 00 00 00 00 00
 2.594074 1  CFF21CAx        Rx   d 8 3E 00 55 16 3D 3B 00 14
 2.605610 1  CFF21CAx        Rx   d 8 3F 00 58 16 3D 3B 00 14
 2.605874 1  18F100D0x       Rx   d 8 0C FF FF FF FF FF FF FF
 2.625487 1  CFF21CAx        Rx   d 8 3F 00 4E 16 3D 3B 00 14
 2.625612 1  18F100F3x       Rx   d 8 03 35 7F 43 F4 FA 14 00
 2.625720 1  18F102F3x       Rx   d 8 10 0F 10 09 0F 02 00 06
 2.625824 1  18F106F3x       Rx   d 8 45 E0 FC FF FF FF FF FF
 2.625922 1  18F107F3x       Rx   d 8 38 A4 27 10 01 71 00 00
 2.626775 1  18F108F3x       Rx   d 8 00 00 00 00 00 00 00 00
 2.627588 1  18F155F3x       Rx   d 8 38 37 38 38 38 39 38 00
 2.628508 1  18F156F3x       Rx   d 8 00 00 00 00 00 00 00 00
 2.629426 1  18F157F3x       Rx   d 8 00 00 00 00 00 00 00 00
 2.629998 1  CFF21CAx        Rx   d 8 3F 00 4A 16 3D 3B 00 14
 2.630532 1  18F100D0x       Rx   d 8 0C FF FF FF FF FF FF FF
 2.631075 1  18F158F3x       Rx   d 8 00 00 00 00 00 00 00 00
 2.632004 1  18F159F3x       Rx   d 8 00 00 00 00 00 00 00 00
 2.633235 1  18F15AF3x       Rx   d 8 00 00 00 00 00 00 00 00
 2.634062 1  18F15BF3x       Rx   d 7 00 00 00 00 00 00 00
 2.634970 1  18F15CF3x       Rx   d 8 00 00 00 00 00 00 00 00
 2.635893 1  18F15DF3x       Rx   d 8 00 00 00 00 00 00 00 00
 2.636698 1  18F15EF3x       Rx   d 8 00 00 00 00 00 00 00 00
 2.641885 1  CFF21CAx        Rx   d 8 3F 00 42 16 3D 3B 00 14
 2.653549 1  CFF21CAx        Rx   d 8 3F 00 49 16 3D 3B 00 14
 2.654100 1  18F100D0x       Rx   d 8 0C FF FF FF FF FF FF FF
 2.666041 1  CFF21CAx        Rx   d 8 40 00 46 16 3D 3B 00 14
 2.678079 1  CFF21CAx        Rx   d 8 40 00 4E 16 3D 3B 00 14
 2.678598 1  18F100D0x       Rx   d 8 0C FF FF FF FF FF FF FF
 2.680658 1  18FF2112x       Rx   d 8 01 00 00 00 00 00 00 00
 2.690277 1  CFF21CAx        Rx   d 8 40 00 51 16 3D 3B 00 14
 2.702046 1  CFF21CAx        Rx   d 8 3F 00 5B 16 3D 3B 00 14
 2.702348 1  18F100D0x       Rx   d 8 0C FF FF FF FF FF FF FF
 2.714376 1  CFF21CAx        Rx   d 8 3F 00 64 16 3D 3B 00 14
 2.721422 1  18F100F3x       Rx   d 8 03 35 7F 43 F4 FA 14 00
 2.722230 1  18F102F3x       Rx   d 8 10 0D 10 07 0F 0C 00 06
 2.723669 1  18F106F3x       Rx   d 8 45 E0 FC FF FF FF FF FF
 2.724996 1  18F107F3x       Rx   d 8 38 A4 27 10 01 71 00 00
 2.726291 1  CFF21CAx        Rx   d 8 3D 00 5A 16 3D 3B 00 14
 2.726993 1  18F100D0x       Rx   d 8 0C FF FF FF FF FF FF FF
 2.727561 1  18F108F3x       Rx   d 8 00 00 00 00 00 00 00 00
 2.728421 1  18F155F3x       Rx   d 8 38 37 38 38 38 39 38 00
 2.729182 1  18F156F3x       Rx   d 8 00 00 00 00 00 00 00 00
 2.730380 1  18F157F3x       Rx   d 8 00 00 00 00 00 00 00 00
 2.731163 1  18F158F3x       Rx   d 8 00 00 00 00 00 00 00 00
 2.732032 1  18F159F3x       Rx   d 8 00 00 00 00 00 00 00 00
 2.733205 1  18F15AF3x       Rx   d 8 00 00 00 00 00 00 00 00
 2.734926 1  18F15BF3x       Rx   d 7 00 00 00 00 00 00 00
 2.735210 1  18F15CF3x       Rx   d 8 00 00 00 00 00 00 00 00
 2.735970 1  18F15DF3x       Rx   d 8 00 00 00 00 00 00 00 00
 2.736751 1  18F15EF3x       Rx   d 8 00 00 00 00 00 00 00 00
 2.738441 1  CFF21CAx        Rx   d 8 3D 00 3D 16 3D 3B 00 14
 2.750031 1  CFF21CAx        Rx   d 8 3D 00 30 16 3D 3B 00 14
 2.750546 1  18F100D0x       Rx   d 8 0C FF FF FF FF FF FF FF
 2.762614 1  CFF21CAx        Rx   d 8 3F 00 32 16 3D 3B 00 14
 2.774262 1  CFF21CAx        Rx   d 8 3F 00 38 16 3D 3B 00 14
 2.774802 1  18F100D0x       Rx   d 8 0C FF FF FF FF FF FF FF
 2.778071 1  18FF2112x       Rx   d 8 01 00 00 00 00 00 00 00
 2.786814 1  CFF21CAx        Rx   d 8 41 00 40 16 3D 3B 00 14
 2.798265 1  CFF21CAx        Rx   d 8 41 00 52 16 3D 3B 00 14
 2.798803 1  18F100D0x       Rx   d 8 0C FF FF FF FF FF FF FF
 2.810808 1  CFF21CAx        Rx   d 8 41 00 5B 16 3D 3B 00 14
 2.821435 1  18F100F3x       Rx   d 8 03 35 7F 3F F4 FA 14 00
 2.822263 1  18F102F3x       Rx   d 8 10 0D 10 07 0F 0C 00 06
 2.822809 1  CFF21CAx        Rx   d 8 3F 00 67 16 3D 3B 00 14
 2.823802 1  18F106F3x       Rx   d 8 45 E0 FC FF FF FF FF FF
 2.825031 1  18F107F3x       Rx   d 8 38 A4 27 10 01 71 00 00
 2.826880 1  18F108F3x       Rx   d 8 00 00 00 00 00 00 00 00
 2.827471 1  18F100D0x       Rx   d 8 0C FF FF FF FF FF FF FF
 2.828007 1  18F155F3x       Rx   d 8 38 37 38 38 38 39 38 00
 2.828952 1  18F156F3x       Rx   d 8 00 00 00 00 00 00 00 00
 2.829760 1  18F157F3x       Rx   d 8 00 00 00 00 00 00 00 00
 2.842898 1  18F158F3x       Rx   d 8 00 00 00 00 00 00 00 00
 2.843033 1  18F159F3x       Rx   d 8 00 00 00 00 00 00 00 00
 2.843139 1  18F15AF3x       Rx   d 8 00 00 00 00 00 00 00 00
 2.843235 1  18F15BF3x       Rx   d 7 00 00 00 00 00 00 00
 2.843348 1  18F15CF3x       Rx   d 8 00 00 00 00 00 00 00 00
 2.843449 1  CFF21CAx        Rx   d 8 3F 00 67 16 3D 3B 00 14
 2.843551 1  18F15DF3x       Rx   d 8 00 00 00 00 00 00 00 00
 2.843650 1  18F15EF3x       Rx   d 8 00 00 00 00 00 00 00 00
 2.846329 1  CFF21CAx        Rx   d 8 3F 00 73 16 3D 3B 00 14
 2.850355 1  18F100D0x       Rx   d 8 0C FF FF FF FF FF FF FF
 2.858834 1  CFF21CAx        Rx   d 8 3F 00 73 16 3D 3B 00 14
 2.870842 1  CFF21CAx        Rx   d 8 3D 00 70 16 3D 3B 00 14
 2.874922 1  18F100D0x       Rx   d 8 0C FF FF FF FF FF FF FF
 2.875475 1  18FF2112x       Rx   d 8 01 00 00 00 00 00 00 00
 2.882916 1  CFF21CAx        Rx   d 8 3D 00 71 16 3D 3B 00 14
 2.894567 1  CFF21CAx        Rx   d 8 3B 00 6B 16 3D 3B 00 14
 2.902607 1  18F100D0x       Rx   d 8 0C FF FF FF FF FF FF FF
 2.907017 1  CFF21CAx        Rx   d 8 3B 00 5D 16 3D 3B 00 14
 2.918752 1  CFF21CAx        Rx   d 8 3B 00 57 16 3D 3B 00 14
 2.921262 1  18F100F3x       Rx   d 8 03 35 7F 3F F4 FA 14 00
 2.922162 1  18F102F3x       Rx   d 8 10 0D 10 07 0F 0C 00 06
 2.923666 1  18F106F3x       Rx   d 8 45 E0 FC FF FF FF FF FF
 2.924978 1  18F107F3x       Rx   d 8 38 A4 27 10 01 71 00 00
 2.926784 1  18F108F3x       Rx   d 8 00 00 00 00 00 00 00 00
 2.927338 1  18F100D0x       Rx   d 8 0C FF FF FF FF FF FF FF
 2.927893 1  18F155F3x       Rx   d 8 38 37 38 38 38 39 38 00
 2.928859 1  18F156F3x       Rx   d 8 00 00 00 00 00 00 00 00
 2.929669 1  18F157F3x       Rx   d 8 00 00 00 00 00 00 00 00
 2.930582 1  18F158F3x       Rx   d 8 00 00 00 00 00 00 00 00
 2.931109 1  CFF21CAx        Rx   d 8 3A 00 50 16 3D 3B 00 14
 2.931685 1  18F159F3x       Rx   d 8 00 00 00 00 00 00 00 00
 2.932559 1  18F15AF3x       Rx   d 8 00 00 00 00 00 00 00 00
 2.933389 1  18F15BF3x       Rx   d 7 00 00 00 00 00 00 00
 2.934245 1  18F15CF3x       Rx   d 8 00 00 00 00 00 00 00 00
 2.935246 1  18F15DF3x       Rx   d 8 00 00 00 00 00 00 00 00
 2.936502 1  18F15EF3x       Rx   d 8 00 00 00 00 00 00 00 00
 2.942712 1  CFF21CAx        Rx   d 8 3A 00 51 16 3D 3B 00 14
 2.950748 1  18F100D0x       Rx   d 8 0C FF FF FF FF FF FF FF
 2.955328 1  CFF21CAx        Rx   d 8 3B 00 48 16 3D 3B 00 14
 2.967180 1  CFF21CAx        Rx   d 8 3B 00 44 16 3D 3B 00 14
 2.972616 1  18FF2112x       Rx   d 8 01 00 00 00 00 00 00 00
 2.974856 1  18F100D0x       Rx   d 8 0C FF FF FF FF FF FF FF
 2.978838 1  CFF21CAx        Rx   d 8 3B 00 3F 16 3D 3B 00 14
 2.991054 1  CFF21CAx        Rx   d 8 3D 00 47 16 3D 3B 00 14
 2.999075 1  18F100D0x       Rx   d 8 0C FF FF FF FF FF FF FF
 3.002944 1  CFF21CAx        Rx   d 8 3D 00 45 16 3D 3B 00 14
 3.015165 1  CFF21CAx        Rx   d 8 3D 00 4B 16 3D 3B 00 14
 3.021368 1  18F100F3x       Rx   d 8 03 35 7F 32 F4 FA 14 00
 3.022232 1  18F102F3x       Rx   d 8 10 0D 10 07 0F 0C 00 06
 3.023574 1  18F100D0x       Rx   d 8 0C FF FF FF FF FF FF FF
 3.024129 1  18F106F3x       Rx   d 8 45 E0 FC FF FF FF FF FF
 3.025421 1  18F107F3x       Rx   d 8 38 A4 27 10 01 71 00 00
 3.027078 1  18F108F3x       Rx   d 8 00 00 00 00 00 00 00 00
 3.027755 1  CFF21CAx        Rx   d 8 3C 00 4A 16 3D 3B 00 14
 3.028321 1  18F155F3x       Rx   d 8 38 37 38 38 38 39 38 00
 3.029264 1  18F156F3x       Rx   d 8 00 00 00 00 00 00 00 00
 3.030189 1  18F157F3x       Rx   d 8 00 00 00 00 00 00 00 00
 3.030992 1  18F158F3x       Rx   d 8 00 00 00 00 00 00 00 00
 3.032049 1  18F159F3x       Rx   d 8 00 00 00 00 00 00 00 00
 3.033251 1  18F15AF3x       Rx   d 8 00 00 00 00 00 00 00 00
 3.034077 1  18F15BF3x       Rx   d 7 00 00 00 00 00 00 00
 3.034964 1  18F15CF3x       Rx   d 8 00 00 00 00 00 00 00 00
 3.035731 1  18F15DF3x       Rx   d 8 00 00 00 00 00 00 00 00
 3.036568 1  18F15EF3x       Rx   d 8 00 00 00 00 00 00 00 00
 3.039116 1  CFF21CAx        Rx   d 8 3C 00 51 16 3D 3B 00 14
 3.047256 1  18F100D0x       Rx   d 8 0C FF FF FF FF FF FF FF
 3.063538 1  CFF21CAx        Rx   d 8 3E 00 58 16 3D 3B 00 14
 3.063677 1  CFF21CAx        Rx   d 8 3E 00 55 16 3D 3B 00 14
 3.069732 1  18FF2112x       Rx   d 8 01 00 00 00 00 00 00 00
 3.071187 1  18F100D0x       Rx   d 8 0C FF FF FF FF FF FF FF
 3.075274 1  CFF21CAx        Rx   d 8 3E 00 49 16 3D 3B 00 14
 3.087298 1  CFF21CAx        Rx   d 8 3D 00 44 16 3D 3B 00 14
 3.099327 1  CFF21CAx        Rx   d 8 3D 00 44 16 3D 3B 00 14
 3.099872 1  18F100D0x       Rx   d 8 0C FF FF FF FF FF FF FF
 3.110786 1  18F104F3x       Rx   d 8 39 37 06 02 02 FF FF FF
 3.111377 1  CFF21CAx        Rx   d 8 3E 00 43 16 3D 3B 00 14
 3.111885 1  18F113F3x       Rx   d 8 10 0A 10 09 10 09 10 09
 3.113123 1  18F114F3x       Rx   d 8 10 08 10 08 10 0A 10 0A
 3.114072 1  18F115F3x       Rx   d 8 10 08 10 09 10 09 10 07
 3.115040 1  18F116F3x       Rx   d 8 10 0C 10 09 10 0D 10 0D
 3.115956 1  18F117F3x       Rx   d 8 10 09 10 0A 10 0D 10 0D
 3.116972 1  18F118F3x       Rx   d 8 00 00 00 00 00 00 00 00
 3.117926 1  18F119F3x       Rx   d 8 00 00 00 00 00 00 00 00
 3.118895 1  18F11AF3x       Rx   d 8 00 00 00 00 00 00 00 00
 3.119889 1  18F11BF3x       Rx   d 8 00 00 00 00 00 00 00 00
 3.120840 1  18F11CF3x       Rx   d 8 00 00 00 00 00 00 00 00
 3.121695 1  18F100F3x       Rx   d 8 03 35 7F 32 F4 FA 14 00
 3.122616 1  18F102F3x       Rx   d 8 10 0D 10 07 0F 0C 00 06
 3.123870 1  CFF21CAx        Rx   d 8 3E 00 41 16 3D 3B 00 14
 3.124473 1  18F100D0x       Rx   d 8 0C FF FF FF FF FF FF FF
 3.125038 1  18F106F3x       Rx   d 8 45 E0 FC FF FF FF FF FF
 3.126389 1  18F107F3x       Rx   d 8 38 A4 27 10 01 71 00 00
 3.128233 1  18F108F3x       Rx   d 8 00 00 00 00 00 00 00 00
 3.129217 1  18F11DF3x       Rx   d 8 00 00 00 00 00 00 00 00
 3.130210 1  18F11EF3x       Rx   d 8 00 00 00 00 00 00 00 00
 3.131163 1  18F11FF3x       Rx   d 8 00 00 00 00 00 00 00 00
 3.132163 1  18F120F3x       Rx   d 8 00 00 00 00 00 00 00 00
 3.133394 1  18F121F3x       Rx   d 8 00 00 00 00 00 00 00 00
 3.134297 1  18F122F3x       Rx   d 8 00 00 00 00 00 00 00 00
 3.135194 1  18F123F3x       Rx   d 8 00 00 00 00 00 00 00 00
 3.135807 1  CFF21CAx        Rx   d 8 3E 00 41 16 3D 3B 00 14
 3.136316 1  18F124F3x       Rx   d 8 00 00 00 00 00 00 00 00
 3.137412 1  18F125F3x       Rx   d 8 00 00 00 00 00 00 00 00
 3.138166 1  18F126F3x       Rx   d 8 00 00 00 00 00 00 00 00
 3.139251 1  18F127F3x       Rx   d 8 00 00 00 00 00 00 00 00
 3.140058 1  18F128F3x       Rx   d 8 00 00 00 00 00 00 00 00
 3.141493 1  18F129F3x       Rx   d 8 00 00 00 00 00 00 00 00
 3.141934 1  18F12AF3x       Rx   d 8 00 00 00 00 00 00 00 00
 3.143242 1  18F12BF3x       Rx   d 8 00 00 00 00 00 00 00 00
 3.144837 1  18F12CF3x       Rx   d 8 00 00 00 00 00 00 00 00
 3.145649 1  18F12DF3x       Rx   d 8 00 00 00 00 00 00 00 00
 3.146517 1  18F12EF3x       Rx   d 8 00 00 00 00 00 00 00 00
 3.147481 1  18F12FF3x       Rx   d 8 00 00 00 00 00 00 00 00
 3.147977 1  CFF21CAx        Rx   d 8 3F 00 43 16 3D 3B 00 14
 3.148555 1  18F100D0x       Rx   d 8 0C FF FF FF FF FF FF FF
 3.149126 1  18F130F3x       Rx   d 8 00 00 00 00 00 00 00 00
 3.150113 1  18F131F3x       Rx   d 8 00 00 00 00 00 00 00 00
 3.151043 1  18F132F3x       Rx   d 8 00 00 00 00 00 00 00 00
 3.151914 1  18F133F3x       Rx   d 8 00 00 00 00 00 00 00 00
 3.153129 1  18F134F3x       Rx   d 8 00 00 00 00 00 00 00 00
 3.154092 1  18F135F3x       Rx   d 8 00 00 00 00 00 00 00 00
 3.155034 1  18F136F3x       Rx   d 8 00 00 00 00 00 00 00 00
 3.155900 1  18F137F3x       Rx   d 8 00 00 00 00 00 00 00 00
 3.156839 1  18F138F3x       Rx   d 8 00 00 00 00 00 00 00 00
 3.157705 1  18F139F3x       Rx   d 8 00 00 00 00 00 00 00 00
 3.158627 1  18F13AF3x       Rx   d 8 00 00 00 00 00 00 00 00
 3.159445 1  18F13BF3x       Rx   d 8 00 00 00 00 00 00 00 00
 3.159972 1  CFF21CAx        Rx   d 8 3F 00 47 16 3D 3B 00 14
 3.160543 1  18F13CF3x       Rx   d 8 00 00 00 00 00 00 00 00
 3.161459 1  18F155F3x       Rx   d 8 38 37 38 38 38 39 38 00
 3.162354 1  18F156F3x       Rx   d 8 00 00 00 00 00 00 00 00
 3.163382 1  18F157F3x       Rx   d 8 00 00 00 00 00 00 00 00
 3.164188 1  18F158F3x       Rx   d 8 00 00 00 00 00 00 00 00
 3.165209 1  18F159F3x       Rx   d 8 00 00 00 00 00 00 00 00
 3.166104 1  18F15AF3x       Rx   d 8 00 00 00 00 00 00 00 00
 3.166969 1  18F15BF3x       Rx   d 7 00 00 00 00 00 00 00
 3.167568 1  18FF2112x       Rx   d 8 01 00 00 00 00 00 00 00
 3.168142 1  18F15CF3x       Rx   d 8 00 00 00 00 00 00 00 00
 3.168952 1  18F15DF3x       Rx   d 8 00 00 00 00 00 00 00 00
 3.169841 1  18F15EF3x       Rx   d 8 00 00 00 00 00 00 00 00
 3.171627 1  CFF21CAx        Rx   d 8 3F 00 48 16 3D 3B 00 14
 3.172246 1  18F100D0x       Rx   d 8 0C FF FF FF FF FF FF FF
 3.183800 1  CFF21CAx        Rx   d 8 3E 00 44 16 3D 3B 00 14
 3.195967 1  CFF21CAx        Rx   d 8 3E 00 44 16 3D 3B 00 14
 3.196457 1  18F100D0x       Rx   d 8 0C FF FF FF FF FF FF FF
 3.208322 1  CFF21CAx        Rx   d 8 3F 00 4D 16 3D 3B 00 14
 3.220013 1  CFF21CAx        Rx   d 8 3F 00 4C 16 3D 3B 00 14
 3.220557 1  18F100D0x       Rx   d 8 0C FF FF FF FF FF FF FF
 3.221505 1  18F100F3x       Rx   d 8 03 35 7F 32 F4 FA 14 00
 3.222349 1  18F102F3x       Rx   d 8 10 0D 10 07 0F 0C 00 06
 3.223846 1  18F106F3x       Rx   d 8 45 E0 FC FF FF FF FF FF
 3.225149 1  18F107F3x       Rx   d 8 38 A4 27 10 01 71 00 00
 3.226787 1  18F108F3x       Rx   d 8 00 00 00 00 00 00 00 00
 3.227673 1  18F155F3x       Rx   d 8 38 37 38 38 38 39 38 00
 3.228528 1  18F156F3x       Rx   d 8 00 00 00 00 00 00 00 00
 3.229507 1  18F157F3x       Rx   d 8 00 00 00 00 00 00 00 00
 3.230420 1  18F158F3x       Rx   d 8 00 00 00 00 00 00 00 00
 3.231156 1  18F159F3x       Rx   d 8 00 00 00 00 00 00 00 00
 3.231905 1  CFF21CAx        Rx   d 8 3F 00 4D 16 3D 3B 00 14
 3.232473 1  18F15AF3x       Rx   d 8 00 00 00 00 00 00 00 00
 3.233268 1  18F15BF3x       Rx   d 7 00 00 00 00 00 00 00
 3.234179 1  18F15CF3x       Rx   d 8 00 00 00 00 00 00 00 00
 3.235027 1  18F15DF3x       Rx   d 8 00 00 00 00 00 00 00 00
 3.235902 1  18F15EF3x       Rx   d 8 00 00 00 00 00 00 00 00
 3.243953 1  CFF21CAx        Rx   d 8 3E 00 45 16 3D 3B 00 14
 3.244539 1  18F100D0x       Rx   d 8 0C FF FF FF FF FF FF FF
 3.256517 1  CFF21CAx        Rx   d 8 3E 00 48 16 3D 3B 00 14
 3.264352 1  18FF2112x       Rx   d 8 01 00 00 00 00 00 00 00
 3.277264 1  CFF21CAx        Rx   d 8 3E 00 47 16 3D 3B 00 14
 3.277352 1  18F100D0x       Rx   d 8 0C FF FF FF FF FF FF FF
 3.280514 1  CFF21CAx        Rx   d 8 3E 00 48 16 3D 3B 00 14
 3.284096 1  18FECACAx       Rx   d 8 00 00 00 00 00 00 FF FF
 3.292047 1  CFF21CAx        Rx   d 8 3E 00 3F 16 3D 3B 00 14
 3.292634 1  18F100D0x       Rx   d 8 0C FF FF FF FF FF FF FF
 3.304613 1  CFF21CAx        Rx   d 8 3F 00 40 16 3D 3B 00 14
 3.316269 1  CFF21CAx        Rx   d 8 3F 00 41 16 3D 3B 00 14
 3.320666 1  18F100D0x       Rx   d 8 0C FF FF FF FF FF FF FF
 3.321432 1  18F100F3x       Rx   d 8 03 35 7F 4B F4 FA 14 00
 3.322242 1  18F102F3x       Rx   d 8 10 0C 10 05 0F 0C 00 07
 3.323713 1  18F106F3x       Rx   d 8 45 E0 FC FF FF FF FF FF
 3.325042 1  18F107F3x       Rx   d 8 38 A4 27 10 01 71 00 00
 3.326800 1  18F108F3x       Rx   d 8 00 00 00 00 00 00 00 00
 3.327656 1  18F155F3x       Rx   d 8 38 37 38 38 38 39 38 00
 3.328578 1  18F156F3x       Rx   d 8 00 00 00 00 00 00 00 00
 3.329119 1  CFF21CAx        Rx   d 8 3F 00 44 16 3D 3B 00 14
 3.329684 1  18F157F3x       Rx   d 8 00 00 00 00 00 00 00 00
 3.330563 1  18F158F3x       Rx   d 8 00 00 00 00 00 00 00 00
 3.331442 1  18F159F3x       Rx   d 8 00 00 00 00 00 00 00 00
 3.332319 1  18F15AF3x       Rx   d 8 00 00 00 00 00 00 00 00
 3.333300 1  18F15BF3x       Rx   d 7 00 00 00 00 00 00 00
 3.334149 1  18F15CF3x       Rx   d 8 00 00 00 00 00 00 00 00
 3.335057 1  18F15DF3x       Rx   d 8 00 00 00 00 00 00 00 00
 3.335943 1  18F15EF3x       Rx   d 8 00 00 00 00 00 00 00 00
 3.340368 1  CFF21CAx        Rx   d 8 3F 00 44 16 3D 3B 00 14
 3.344569 1  18F100D0x       Rx   d 8 0C FF FF FF FF FF FF FF
 3.352893 1  CFF21CAx        Rx   d 8 40 00 41 16 3D 3B 00 14
 3.361624 1  18FF2112x       Rx   d 8 01 00 00 00 00 00 00 00
 3.364480 1  CFF21CAx        Rx   d 8 40 00 45 16 3D 3B 00 14
 3.372666 1  18F100D0x       Rx   d 8 0C FF FF FF FF FF FF FF
 3.377078 1  CFF21CAx        Rx   d 8 3F 00 49 16 3D 3B 00 14
 3.388540 1  CFF21CAx        Rx   d 8 3F 00 49 16 3D 3B 00 14
 3.392771 1  18F100D0x       Rx   d 8 0C FF FF FF FF FF FF FF
 3.401051 1  CFF21CAx        Rx   d 8 3F 00 4A 16 3D 3B 00 14
 3.412791 1  CFF21CAx        Rx   d 8 3E 00 3C 16 3D 3B 00 14
 3.420801 1  18F100D0x       Rx   d 8 0C FF FF FF FF FF FF FF
 3.421593 1  18F100F3x       Rx   d 8 03 35 7F 4B F4 FA 14 00
 3.422485 1  18F102F3x       Rx   d 8 10 0C 10 05 0F 0C 00 07
 3.423921 1  18F106F3x       Rx   d 8 45 E0 FC FF FF FF FF FF
 3.425250 1  18F107F3x       Rx   d 8 38 A4 27 10 01 71 00 00
 3.425729 1  CFF21CAx        Rx   d 8 3E 00 33 16 3D 3B 00 14
 3.426953 1  18F108F3x       Rx   d 8 00 00 00 00 00 00 00 00
 3.427812 1  18F155F3x       Rx   d 8 38 37 38 38 38 39 38 00
 3.428702 1  18F156F3x       Rx   d 8 00 00 00 00 00 00 00 00
 3.429570 1  18F157F3x       Rx   d 8 00 00 00 00 00 00 00 00
 3.430716 1  18F158F3x       Rx   d 8 00 00 00 00 00 00 00 00
 3.431342 1  18F159F3x       Rx   d 8 00 00 00 00 00 00 00 00
 3.432268 1  18F15AF3x       Rx   d 8 00 00 00 00 00 00 00 00
 3.433405 1  18F15BF3x       Rx   d 7 00 00 00 00 00 00 00
 3.434194 1  18F15CF3x       Rx   d 8 00 00 00 00 00 00 00 00
 3.435071 1  18F15DF3x       Rx   d 8 00 00 00 00 00 00 00 00
 3.435920 1  18F15EF3x       Rx   d 8 00 00 00 00 00 00 00 00
 3.436840 1  CFF21CAx        Rx   d 8 3F 00 36 16 3D 3B 00 14
 3.444911 1  18F100D0x       Rx   d 8 0C FF FF FF FF FF FF FF
 3.449217 1  CFF21CAx        Rx   d 8 3F 00 35 16 3D 3B 00 14
 3.458883 1  18FF2112x       Rx   d 8 01 00 00 00 00 00 00 00
 3.460832 1  CFF21CAx        Rx   d 8 3F 00 3B 16 3D 3B 00 14
 3.469011 1  18F100D0x       Rx   d 8 0C FF FF FF FF FF FF FF
 3.473424 1  CFF21CAx        Rx   d 8 3F 00 40 16 3D 3B 00 14
 3.495952 1  CFF21CAx        Rx   d 8 3F 00 49 16 3D 3B 00 14
 3.496080 1  18F100D0x       Rx   d 8 0C FF FF FF FF FF FF FF
 3.497373 1  CFF21CAx        Rx   d 8 3F 00 4D 16 3D 3B 00 14
 3.509037 1  CFF21CAx        Rx   d 8 3F 00 4D 16 3D 3B 00 14
 3.517049 1  18F100D0x       Rx   d 8 0C FF FF FF FF FF FF FF
 3.521268 1  18F100F3x       Rx   d 8 03 35 7F 52 F4 FA 14 00
 3.521830 1  CFF21CAx        Rx   d 8 3F 00 43 16 3D 3B 00 14
 3.522375 1  18F102F3x       Rx   d 8 10 0C 10 05 0F 0C 00 07
 3.523718 1  18F106F3x       Rx   d 8 45 E0 FC FF FF FF FF FF
 3.525056 1  18F107F3x       Rx   d 8 38 A4 27 10 01 71 00 00
 3.526821 1  18F108F3x       Rx   d 8 00 00 00 00 00 00 00 00
 3.527678 1  18F155F3x       Rx   d 8 38 37 38 38 38 39 38 00
 3.528568 1  18F156F3x       Rx   d 8 00 00 00 00 00 00 00 00
 3.529436 1  18F157F3x       Rx   d 8 00 00 00 00 00 00 00 00
 3.530344 1  18F158F3x       Rx   d 8 00 00 00 00 00 00 00 00
 3.531320 1  18F159F3x       Rx   d 8 00 00 00 00 00 00 00 00
 3.532153 1  18F15AF3x       Rx   d 8 00 00 00 00 00 00 00 00
 3.533055 1  CFF21CAx        Rx   d 8 40 00 3B 16 3D 3B 00 14
 3.533601 1  18F15BF3x       Rx   d 7 00 00 00 00 00 00 00
 3.534469 1  18F15CF3x       Rx   d 8 00 00 00 00 00 00 00 00
 3.535319 1  18F15DF3x       Rx   d 8 00 00 00 00 00 00 00 00
 3.536164 1  18F15EF3x       Rx   d 8 00 00 00 00 00 00 00 00
 3.541139 1  18F100D0x       Rx   d 8 0C FF FF FF FF FF FF FF
 3.545577 1  CFF21CAx        Rx   d 8 40 00 3A 16 3D 3B 00 14
 3.556140 1  18FF2112x       Rx   d 8 01 00 00 00 00 00 00 00
 3.557148 1  CFF21CAx        Rx   d 8 40 00 3B 16 3D 3B 00 14
 3.565332 1  18F100D0x       Rx   d 8 0C FF FF FF FF FF FF FF
 3.569663 1  CFF21CAx        Rx   d 8 40 00 40 16 3D 3B 00 14
 3.581391 1  CFF21CAx        Rx   d 8 40 00 3E 16 3D 3B 00 14
 3.594016 1  CFF21CAx        Rx   d 8 40 00 44 16 3D 3B 00 14
 3.594555 1  18F100D0x       Rx   d 8 0C FF FF FF FF FF FF FF
 3.605676 1  CFF21CAx        Rx   d 8 40 00 4D 16 3D 3B 00 14
 3.618214 1  CFF21CAx        Rx   d 8 40 00 4D 16 3D 3B 00 14
 3.618762 1  18F100D0x       Rx   d 8 0C FF FF FF FF FF FF FF
 3.621425 1  18F100F3x       Rx   d 8 03 35 7F 52 F4 FA 14 00
 3.622287 1  18F102F3x       Rx   d 8 10 0C 10 05 0F 0C 00 07
 3.623852 1  18F106F3x       Rx   d 8 45 E0 FC FF FF FF FF FF
 3.625147 1  18F107F3x       Rx   d 8 38 A4 27 10 01 71 00 00
 3.626963 1  18F108F3x       Rx   d 8 00 00 00 00 00 00 00 00
 3.627795 1  18F155F3x       Rx   d 8 38 37 38 38 38 39 38 00
 3.628680 1  18F156F3x       Rx   d 8 00 00 00 00 00 00 00 00
 3.629834 1  18F157F3x       Rx   d 8 00 00 00 00 00 00 00 00
 3.630267 1  CFF21CAx        Rx   d 8 3F 00 39 16 3D 3B 00 14
 3.630627 1  18F158F3x       Rx   d 8 00 00 00 00 00 00 00 00
 3.631447 1  18F159F3x       Rx   d 8 00 00 00 00 00 00 00 00
 3.632332 1  18F15AF3x       Rx   d 8 00 00 00 00 00 00 00 00
 3.633370 1  18F15BF3x       Rx   d 7 00 00 00 00 00 00 00
 3.634238 1  18F15CF3x       Rx   d 8 00 00 00 00 00 00 00 00
 3.635211 1  18F15DF3x       Rx   d 8 00 00 00 00 00 00 00 00
 3.636017 1  18F15EF3x       Rx   d 8 00 00 00 00 00 00 00 00
 3.642032 1  CFF21CAx        Rx   d 8 3F 00 30 16 3D 3B 00 14
 3.642586 1  18F100D0x       Rx   d 8 0C FF FF FF FF FF FF FF
 3.653570 1  18FF2112x       Rx   d 8 01 00 00 00 00 00 00 00
 3.654106 1  CFF21CAx        Rx   d 8 3F 00 2D 16 3D 3B 00 14
 3.666261 1  CFF21CAx        Rx   d 8 41 00 34 16 3D 3B 00 14
 3.666899 1  18F100D0x       Rx   d 8 0C FF FF FF FF FF FF FF
 3.677862 1  CFF21CAx        Rx   d 8 41 00 38 16 3D 3B 00 14
 3.690279 1  CFF21CAx        Rx   d 8 40 00 40 16 3D 3B 00 14
 3.690914 1  18F100D0x       Rx   d 8 0C FF FF FF FF FF FF FF
 3.702005 1  CFF21CAx        Rx   d 8 40 00 47 16 3D 3B 00 14
 3.716312 1  CFF21CAx        Rx   d 8 40 00 51 16 3D 3B 00 14
 3.716435 1  18F100D0x       Rx   d 8 0C FF FF FF FF FF FF FF
 3.721278 1  18F100F3x       Rx   d 8 03 35 7F 52 F4 FA 14 00
 3.722164 1  18F102F3x       Rx   d 8 10 0C 10 05 0F 0C 00 07
 3.723703 1  18F106F3x       Rx   d 8 45 E0 FC FF FF FF FF FF
 3.725001 1  18F107F3x       Rx   d 8 38 A4 27 10 01 71 00 00
 3.726325 1  CFF21CAx        Rx   d 8 3F 00 51 16 3D 3B 00 14
 3.726888 1  18F108F3x       Rx   d 8 00 00 00 00 00 00 00 00
 3.727814 1  18F155F3x       Rx   d 8 38 37 38 38 38 39 38 00
 3.728650 1  18F156F3x       Rx   d 8 00 00 00 00 00 00 00 00
 3.729585 1  18F157F3x       Rx   d 8 00 00 00 00 00 00 00 00
 3.730429 1  18F158F3x       Rx   d 8 00 00 00 00 00 00 00 00
 3.731264 1  18F159F3x       Rx   d 8 00 00 00 00 00 00 00 00
 3.732152 1  18F15AF3x       Rx   d 8 00 00 00 00 00 00 00 00
 3.733296 1  18F15BF3x       Rx   d 7 00 00 00 00 00 00 00
 3.734154 1  18F15CF3x       Rx   d 8 00 00 00 00 00 00 00 00
 3.735086 1  18F15DF3x       Rx   d 8 00 00 00 00 00 00 00 00
 3.735973 1  18F15EF3x       Rx   d 8 00 00 00 00 00 00 00 00
 3.738396 1  CFF21CAx        Rx   d 8 3F 00 4F 16 3D 3B 00 14
 3.738958 1  18F100D0x       Rx   d 8 0C FF FF FF FF FF FF FF
 3.750051 1  CFF21CAx        Rx   d 8 3F 00 4A 16 3D 3B 00 14
 3.750754 1  18FF2112x       Rx   d 8 01 00 00 00 00 00 00 00
 3.762555 1  CFF21CAx        Rx   d 8 3F 00 4C 16 3D 3B 00 14
 3.763026 1  18F100D0x       Rx   d 8 0C FF FF FF FF FF FF FF
 3.774143 1  CFF21CAx        Rx   d 8 3F 00 4A 16 3D 3B 00 14
 3.786680 1  CFF21CAx        Rx   d 8 3F 00 46 16 3D 3B 00 14
 3.787160 1  18F100D0x       Rx   d 8 0C FF FF FF FF FF FF FF
 3.798228 1  CFF21CAx        Rx   d 8 3F 00 3F 16 3D 3B 00 14
 3.811055 1  CFF21CAx        Rx   d 8 3F 00 3C 16 3D 3B 00 14
 3.811524 1  18F100D0x       Rx   d 8 0C FF FF FF FF FF FF FF
 3.821388 1  18F100F3x       Rx   d 8 03 35 7F 47 F4 FA 14 00
 3.822300 1  18F102F3x       Rx   d 8 10 0C 10 05 0F 0C 00 07
 3.822736 1  CFF21CAx        Rx   d 8 3F 00 3E 16 3D 3B 00 14
 3.823762 1  18F106F3x       Rx   d 8 45 E0 FC FF FF FF FF FF
 3.825047 1  18F107F3x       Rx   d 8 38 A4 27 10 01 71 00 00
 3.826978 1  18F108F3x       Rx   d 8 00 00 00 00 00 00 00 00
 3.827683 1  18F155F3x       Rx   d 8 38 37 38 38 38 39 38 00
 3.828684 1  18F156F3x       Rx   d 8 00 00 00 00 00 00 00 00
 3.829597 1  18F157F3x       Rx   d 8 00 00 00 00 00 00 00 00
 3.830537 1  18F158F3x       Rx   d 8 00 00 00 00 00 00 00 00
 3.831335 1  18F159F3x       Rx   d 8 00 00 00 00 00 00 00 00
 3.832176 1  18F15AF3x       Rx   d 8 00 00 00 00 00 00 00 00
 3.833356 1  18F15BF3x       Rx   d 7 00 00 00 00 00 00 00
 3.834142 1  18F15CF3x       Rx   d 8 00 00 00 00 00 00 00 00
 3.834983 1  CFF21CAx        Rx   d 8 3F 00 3D 16 3D 3B 00 14
 3.835505 1  18F15DF3x       Rx   d 8 00 00 00 00 00 00 00 00
 3.836332 1  18F15EF3x       Rx   d 8 00 00 00 00 00 00 00 00
 3.838346 1  18F100D0x       Rx   d 8 0C FF FF FF FF FF FF FF
 3.846568 1  CFF21CAx        Rx   d 8 3F 00 3D 16 3D 3B 00 14
 3.847982 1  18FF2112x       Rx   d 8 01 00 00 00 00 00 00 00
 3.858454 1  CFF21CAx        Rx   d 8 3F 00 3B 16 3D 3B 00 14
 3.862573 1  18F100D0x       Rx   d 8 0C FF FF FF FF FF FF FF
 3.870584 1  CFF21CAx        Rx   d 8 3F 00 3D 16 3D 3B 00 14
 3.883021 1  CFF21CAx        Rx   d 8 3E 00 45 16 3D 3B 00 14
 3.886500 1  18F100D0x       Rx   d 8 0C FF FF FF FF FF FF FF
 3.894810 1  CFF21CAx        Rx   d 8 3E 00 45 16 3D 3B 00 14
 3.907272 1  CFF21CAx        Rx   d 8 3E 00 46 16 3D 3B 00 14
 3.910702 1  18F100D0x       Rx   d 8 0C FF FF FF FF FF FF FF
 3.918706 1  CFF21CAx        Rx   d 8 3E 00 46 16 3D 3B 00 14
 3.921271 1  18F100F3x       Rx   d 8 03 35 7F 47 F4 FA 14 00
 3.935036 1  18F102F3x       Rx   d 8 10 0C 10 05 0F 0C 00 07
 3.935172 1  18F106F3x       Rx   d 8 45 E0 FC FF FF FF FF FF
 3.935277 1  18F107F3x       Rx   d 8 38 A4 27 10 01 71 00 00
 3.935380 1  18F108F3x       Rx   d 8 00 00 00 00 00 00 00 00
 3.935482 1  18F155F3x       Rx   d 8 38 37 38 38 38 39 38 00
 3.935586 1  18F156F3x       Rx   d 8 00 00 00 00 00 00 00 00
 3.935686 1  18F157F3x       Rx   d 8 00 00 00 00 00 00 00 00
 3.935787 1  18F158F3x       Rx   d 8 00 00 00 00 00 00 00 00
 3.935887 1  CFF21CAx        Rx   d 8 3F 00 4C 16 3D 3B 00 14
 3.935987 1  18F159F3x       Rx   d 8 00 00 00 00 00 00 00 00
 3.936089 1  18F15AF3x       Rx   d 8 00 00 00 00 00 00 00 00
 3.936252 1  18F15BF3x       Rx   d 7 00 00 00 00 00 00 00
 3.936376 1  18F15CF3x       Rx   d 8 00 00 00 00 00 00 00 00
 3.936480 1  18F100D0x       Rx   d 8 0C FF FF FF FF FF FF FF
 3.936582 1  18F15DF3x       Rx   d 8 00 00 00 00 00 00 00 00
 3.936682 1  18F15EF3x       Rx   d 8 00 00 00 00 00 00 00 00
 3.942846 1  CFF21CAx        Rx   d 8 3F 00 52 16 3D 3B 00 14
 3.945212 1  18FF2112x       Rx   d 8 01 00 00 00 00 00 00 00
 3.955289 1  CFF21CAx        Rx   d 8 3E 00 4F 16 3D 3B 00 14
 3.963359 1  18F100D0x       Rx   d 8 0C FF FF FF FF FF FF FF
 3.966880 1  CFF21CAx        Rx   d 8 3E 00 36 16 3D 3B 00 14
 3.979468 1  CFF21CAx        Rx   d 8 3E 00 25 16 3D 3B 00 14
 3.986994 1  18F100D0x       Rx   d 8 0C FF FF FF FF FF FF FF
 3.990952 1  CFF21CAx        Rx   d 8 40 00 22 16 3D 3B 00 14
 4.002977 1  CFF21CAx        Rx   d 8 40 00 28 16 3D 3B 00 14
 4.011606 1  18F100D0x       Rx   d 8 0C FF FF FF FF FF FF FF
 4.015089 1  CFF21CAx        Rx   d 8 41 00 2D 16 3D 3B 00 14
 4.021345 1  18F100F3x       Rx   d 8 03 35 7F 49 F4 FA 14 00
 4.022180 1  18F102F3x       Rx   d 8 10 0C 10 05 0F 0C 00 07
 4.023754 1  18F106F3x       Rx   d 8 45 E0 FC FF FF FF FF FF
 4.025094 1  18F107F3x       Rx   d 8 38 A4 27 10 01 71 00 00
 4.026807 1  18F108F3x       Rx   d 8 00 00 00 00 00 00 00 00
 4.027609 1  CFF21CAx        Rx   d 8 41 00 3A 16 3D 3B 00 14
 4.028153 1  18F155F3x       Rx   d 8 38 37 38 38 38 39 38 00
 4.029093 1  18F156F3x       Rx   d 8 00 00 00 00 00 00 00 00
 4.030019 1  18F157F3x       Rx   d 8 00 00 00 00 00 00 00 00
 4.030836 1  18F158F3x       Rx   d 8 00 00 00 00 00 00 00 00
 4.031851 1  18F159F3x       Rx   d 8 00 00 00 00 00 00 00 00
 4.032718 1  18F15AF3x       Rx   d 8 00 00 00 00 00 00 00 00
 4.033521 1  18F15BF3x       Rx   d 7 00 00 00 00 00 00 00
 4.034393 1  18F15CF3x       Rx   d 8 00 00 00 00 00 00 00 00
 4.035090 1  18F100D0x       Rx   d 8 0C FF FF FF FF FF FF FF
 4.035698 1  18F15DF3x       Rx   d 8 00 00 00 00 00 00 00 00
 4.036530 1  18F15EF3x       Rx   d 8 00 00 00 00 00 00 00 00
 4.039387 1  CFF21CAx        Rx   d 8 41 00 45 16 3D 3B 00 14
 4.042980 1  18FF2112x       Rx   d 8 01 00 00 00 00 00 00 00
 4.051359 1  CFF21CAx        Rx   d 8 41 00 4F 16 3D 3B 00 14
 4.059409 1  18F100D0x       Rx   d 8 0C FF FF FF FF FF FF FF
 4.063389 1  CFF21CAx        Rx   d 8 41 00 56 16 3D 3B 00 14
 4.075492 1  CFF21CAx        Rx   d 8 41 00 57 16 3D 3B 00 14
 4.083455 1  18F100D0x       Rx   d 8 0C FF FF FF FF FF FF FF
 4.087546 1  CFF21CAx        Rx   d 8 3E 00 53 16 3D 3B 00 14
 4.099518 1  CFF21CAx        Rx   d 8 3E 00 58 16 3D 3B 00 14
 4.107956 1  18F100D0x       Rx   d 8 0C FF FF FF FF FF FF FF
 4.110976 1  18F104F3x       Rx   d 8 39 37 06 02 02 FF FF FF
 4.111592 1  CFF21CAx        Rx   d 8 3D 00 4F 16 3D 3B 00 14
 4.112133 1  18F113F3x       Rx   d 8 10 09 10 09 10 08 10 09
 4.113349 1  18F114F3x       Rx   d 8 10 07 10 07 10 0A 10 09
 4.114161 1  18F115F3x       Rx   d 8 10 08 10 09 10 07 10 05
 4.115246 1  18F116F3x       Rx   d 8 10 0B 10 09 10 0C 10 0C
 4.116293 1  18F117F3x       Rx   d 8 10 09 10 09 10 0C 10 0C
 4.117152 1  18F118F3x       Rx   d 8 00 00 00 00 00 00 00 00
 4.118171 1  18F119F3x       Rx   d 8 00 00 00 00 00 00 00 00
 4.118970 1  18F11AF3x       Rx   d 8 00 00 00 00 00 00 00 00
 4.120054 1  18F11BF3x       Rx   d 8 00 00 00 00 00 00 00 00
 4.120883 1  18F11CF3x       Rx   d 8 00 00 00 00 00 00 00 00
 4.122002 1  18F100F3x       Rx   d 8 03 35 7F 49 F4 FA 14 00
 4.123068 1  18F102F3x       Rx   d 8 10 0C 10 05 0F 0C 00 07
 4.124051 1  CFF21CAx        Rx   d 8 3D 00 4F 16 3D 3B 00 14
 4.124620 1  18F106F3x       Rx   d 8 45 E0 FC FF FF FF FF FF
 4.125943 1  18F107F3x       Rx   d 8 38 A4 27 10 01 71 00 00
 4.127768 1  18F108F3x       Rx   d 8 00 00 00 00 00 00 00 00
 4.128719 1  18F11DF3x       Rx   d 8 00 00 00 00 00 00 00 00
 4.129614 1  18F11EF3x       Rx   d 8 00 00 00 00 00 00 00 00
 4.130551 1  18F11FF3x       Rx   d 8 00 00 00 00 00 00 00 00
 4.137571 1  18F120F3x       Rx   d 8 00 00 00 00 00 00 00 00
 4.137967 1  18F121F3x       Rx   d 8 00 00 00 00 00 00 00 00
 4.138120 1  18F122F3x       Rx   d 8 00 00 00 00 00 00 00 00
 4.138240 1  18F123F3x       Rx   d 8 00 00 00 00 00 00 00 00
 4.138372 1  18F124F3x       Rx   d 8 00 00 00 00 00 00 00 00
 4.138483 1  CFF21CAx        Rx   d 8 3D 00 4A 16 3D 3B 00 14
 4.138597 1  18F100D0x       Rx   d 8 0C FF FF FF FF FF FF FF
 4.138721 1  18F125F3x       Rx   d 8 00 00 00 00 00 00 00 00
 4.138828 1  18F126F3x       Rx   d 8 00 00 00 00 00 00 00 00
 4.138933 1  18F127F3x       Rx   d 8 00 00 00 00 00 00 00 00
 4.139801 1  18F128F3x       Rx   d 8 00 00 00 00 00 00 00 00
 4.140296 1  18FF2112x       Rx   d 8 01 00 00 00 00 00 00 00
 4.140875 1  18F129F3x       Rx   d 8 00 00 00 00 00 00 00 00
 4.153553 1  18F12AF3x       Rx   d 8 00 00 00 00 00 00 00 00
 4.153680 1  18F12BF3x       Rx   d 8 00 00 00 00 00 00 00 00
 4.153782 1  18F12CF3x       Rx   d 8 00 00 00 00 00 00 00 00
 4.153881 1  18F12DF3x       Rx   d 8 00 00 00 00 00 00 00 00
 4.153981 1  18F12EF3x       Rx   d 8 00 00 00 00 00 00 00 00
 4.154081 1  18F12FF3x       Rx   d 8 00 00 00 00 00 00 00 00
 4.154178 1  18F130F3x       Rx   d 8 00 00 00 00 00 00 00 00
 4.154276 1  CFF21CAx        Rx   d 8 3C 00 4D 16 3D 3B 00 14
 4.154375 1  18F131F3x       Rx   d 8 00 00 00 00 00 00 00 00
 4.154472 1  18F132F3x       Rx   d 8 00 00 00 00 00 00 00 00
 4.154618 1  18F133F3x       Rx   d 8 00 00 00 00 00 00 00 00
 4.154789 1  18F134F3x       Rx   d 8 00 00 00 00 00 00 00 00
 4.154913 1  18F135F3x       Rx   d 8 00 00 00 00 00 00 00 00
 4.155017 1  18F136F3x       Rx   d 8 00 00 00 00 00 00 00 00
 4.155119 1  18F137F3x       Rx   d 8 00 00 00 00 00 00 00 00
 4.155217 1  18F138F3x       Rx   d 8 00 00 00 00 00 00 00 00
 4.155970 1  18F139F3x       Rx   d 8 00 00 00 00 00 00 00 00
 4.156852 1  18F13AF3x       Rx   d 8 00 00 00 00 00 00 00 00
 4.157706 1  18F13BF3x       Rx   d 8 00 00 00 00 00 00 00 00
 4.158582 1  18F13CF3x       Rx   d 8 00 00 00 00 00 00 00 00
 4.159457 1  18F155F3x       Rx   d 8 38 37 38 38 38 39 38 00
 4.159985 1  CFF21CAx        Rx   d 8 3C 00 49 16 3D 3B 00 14
 4.160560 1  18F100D0x       Rx   d 8 0C FF FF FF FF FF FF FF
 4.161162 1  18F156F3x       Rx   d 8 00 00 00 00 00 00 00 00
 4.162124 1  18F157F3x       Rx   d 8 00 00 00 00 00 00 00 00
 4.163310 1  18F158F3x       Rx   d 8 00 00 00 00 00 00 00 00
 4.164195 1  18F159F3x       Rx   d 8 00 00 00 00 00 00 00 00
 4.165131 1  18F15AF3x       Rx   d 8 00 00 00 00 00 00 00 00
 4.165991 1  18F15BF3x       Rx   d 7 00 00 00 00 00 00 00
 4.166832 1  18F15CF3x       Rx   d 8 00 00 00 00 00 00 00 00
 4.167707 1  18F15DF3x       Rx   d 8 00 00 00 00 00 00 00 00
 4.168529 1  18F15EF3x       Rx   d 8 00 00 00 00 00 00 00 00
 4.171677 1  CFF21CAx        Rx   d 8 3B 00 4A 16 3D 3B 00 14
 4.183865 1  CFF21CAx        Rx   d 8 3B 00 3B 16 3D 3B 00 14
 4.184360 1  18F100D0x       Rx   d 8 0C FF FF FF FF FF FF FF
 4.195845 1  CFF21CAx        Rx   d 8 3B 00 34 16 3D 3B 00 14
 4.207863 1  CFF21CAx        Rx   d 8 3D 00 32 16 3D 3B 00 14
 4.208404 1  18F100D0x       Rx   d 8 0C FF FF FF FF FF FF FF
 4.219962 1  CFF21CAx        Rx   d 8 3D 00 34 16 3D 3B 00 14
 4.221322 1  18F100F3x       Rx   d 8 03 35 7F 49 F4 FA 14 00
 4.222215 1  18F102F3x       Rx   d 8 10 0C 10 05 0F 0C 00 07
 4.223765 1  18F106F3x       Rx   d 8 45 E0 FC FF FF FF FF FF
 4.225064 1  18F107F3x       Rx   d 8 38 A4 27 10 01 71 00 00
 4.226817 1  18F108F3x       Rx   d 8 00 00 00 00 00 00 00 00
 4.227679 1  18F155F3x       Rx   d 8 38 37 38 38 38 39 38 00
 4.228772 1  18F156F3x       Rx   d 8 00 00 00 00 00 00 00 00
 4.229445 1  18F157F3x       Rx   d 8 00 00 00 00 00 00 00 00
 4.230369 1  18F158F3x       Rx   d 8 00 00 00 00 00 00 00 00
 4.231208 1  18F159F3x       Rx   d 8 00 00 00 00 00 00 00 00
 4.231952 1  CFF21CAx        Rx   d 8 3D 00 36 16 3D 3B 00 14
 4.232520 1  18F100D0x       Rx   d 8 0C FF FF FF FF FF FF FF
 4.233114 1  18F15AF3x       Rx   d 8 00 00 00 00 00 00 00 00
 4.233982 1  18F15BF3x       Rx   d 7 00 00 00 00 00 00 00
 4.234884 1  18F15CF3x       Rx   d 8 00 00 00 00 00 00 00 00
 4.235662 1  18F15DF3x       Rx   d 8 00 00 00 00 00 00 00 00
 4.236567 1  18F15EF3x       Rx   d 8 00 00 00 00 00 00 00 00
 4.237093 1  18FF2112x       Rx   d 8 01 00 00 00 00 00 00 00
 4.243990 1  CFF21CAx        Rx   d 8 3E 00 36 16 3D 3B 00 14
 4.256413 1  CFF21CAx        Rx   d 8 3E 00 3B 16 3D 3B 00 14
 4.256981 1  18F100D0x       Rx   d 8 0C FF FF FF FF FF FF FF
 4.268134 1  CFF21CAx        Rx   d 8 3D 00 4A 16 3D 3B 00 14
 4.280870 1  CFF21CAx        Rx   d 8 3D 00 4A 16 3D 3B 00 14
 4.281157 1  18F100D0x       Rx   d 8 0C FF FF FF FF FF FF FF
 4.292185 1  CFF21CAx        Rx   d 8 3D 00 46 16 3D 3B 00 14
 4.292900 1  18FECACAx       Rx   d 8 00 00 00 00 00 00 FF FF
 4.304730 1  CFF21CAx        Rx   d 8 3D 00 31 16 3D 3B 00 14
 4.305242 1  18F100D0x       Rx   d 8 0C FF FF FF FF FF FF FF
 4.316455 1  CFF21CAx        Rx   d 8 3D 00 2D 16 3D 3B 00 14
 4.321577 1  18F100F3x       Rx   d 8 03 35 7F 39 F4 FA 14 00
 4.322319 1  18F102F3x       Rx   d 8 10 0C 10 04 0F 0C 00 08
 4.323773 1  18F106F3x       Rx   d 8 45 E0 FC FF FF FF FF FF
 4.325028 1  18F107F3x       Rx   d 8 38 A4 27 10 01 71 00 00
 4.326822 1  18F108F3x       Rx   d 8 00 00 00 00 00 00 00 00
 4.328505 1  18F155F3x       Rx   d 8 38 37 38 38 38 39 38 00
 4.328665 1  18F156F3x       Rx   d 8 00 00 00 00 00 00 00 00
 4.329111 1  CFF21CAx        Rx   d 8 3F 00 2F 16 3D 3B 00 14
 4.329684 1  18F157F3x       Rx   d 8 00 00 00 00 00 00 00 00
 4.330579 1  18F158F3x       Rx   d 8 00 00 00 00 00 00 00 00
 4.331449 1  18F159F3x       Rx   d 8 00 00 00 00 00 00 00 00
 4.332308 1  18F100D0x       Rx   d 8 0C FF FF FF FF FF FF FF
 4.332957 1  18F15AF3x       Rx   d 8 00 00 00 00 00 00 00 00
 4.333708 1  18F15BF3x       Rx   d 7 00 00 00 00 00 00 00
 4.334548 1  18FF2112x       Rx   d 8 01 00 00 00 00 00 00 00
 4.334873 1  18F15CF3x       Rx   d 8 00 00 00 00 00 00 00 00
 4.335968 1  18F15DF3x       Rx   d 8 00 00 00 00 00 00 00 00
 4.336727 1  18F15EF3x       Rx   d 8 00 00 00 00 00 00 00 00
 4.340420 1  CFF21CAx        Rx   d 8 3F 00 35 16 3D 3B 00 14
 4.353046 1  CFF21CAx        Rx   d 8 3F 00 37 16 3D 3B 00 14
 4.356523 1  18F100D0x       Rx   d 8 0C FF FF FF FF FF FF FF
 4.373000 1  CFF21CAx        Rx   d 8 3F 00 37 16 3D 3B 00 14
 4.376967 1  CFF21CAx        Rx   d 8 3D 00 40 16 3D 3B 00 14
 4.380592 1  18F100D0x       Rx   d 8 0C FF FF FF FF FF FF FF
 4.388599 1  CFF21CAx        Rx   d 8 3D 00 4B 16 3D 3B 00 14
 4.401084 1  CFF21CAx        Rx   d 8 3D 00 4B 16 3D 3B 00 14
 4.404640 1  18F100D0x       Rx   d 8 0C FF FF FF FF FF FF FF
 4.413083 1  CFF21CAx        Rx   d 8 3E 00 49 16 3D 3B 00 14
 4.421370 1  18F100F3x       Rx   d 8 03 35 7F 39 F4 FA 14 00
 4.422291 1  18F102F3x       Rx   d 8 10 0C 10 04 0F 0C 00 08
 4.423866 1  18F106F3x       Rx   d 8 45 E0 FC FF FF FF FF FF
 4.425081 1  18F107F3x       Rx   d 8 38 A4 27 10 01 71 00 00
 4.425624 1  CFF21CAx        Rx   d 8 3E 00 44 16 3D 3B 00 14
 4.426866 1  18F108F3x       Rx   d 8 00 00 00 00 00 00 00 00
 4.427731 1  18F155F3x       Rx   d 8 38 37 38 38 38 39 38 00
 4.428604 1  18F156F3x       Rx   d 8 00 00 00 00 00 00 00 00
 4.429487 1  18F157F3x       Rx   d 8 00 00 00 00 00 00 00 00
 4.430339 1  18F158F3x       Rx   d 8 00 00 00 00 00 00 00 00
 4.431245 1  18F159F3x       Rx   d 8 00 00 00 00 00 00 00 00
 4.431814 1  18FF2112x       Rx   d 8 01 00 00 00 00 00 00 00
 4.432367 1  18F15AF3x       Rx   d 8 00 00 00 00 00 00 00 00
 4.433196 1  18F100D0x       Rx   d 8 0C FF FF FF FF FF FF FF
 4.433720 1  18F15BF3x       Rx   d 7 00 00 00 00 00 00 00
 4.434591 1  18F15CF3x       Rx   d 8 00 00 00 00 00 00 00 00
 4.435455 1  18F15DF3x       Rx   d 8 00 00 00 00 00 00 00 00
 4.436297 1  18F15EF3x       Rx   d 8 00 00 00 00 00 00 00 00
 4.436864 1  CFF21CAx        Rx   d 8 3D 00 46 16 3D 3B 00 14
 4.449505 1  CFF21CAx        Rx   d 8 3D 00 45 16 3D 3B 00 14
 4.457270 1  18F100D0x       Rx   d 8 0C FF FF FF FF FF FF FF
 4.460941 1  CFF21CAx        Rx   d 8 3D 00 44 16 3D 3B 00 14
 4.473469 1  CFF21CAx        Rx   d 8 3D 00 37 16 3D 3B 00 14
 4.481585 1  18F100D0x       Rx   d 8 0C FF FF FF FF FF FF FF
 4.485152 1  CFF21CAx        Rx   d 8 3D 00 33 16 3D 3B 00 14
 4.497659 1  CFF21CAx        Rx   d 8 3E 00 33 16 3D 3B 00 14
 4.505515 1  18F100D0x       Rx   d 8 0C FF FF FF FF FF FF FF
 4.509283 1  CFF21CAx        Rx   d 8 3E 00 35 16 3D 3B 00 14
 4.521400 1  18F100F3x       Rx   d 8 03 35 7F 4A F4 FA 14 00
 4.522171 1  CFF21CAx        Rx   d 8 3E 00 3A 16 3D 3B 00 14
 4.522589 1  18F102F3x       Rx   d 8 10 0C 10 04 0F 0C 00 08
 4.523834 1  18F106F3x       Rx   d 8 45 E0 FC FF FF FF FF FF
 4.525206 1  18F107F3x       Rx   d 8 38 A4 27 10 01 71 00 00
 4.526967 1  18F108F3x       Rx   d 8 00 00 00 00 00 00 00 00
 4.527930 1  18F155F3x       Rx   d 8 38 37 38 38 38 39 38 00
 4.528785 1  18F156F3x       Rx   d 8 00 00 00 00 00 00 00 00
 4.529361 1  18FF2112x       Rx   d 8 01 00 00 00 00 00 00 00
 4.529952 1  18F100D0x       Rx   d 8 0C FF FF FF FF FF FF FF
 4.530590 1  18F157F3x       Rx   d 8 00 00 00 00 00 00 00 00
 4.531384 1  18F158F3x       Rx   d 8 00 00 00 00 00 00 00 00
 4.532312 1  18F159F3x       Rx   d 8 00 00 00 00 00 00 00 00
 4.533314 1  CFF21CAx        Rx   d 8 3E 00 41 16 3D 3B 00 14
 4.533858 1  18F15AF3x       Rx   d 8 00 00 00 00 00 00 00 00
 4.534642 1  18F15BF3x       Rx   d 7 00 00 00 00 00 00 00
 4.535449 1  18F15CF3x       Rx   d 8 00 00 00 00 00 00 00 00
 4.536376 1  18F15DF3x       Rx   d 8 00 00 00 00 00 00 00 00
 4.537197 1  18F15EF3x       Rx   d 8 00 00 00 00 00 00 00 00
 4.545821 1  CFF21CAx        Rx   d 8 3E 00 48 16 3D 3B 00 14
 4.553911 1  18F100D0x       Rx   d 8 0C FF FF FF FF FF FF FF
 4.557297 1  CFF21CAx        Rx   d 8 3E 00 4E 16 3D 3B 00 14
 4.570013 1  CFF21CAx        Rx   d 8 3D 00 4C 16 3D 3B 00 14
 4.578114 1  18F100D0x       Rx   d 8 0C FF FF FF FF FF FF FF
 4.596760 1  CFF21CAx        Rx   d 8 3D 00 44 16 3D 3B 00 14
 4.596888 1  CFF21CAx        Rx   d 8 3F 00 35 16 3D 3B 00 14
 4.601884 1  18F100D0x       Rx   d 8 0C FF FF FF FF FF FF FF
 4.605502 1  CFF21CAx        Rx   d 8 3F 00 33 16 3D 3B 00 14
 4.618006 1  CFF21CAx        Rx   d 8 3F 00 32 16 3D 3B 00 14
 4.621334 1  18F100F3x       Rx   d 8 03 35 7F 4A F4 FA 14 00
 4.622228 1  18F102F3x       Rx   d 8 10 0C 10 04 0F 0C 00 08
 4.623822 1  18F106F3x       Rx   d 8 45 E0 FC FF FF FF FF FF
 4.625051 1  18F107F3x       Rx   d 8 38 A4 27 10 01 71 00 00
 4.626002 1  18F100D0x       Rx   d 8 0C FF FF FF FF FF FF FF
 4.626572 1  18FF2112x       Rx   d 8 01 00 00 00 00 00 00 00
 4.627146 1  18F108F3x       Rx   d 8 00 00 00 00 00 00 00 00
 4.628124 1  18F155F3x       Rx   d 8 38 37 38 38 38 39 38 00
 4.629055 1  18F156F3x       Rx   d 8 00 00 00 00 00 00 00 00
 4.630043 1  18F157F3x       Rx   d 8 00 00 00 00 00 00 00 00
 4.630520 1  CFF21CAx        Rx   d 8 40 00 34 16 3D 3B 00 14
 4.631106 1  18F158F3x       Rx   d 8 00 00 00 00 00 00 00 00
 4.632038 1  18F159F3x       Rx   d 8 00 00 00 00 00 00 00 00
 4.633205 1  18F15AF3x       Rx   d 8 00 00 00 00 00 00 00 00
 4.634071 1  18F15BF3x       Rx   d 7 00 00 00 00 00 00 00
 4.634981 1  18F15CF3x       Rx   d 8 00 00 00 00 00 00 00 00
 4.635858 1  18F15DF3x       Rx   d 8 00 00 00 00 00 00 00 00
 4.636687 1  18F15EF3x       Rx   d 8 00 00 00 00 00 00 00 00
 4.642158 1  CFF21CAx        Rx   d 8 40 00 32 16 3D 3B 00 14
 4.653677 1  CFF21CAx        Rx   d 8 40 00 3D 16 3D 3B 00 14
 4.654177 1  18F100D0x       Rx   d 8 0C FF FF FF FF FF FF FF
 4.666166 1  CFF21CAx        Rx   d 8 40 00 42 16 3D 3B 00 14
 4.677722 1  CFF21CAx        Rx   d 8 40 00 4A 16 3D 3B 00 14
 4.678466 1  18F100D0x       Rx   d 8 0C FF FF FF FF FF FF FF
 4.690466 1  CFF21CAx        Rx   d 8 40 00 48 16 3D 3B 00 14
 4.702258 1  CFF21CAx        Rx   d 8 40 00 46 16 3D 3B 00 14
 4.702836 1  18F100D0x       Rx   d 8 0C FF FF FF FF FF FF FF
 4.714476 1  CFF21CAx        Rx   d 8 40 00 48 16 3D 3B 00 14
 4.721614 1  18F100F3x       Rx   d 8 03 35 7F 4A F4 FA 14 00
 4.722425 1  18F102F3x       Rx   d 8 10 0C 10 03 10 0C 00 09
 4.723460 1  18FF2112x       Rx   d 8 01 00 00 00 00 00 00 00
 4.724072 1  18F106F3x       Rx   d 8 45 E0 FC FF FF FF FF FF
 4.725346 1  18F107F3x       Rx   d 8 38 A4 27 10 01 71 00 00
 4.725881 1  CFF21CAx        Rx   d 8 3F 00 4A 16 3D 3B 00 14
 4.726565 1  18F100D0x       Rx   d 8 0C FF FF FF FF FF FF FF
 4.727418 1  18F108F3x       Rx   d 8 00 00 00 00 00 00 00 00
 4.728320 1  18F155F3x       Rx   d 8 38 37 38 38 38 39 38 00
 4.729181 1  18F156F3x       Rx   d 8 00 00 00 00 00 00 00 00
 4.730227 1  18F157F3x       Rx   d 8 00 00 00 00 00 00 00 00
 4.731043 1  18F158F3x       Rx   d 8 00 00 00 00 00 00 00 00
 4.732012 1  18F159F3x       Rx   d 8 00 00 00 00 00 00 00 00
 4.732816 1  18F15AF3x       Rx   d 8 00 00 00 00 00 00 00 00
 4.733542 1  18F15BF3x       Rx   d 7 00 00 00 00 00 00 00
 4.734390 1  18F15CF3x       Rx   d 8 00 00 00 00 00 00 00 00
 4.735398 1  18F15DF3x       Rx   d 8 00 00 00 00 00 00 00 00
 4.736301 1  18F15EF3x       Rx   d 8 00 00 00 00 00 00 00 00
 4.738692 1  CFF21CAx        Rx   d 8 3F 00 47 16 3D 3B 00 14
 4.750091 1  CFF21CAx        Rx   d 8 3F 00 36 16 3D 3B 00 14
 4.750606 1  18F100D0x       Rx   d 8 0C FF FF FF FF FF FF FF
 4.762720 1  CFF21CAx        Rx   d 8 3F 00 2A 16 3D 3B 00 14
 4.774387 1  CFF21CAx        Rx   d 8 3F 00 2C 16 3D 3B 00 14
 4.774922 1  18F100D0x       Rx   d 8 0C FF FF FF FF FF FF FF
 4.786613 1  CFF21CAx        Rx   d 8 41 00 31 16 3D 3B 00 14
 4.798408 1  CFF21CAx        Rx   d 8 41 00 33 16 3D 3B 00 14
 4.798863 1  18F100D0x       Rx   d 8 0C FF FF FF FF FF FF FF
 4.814304 1  CFF21CAx        Rx   d 8 41 00 3D 16 3D 3B 00 14
 4.820714 1  18FF2112x       Rx   d 8 01 00 00 00 00 00 00 00
 4.821343 1  18F100F3x       Rx   d 8 03 35 7F 47 F4 FA 14 00
 4.822220 1  18F102F3x       Rx   d 8 10 0C 10 03 10 0C 00 09
 4.822826 1  CFF21CAx        Rx   d 8 41 00 41 16 3D 3B 00 14
 4.823374 1  18F100D0x       Rx   d 8 0C FF FF FF FF FF FF FF
 4.823981 1  18F106F3x       Rx   d 8 45 E0 FC FF FF FF FF FF
 4.825255 1  18F107F3x       Rx   d 8 38 A4 27 10 01 71 00 00
 4.827075 1  18F108F3x       Rx   d 8 00 00 00 00 00 00 00 00
 4.827985 1  18F155F3x       Rx   d 8 38 37 38 38 38 39 38 00
 4.828894 1  18F156F3x       Rx   d 8 00 00 00 00 00 00 00 00
 4.829817 1  18F157F3x       Rx   d 8 00 00 00 00 00 00 00 00
 4.830629 1  18F158F3x       Rx   d 8 00 00 00 00 00 00 00 00
 4.831541 1  18F159F3x       Rx   d 8 00 00 00 00 00 00 00 00
 4.832377 1  18F15AF3x       Rx   d 8 00 00 00 00 00 00 00 00
 4.833398 1  18F15BF3x       Rx   d 7 00 00 00 00 00 00 00
 4.834258 1  18F15CF3x       Rx   d 8 00 00 00 00 00 00 00 00
 4.835004 1  CFF21CAx        Rx   d 8 41 00 49 16 3D 3B 00 14
 4.835533 1  18F15DF3x       Rx   d 8 00 00 00 00 00 00 00 00
 4.836382 1  18F15EF3x       Rx   d 8 00 00 00 00 00 00 00 00
 4.846522 1  CFF21CAx        Rx   d 8 3F 00 4F 16 3D 3B 00 14
 4.847060 1  18F100D0x       Rx   d 8 0C FF FF FF FF FF FF FF
 4.858993 1  CFF21CAx        Rx   d 8 3F 00 4A 16 3D 3B 00 14
 4.870579 1  CFF21CAx        Rx   d 8 3F 00 4D 16 3D 3B 00 14
 4.871081 1  18F100D0x       Rx   d 8 0C FF FF FF FF FF FF FF
 4.882644 1  CFF21CAx        Rx   d 8 3E 00 4A 16 3D 3B 00 14
 4.895123 1  CFF21CAx        Rx   d 8 3E 00 49 16 3D 3B 00 14
 4.898665 1  18F100D0x       Rx   d 8 0C FF FF FF FF FF FF FF
 4.907270 1  CFF21CAx        Rx   d 8 3E 00 46 16 3D 3B 00 14
