date Sat May 09 09:44:54.99 2026
base hex  timestamps absolute
internal events logged
Begin Triggerblock Sat May 09 09:44:54.105 2026
 0.000000 Start of measurement
 0.000000 1  18F122F3x       Rx   d 8 00 00 00 00 00 00 00 00
 0.000160 1  18F123F3x       Rx   d 8 00 00 00 00 00 00 00 00
 0.000261 1  18F124F3x       Rx   d 8 00 00 00 00 00 00 00 00
 0.000359 1  18F125F3x       Rx   d 8 00 00 00 00 00 00 00 00
 0.000450 1  18F126F3x       Rx   d 8 00 00 00 00 00 00 00 00
 0.000535 1  18F127F3x       Rx   d 8 00 00 00 00 00 00 00 00
 0.000610 1  18F128F3x       Rx   d 8 00 00 00 00 00 00 00 00
 0.000685 1  18F129F3x       Rx   d 8 00 00 00 00 00 00 00 00
 0.001081 1  18F12AF3x       Rx   d 8 00 00 00 00 00 00 00 00
 0.001186 1  18F12BF3x       Rx   d 8 00 00 00 00 00 00 00 00
 0.001273 1  18F12CF3x       Rx   d 8 00 00 00 00 00 00 00 00
 0.001353 1  CFF21CAx        Rx   d 8 02 00 80 0C 3C 39 00 14
 0.001436 1  18F12DF3x       Rx   d 8 00 00 00 00 00 00 00 00
 0.001511 1  18F12EF3x       Rx   d 8 00 00 00 00 00 00 00 00
 0.001586 1  18F12FF3x       Rx   d 8 00 00 00 00 00 00 00 00
 0.001674 1  18F130F3x       Rx   d 8 00 00 00 00 00 00 00 00
 0.001750 1  18F100D0x       Rx   d 8 0C FF FF FF FF FF FF FF
 0.001827 1  18F131F3x       Rx   d 8 00 00 00 00 00 00 00 00
 0.001901 1  18F132F3x       Rx   d 8 00 00 00 00 00 00 00 00
 0.001975 1  18F133F3x       Rx   d 8 00 00 00 00 00 00 00 00
 0.002050 1  18F134F3x       Rx   d 8 00 00 00 00 00 00 00 00
 0.002123 1  18F135F3x       Rx   d 8 00 00 00 00 00 00 00 00
 0.002197 1  18F136F3x       Rx   d 8 00 00 00 00 00 00 00 00
 0.002271 1  18F137F3x       Rx   d 8 00 00 00 00 00 00 00 00
 0.002345 1  18F138F3x       Rx   d 8 00 00 00 00 00 00 00 00
 0.002418 1  CFF21CAx        Rx   d 8 02 00 80 0C 3C 39 00 14
 0.002496 1  18F139F3x       Rx   d 8 00 00 00 00 00 00 00 00
 0.002582 1  18F13AF3x       Rx   d 8 00 00 00 00 00 00 00 00
 0.002662 1  18F13BF3x       Rx   d 8 00 00 00 00 00 00 00 00
 0.002736 1  18F13CF3x       Rx   d 8 00 00 00 00 00 00 00 00
 0.002810 1  18F155F3x       Rx   d 8 37 37 38 38 38 39 38 00
 0.002889 1  18F156F3x       Rx   d 8 00 00 00 00 00 00 00 00
 0.003591 1  18F157F3x       Rx   d 8 00 00 00 00 00 00 00 00
 0.004502 1  18F158F3x       Rx   d 8 00 00 00 00 00 00 00 00
 0.005339 1  18F159F3x       Rx   d 8 00 00 00 00 00 00 00 00
 0.006307 1  18F15AF3x       Rx   d 8 00 00 00 00 00 00 00 00
 0.007135 1  18F15BF3x       Rx   d 7 00 00 00 00 00 00 00
 0.008070 1  18F15CF3x       Rx   d 8 00 00 00 00 00 00 00 00
 0.008930 1  18F15DF3x       Rx   d 8 00 00 00 00 00 00 00 00
 0.009550 1  CFF21CAx        Rx   d 8 02 00 80 0C 3C 39 00 14
 0.010151 1  18F100D0x       Rx   d 8 0C FF FF FF FF FF FF FF
 0.010843 1  18F15EF3x       Rx   d 8 00 00 00 00 00 00 00 00
 0.011978 1  18FF2112x       Rx   d 8 01 00 00 00 00 00 00 00
 0.021531 1  CFF21CAx        Rx   d 8 02 00 80 0C 3C 39 00 14
 0.029529 1  18F100D0x       Rx   d 8 0C FF FF FF FF FF FF FF
 0.033578 1  CFF21CAx        Rx   d 8 02 00 80 0C 3C 39 00 14
 0.045647 1  CFF21CAx        Rx   d 8 02 00 80 0C 3C 39 00 14
 0.054658 1  18F100F3x       Rx   d 8 03 3B 7D 12 F5 FA 14 00
 0.055476 1  18F102F3x       Rx   d 8 10 2B 10 23 10 0C 00 08
 0.056718 1  18F106F3x       Rx   d 8 45 E0 FC FF FF FF FF FF
 0.057971 1  18F107F3x       Rx   d 8 38 A4 27 10 01 74 00 00
 0.058474 1  CFF21CAx        Rx   d 8 02 00 80 0C 3C 39 00 14
 0.059062 1  18F100D0x       Rx   d 8 0C FF FF FF FF FF FF FF
 0.059871 1  18F108F3x       Rx   d 8 00 00 00 00 00 00 00 00
 0.060800 1  18F155F3x       Rx   d 8 37 37 38 38 38 39 38 00
 0.061644 1  18F156F3x       Rx   d 8 00 00 00 00 00 00 00 00
 0.062529 1  18F157F3x       Rx   d 8 00 00 00 00 00 00 00 00
 0.063415 1  18F158F3x       Rx   d 8 00 00 00 00 00 00 00 00
 0.064520 1  18F159F3x       Rx   d 8 00 00 00 00 00 00 00 00
 0.065371 1  18F15AF3x       Rx   d 8 00 00 00 00 00 00 00 00
 0.066250 1  18F15BF3x       Rx   d 7 00 00 00 00 00 00 00
 0.067165 1  18F15CF3x       Rx   d 8 00 00 00 00 00 00 00 00
 0.068067 1  18F15DF3x       Rx   d 8 00 00 00 00 00 00 00 00
 0.068903 1  18F15EF3x       Rx   d 8 00 00 00 00 00 00 00 00
 0.069798 1  CFF21CAx        Rx   d 8 02 00 80 0C 3C 39 00 14
 0.081804 1  CFF21CAx        Rx   d 8 02 00 80 0C 3C 39 00 14
 0.082380 1  18F100D0x       Rx   d 8 0C FF FF FF FF FF FF FF
 0.093849 1  CFF21CAx        Rx   d 8 02 00 80 0C 3C 39 00 14
 0.105985 1  CFF21CAx        Rx   d 8 02 00 80 0C 3C 39 00 14
 0.109298 1  18FF2112x       Rx   d 8 01 00 00 00 00 00 00 00
 0.109937 1  18F100D0x       Rx   d 8 0C FF FF FF FF FF FF FF
 0.117945 1  CFF21CAx        Rx   d 8 02 00 80 0C 3C 39 00 14
 0.130101 1  CFF21CAx        Rx   d 8 02 00 80 0C 3C 39 00 14
 0.138108 1  18F100D0x       Rx   d 8 0C FF FF FF FF FF FF FF
 0.142113 1  CFF21CAx        Rx   d 8 02 00 80 0C 3C 39 00 14
 0.154526 1  CFF21CAx        Rx   d 8 02 00 80 0C 3C 39 00 14
 0.155021 1  18F100F3x       Rx   d 8 03 3B 7D 12 F5 FA 14 00
 0.155885 1  18F102F3x       Rx   d 8 10 2B 10 23 10 0C 00 08
 0.157356 1  18F106F3x       Rx   d 8 45 E0 FC FF FF FF FF FF
 0.158648 1  18F107F3x       Rx   d 8 38 A4 27 10 01 74 00 00
 0.160429 1  18F108F3x       Rx   d 8 00 00 00 00 00 00 00 00
 0.161218 1  18F155F3x       Rx   d 8 37 37 38 38 38 39 38 00
 0.162279 1  18F156F3x       Rx   d 8 00 00 00 00 00 00 00 00
 0.163058 1  18F157F3x       Rx   d 8 00 00 00 00 00 00 00 00
 0.164298 1  18F158F3x       Rx   d 8 00 00 00 00 00 00 00 00
 0.165187 1  18F159F3x       Rx   d 8 00 00 00 00 00 00 00 00
 0.166078 1  18F15AF3x       Rx   d 8 00 00 00 00 00 00 00 00
 0.166799 1  CFF21CAx        Rx   d 8 02 00 80 0C 3C 39 00 14
 0.167369 1  18F100D0x       Rx   d 8 0C FF FF FF FF FF FF FF
 0.167904 1  18F15BF3x       Rx   d 7 00 00 00 00 00 00 00
 0.168622 1  18F15CF3x       Rx   d 8 00 00 00 00 00 00 00 00
 0.169605 1  18F15DF3x       Rx   d 8 00 00 00 00 00 00 00 00
 0.170601 1  18F15EF3x       Rx   d 8 00 00 00 00 00 00 00 00
 0.178991 1  CFF21CAx        Rx   d 8 02 00 80 0C 3C 39 00 14
 0.186663 1  18F100D0x       Rx   d 8 0C FF FF FF FF FF FF FF
 0.190424 1  CFF21CAx        Rx   d 8 02 00 80 0C 3C 39 00 14
 0.202549 1  CFF21CAx        Rx   d 8 02 00 80 0C 3C 39 00 14
 0.212494 1  18FF2112x       Rx   d 8 01 00 00 00 00 00 00 00
 0.212666 1  18F100D0x       Rx   d 8 0C FF FF FF FF FF FF FF
 0.214380 1  CFF21CAx        Rx   d 8 02 00 80 0C 3C 39 00 14
 0.226386 1  CFF21CAx        Rx   d 8 02 00 80 0C 3C 39 00 14
 0.238506 1  CFF21CAx        Rx   d 8 02 00 80 0C 3C 39 00 14
 0.239014 1  18F100D0x       Rx   d 8 0C FF FF FF FF FF FF FF
 0.250965 1  CFF21CAx        Rx   d 8 02 00 80 0C 3C 39 00 14
 0.254655 1  18F100F3x       Rx   d 8 03 3B 7D 12 F5 FA 14 00
 0.255510 1  18F102F3x       Rx   d 8 10 2B 10 23 10 0C 00 08
 0.256778 1  18F106F3x       Rx   d 8 45 E0 FC FF FF FF FF FF
 0.257992 1  18F107F3x       Rx   d 8 38 A4 27 10 01 74 00 00
 0.259837 1  18F108F3x       Rx   d 8 00 00 00 00 00 00 00 00
 0.260632 1  18F155F3x       Rx   d 8 37 37 38 38 38 39 38 00
 0.261515 1  18F156F3x       Rx   d 8 00 00 00 00 00 00 00 00
 0.262387 1  18F157F3x       Rx   d 8 00 00 00 00 00 00 00 00
 0.262930 1  CFF21CAx        Rx   d 8 02 00 80 0C 3C 39 00 14
 0.263517 1  18F158F3x       Rx   d 8 00 00 00 00 00 00 00 00
 0.264518 1  18F159F3x       Rx   d 8 00 00 00 00 00 00 00 00
 0.265377 1  18F15AF3x       Rx   d 8 00 00 00 00 00 00 00 00
 0.266280 1  18F15BF3x       Rx   d 7 00 00 00 00 00 00 00
 0.266871 1  18F100D0x       Rx   d 8 0C FF FF FF FF FF FF FF
 0.267421 1  18F15CF3x       Rx   d 8 00 00 00 00 00 00 00 00
 0.268311 1  18F15DF3x       Rx   d 8 00 00 00 00 00 00 00 00
 0.269197 1  18F15EF3x       Rx   d 8 00 00 00 00 00 00 00 00
 0.274569 1  CFF21CAx        Rx   d 8 02 00 80 0C 3C 39 00 14
 0.286719 1  CFF21CAx        Rx   d 8 02 00 80 0C 3C 39 00 14
 0.287169 1  18F100D0x       Rx   d 8 0C FF FF FF FF FF FF FF
 0.298876 1  CFF21CAx        Rx   d 8 02 00 80 0C 3C 39 00 14
 0.303937 1  18FF2112x       Rx   d 8 01 00 00 00 00 00 00 00
 0.310901 1  CFF21CAx        Rx   d 8 02 00 80 0C 3C 39 00 14
 0.315261 1  18F100D0x       Rx   d 8 0C FF FF FF FF FF FF FF
 0.322884 1  CFF21CAx        Rx   d 8 02 00 80 0C 3C 39 00 14
 0.334810 1  CFF21CAx        Rx   d 8 02 00 80 0C 3C 39 00 14
 0.339025 1  18F100D0x       Rx   d 8 0C FF FF FF FF FF FF FF
 0.347353 1  CFF21CAx        Rx   d 8 02 00 80 0C 3C 39 00 14
 0.354646 1  18F100F3x       Rx   d 8 03 3B 7D 12 F5 FA 14 00
 0.355493 1  18F102F3x       Rx   d 8 10 2B 10 23 10 0C 00 08
 0.356722 1  18F106F3x       Rx   d 8 45 E0 FC FF FF FF FF FF
 0.357958 1  18F107F3x       Rx   d 8 38 A4 27 10 01 74 00 00
 0.359477 1  CFF21CAx        Rx   d 8 02 00 80 0C 3C 39 00 14
 0.360044 1  18F100D0x       Rx   d 8 0C FF FF FF FF FF FF FF
 0.360622 1  18F108F3x       Rx   d 8 00 00 00 00 00 00 00 00
 0.361506 1  18F155F3x       Rx   d 8 37 37 38 38 38 39 38 00
 0.362426 1  18F156F3x       Rx   d 8 00 00 00 00 00 00 00 00
 0.363363 1  18F157F3x       Rx   d 8 00 00 00 00 00 00 00 00
 0.364439 1  18F158F3x       Rx   d 8 00 00 00 00 00 00 00 00
 0.365342 1  18F159F3x       Rx   d 8 00 00 00 00 00 00 00 00
 0.366272 1  18F15AF3x       Rx   d 8 00 00 00 00 00 00 00 00
 0.367227 1  18F15BF3x       Rx   d 7 00 00 00 00 00 00 00
 0.368087 1  18F15CF3x       Rx   d 8 00 00 00 00 00 00 00 00
 0.368831 1  18F15DF3x       Rx   d 8 00 00 00 00 00 00 00 00
 0.369669 1  18F15EF3x       Rx   d 8 00 00 00 00 00 00 00 00
 0.371095 1  CFF21CAx        Rx   d 8 02 00 80 0C 3C 39 00 14
 0.379184 1  18F100D0x       Rx   d 8 0C FF FF FF FF FF FF FF
 0.383175 1  CFF21CAx        Rx   d 8 02 00 80 0C 3C 39 00 14
 0.395349 1  CFF21CAx        Rx   d 8 02 00 80 0C 3C 39 00 14
 0.399076 1  18F100D0x       Rx   d 8 0C FF FF FF FF FF FF FF
 0.401051 1  18FF2112x       Rx   d 8 01 00 00 00 00 00 00 00
 0.407364 1  CFF21CAx        Rx   d 8 02 00 80 0C 3C 39 00 14
 0.429077 1  CFF21CAx        Rx   d 8 02 00 80 0C 3C 39 00 14
 0.429239 1  18F100D0x       Rx   d 8 0C FF FF FF FF FF FF FF
 0.431230 1  CFF21CAx        Rx   d 8 02 00 80 0C 3C 39 00 14
 0.443326 1  CFF21CAx        Rx   d 8 02 00 80 0C 3C 39 00 14
 0.447387 1  18F100D0x       Rx   d 8 0C FF FF FF FF FF FF FF
 0.454655 1  18F100F3x       Rx   d 8 03 3B 7D 12 F5 FA 14 00
 0.455350 1  CFF21CAx        Rx   d 8 02 00 80 0C 3C 39 00 14
 0.455904 1  18F102F3x       Rx   d 8 10 2B 10 23 10 0C 00 08
 0.457186 1  18F106F3x       Rx   d 8 45 E0 FC FF FF FF FF FF
 0.458499 1  18F107F3x       Rx   d 8 38 A4 27 10 01 74 00 00
 0.460248 1  18F108F3x       Rx   d 8 00 00 00 00 00 00 00 00
 0.461169 1  18F155F3x       Rx   d 8 37 37 38 38 38 39 38 00
 0.462090 1  18F156F3x       Rx   d 8 00 00 00 00 00 00 00 00
 0.463133 1  18F157F3x       Rx   d 8 00 00 00 00 00 00 00 00
 0.464352 1  18F158F3x       Rx   d 8 00 00 00 00 00 00 00 00
 0.465377 1  18F159F3x       Rx   d 8 00 00 00 00 00 00 00 00
 0.466224 1  18F15AF3x       Rx   d 8 00 00 00 00 00 00 00 00
 0.467150 1  18F15BF3x       Rx   d 7 00 00 00 00 00 00 00
 0.467750 1  CFF21CAx        Rx   d 8 02 00 80 0C 3C 39 00 14
 0.468356 1  18F15CF3x       Rx   d 8 00 00 00 00 00 00 00 00
 0.469227 1  18F15DF3x       Rx   d 8 00 00 00 00 00 00 00 00
 0.470118 1  18F15EF3x       Rx   d 8 00 00 00 00 00 00 00 00
 0.471389 1  18F100D0x       Rx   d 8 0C FF FF FF FF FF FF FF
 0.479472 1  CFF21CAx        Rx   d 8 02 00 80 0C 3C 39 00 14
 0.491587 1  CFF21CAx        Rx   d 8 02 00 80 0C 3C 39 00 14
 0.492051 1  18FECACAx       Rx   d 8 00 00 00 00 00 00 FF FF
 0.498423 1  18FF2112x       Rx   d 8 01 00 00 00 00 00 00 00
 0.499515 1  18F100D0x       Rx   d 8 0C FF FF FF FF FF FF FF
 0.503557 1  CFF21CAx        Rx   d 8 02 00 80 0C 3C 39 00 14
 0.515584 1  CFF21CAx        Rx   d 8 02 00 80 0C 3C 39 00 14
 0.523619 1  18F100D0x       Rx   d 8 0C FF FF FF FF FF FF FF
 0.527775 1  CFF21CAx        Rx   d 8 02 00 80 0C 3C 39 00 14
 0.539701 1  CFF21CAx        Rx   d 8 02 00 80 0C 3C 39 00 14
 0.547741 1  18F100D0x       Rx   d 8 0C FF FF FF FF FF FF FF
 0.551883 1  CFF21CAx        Rx   d 8 02 00 80 0C 3C 39 00 14
 0.554606 1  18F100F3x       Rx   d 8 03 3B 7D 12 F5 FA 14 00
 0.555463 1  18F102F3x       Rx   d 8 10 2B 10 23 10 0C 00 08
 0.556796 1  18F106F3x       Rx   d 8 45 E0 FC FF FF FF FF FF
 0.558145 1  18F107F3x       Rx   d 8 38 A4 27 10 01 74 00 00
 0.559773 1  18F108F3x       Rx   d 8 00 00 00 00 00 00 00 00
 0.560591 1  18F155F3x       Rx   d 8 37 37 38 38 38 39 38 00
 0.561491 1  18F156F3x       Rx   d 8 00 00 00 00 00 00 00 00
 0.562489 1  18F157F3x       Rx   d 8 00 00 00 00 00 00 00 00
 0.563373 1  18F158F3x       Rx   d 8 00 00 00 00 00 00 00 00
 0.563911 1  CFF21CAx        Rx   d 8 02 00 80 0C 3C 39 00 14
 0.564526 1  18F159F3x       Rx   d 8 00 00 00 00 00 00 00 00
 0.565530 1  18F15AF3x       Rx   d 8 00 00 00 00 00 00 00 00
 0.566375 1  18F15BF3x       Rx   d 7 00 00 00 00 00 00 00
 0.567294 1  18F15CF3x       Rx   d 8 00 00 00 00 00 00 00 00
 0.567927 1  18F100D0x       Rx   d 8 0C FF FF FF FF FF FF FF
 0.568501 1  18F15DF3x       Rx   d 8 00 00 00 00 00 00 00 00
 0.569381 1  18F15EF3x       Rx   d 8 00 00 00 00 00 00 00 00
 0.575788 1  CFF21CAx        Rx   d 8 02 00 80 0C 3C 39 00 14
 0.587986 1  CFF21CAx        Rx   d 8 02 00 80 0C 3C 39 00 14
 0.588561 1  18F100D0x       Rx   d 8 0C FF FF FF FF FF FF FF
 0.595881 1  18FF2112x       Rx   d 8 01 00 00 00 00 00 00 00
 0.599875 1  CFF21CAx        Rx   d 8 02 00 80 0C 3C 39 00 14
 0.607942 1  18F100D0x       Rx   d 8 0C FF FF FF FF FF FF FF
 0.612191 1  CFF21CAx        Rx   d 8 02 00 80 0C 3C 39 00 14
 0.624231 1  CFF21CAx        Rx   d 8 02 00 80 0C 3C 39 00 14
 0.643832 1  CFF21CAx        Rx   d 8 02 00 80 0C 3C 39 00 14
 0.644031 1  18F100D0x       Rx   d 8 0C FF FF FF FF FF FF FF
 0.648118 1  CFF21CAx        Rx   d 8 02 00 80 0C 3C 39 00 14
 0.654671 1  18F100F3x       Rx   d 8 03 3B 7D 12 F5 FA 14 00
 0.655518 1  18F102F3x       Rx   d 8 10 2B 10 23 10 0C 00 08
 0.656231 1  18F100D0x       Rx   d 8 0C FF FF FF FF FF FF FF
 0.656829 1  18F106F3x       Rx   d 8 45 E0 FC FF FF FF FF FF
 0.658074 1  18F107F3x       Rx   d 8 38 A4 27 10 01 74 00 00
 0.659857 1  18F108F3x       Rx   d 8 00 00 00 00 00 00 00 00
 0.660402 1  CFF21CAx        Rx   d 8 02 00 80 0C 3C 39 00 14
 0.660958 1  18F155F3x       Rx   d 8 37 37 38 38 38 39 38 00
 0.661848 1  18F156F3x       Rx   d 8 00 00 00 00 00 00 00 00
 0.662757 1  18F157F3x       Rx   d 8 00 00 00 00 00 00 00 00
 0.663640 1  18F158F3x       Rx   d 8 00 00 00 00 00 00 00 00
 0.664505 1  18F159F3x       Rx   d 8 00 00 00 00 00 00 00 00
 0.665442 1  18F15AF3x       Rx   d 8 00 00 00 00 00 00 00 00
 0.666236 1  18F15BF3x       Rx   d 7 00 00 00 00 00 00 00
 0.667236 1  18F15CF3x       Rx   d 8 00 00 00 00 00 00 00 00
 0.668059 1  18F15DF3x       Rx   d 8 00 00 00 00 00 00 00 00
 0.668912 1  18F15EF3x       Rx   d 8 00 00 00 00 00 00 00 00
 0.672168 1  CFF21CAx        Rx   d 8 02 00 80 0C 3C 39 00 14
 0.684263 1  CFF21CAx        Rx   d 8 02 00 80 0C 3C 39 00 14
 0.684785 1  18F100D0x       Rx   d 8 0C FF FF FF FF FF FF FF
 0.693039 1  18FF2112x       Rx   d 8 01 00 00 00 00 00 00 00
 0.696373 1  CFF21CAx        Rx   d 8 02 00 80 0C 3C 39 00 14
 0.704480 1  18F100D0x       Rx   d 8 0C FF FF FF FF FF FF FF
 0.708356 1  CFF21CAx        Rx   d 8 02 00 80 0C 3C 39 00 14
 0.720536 1  CFF21CAx        Rx   d 8 02 00 80 0C 3C 39 00 14
 0.732481 1  CFF21CAx        Rx   d 8 02 00 80 0C 3C 39 00 14
 0.733150 1  18F100D0x       Rx   d 8 0C FF FF FF FF FF FF FF
 0.744656 1  CFF21CAx        Rx   d 8 02 00 80 0C 3C 39 00 14
 0.754823 1  18F100F3x       Rx   d 8 03 3B 7D 12 F5 FA 14 00
 0.755634 1  18F102F3x       Rx   d 8 10 2B 10 23 10 0C 00 08
 0.756704 1  CFF21CAx        Rx   d 8 02 00 80 0C 3C 39 00 14
 0.757284 1  18F106F3x       Rx   d 8 45 E0 FC FF FF FF FF FF
 0.758609 1  18F107F3x       Rx   d 8 38 A4 27 10 01 74 00 00
 0.760387 1  18F108F3x       Rx   d 8 00 00 00 00 00 00 00 00
 0.760963 1  18F100D0x       Rx   d 8 0C FF FF FF FF FF FF FF
 0.761374 1  18F155F3x       Rx   d 8 37 37 38 38 38 39 38 00
 0.762291 1  18F156F3x       Rx   d 8 00 00 00 00 00 00 00 00
 0.763295 1  18F157F3x       Rx   d 8 00 00 00 00 00 00 00 00
 0.764518 1  18F158F3x       Rx   d 8 00 00 00 00 00 00 00 00
 0.765419 1  18F159F3x       Rx   d 8 00 00 00 00 00 00 00 00
 0.766250 1  18F15AF3x       Rx   d 8 00 00 00 00 00 00 00 00
 0.767252 1  18F15BF3x       Rx   d 7 00 00 00 00 00 00 00
 0.768113 1  18F15CF3x       Rx   d 8 00 00 00 00 00 00 00 00
 0.768638 1  CFF21CAx        Rx   d 8 02 00 80 0C 3C 39 00 14
 0.769165 1  18F15DF3x       Rx   d 8 00 00 00 00 00 00 00 00
 0.770251 1  18F15EF3x       Rx   d 8 00 00 00 00 00 00 00 00
 0.780750 1  CFF21CAx        Rx   d 8 03 00 80 0C 3C 39 00 14
 0.781310 1  18F100D0x       Rx   d 8 0C FF FF FF FF FF FF FF
 0.790240 1  18FF2112x       Rx   d 8 01 00 00 00 00 00 00 00
 0.792725 1  CFF21CAx        Rx   d 8 03 00 80 0C 3C 39 00 14
 0.804936 1  CFF21CAx        Rx   d 8 03 00 80 0C 3C 39 00 14
 0.812836 1  18F100D0x       Rx   d 8 0C FF FF FF FF FF FF FF
 0.817316 1  CFF21CAx        Rx   d 8 03 00 80 0C 3C 39 00 14
 0.829059 1  CFF21CAx        Rx   d 8 03 00 80 0C 3C 39 00 14
 0.833082 1  18F100D0x       Rx   d 8 0C FF FF FF FF FF FF FF
 0.841428 1  CFF21CAx        Rx   d 8 03 00 80 0C 3C 39 00 14
 0.858927 1  CFF21CAx        Rx   d 8 03 00 80 0C 3C 39 00 14
 0.859058 1  18F100D0x       Rx   d 8 0C FF FF FF FF FF FF FF
 0.859169 1  18F100F3x       Rx   d 8 03 3B 7D 12 F5 FA 14 00
 0.859279 1  18F102F3x       Rx   d 8 10 2B 10 23 10 0C 00 08
 0.859388 1  18F106F3x       Rx   d 8 45 E0 FC FF FF FF FF FF
 0.859490 1  18F107F3x       Rx   d 8 38 A4 27 10 01 74 00 00
 0.860122 1  18F108F3x       Rx   d 8 00 00 00 00 00 00 00 00
 0.860940 1  18F155F3x       Rx   d 8 37 37 38 38 38 39 38 00
 0.861832 1  18F156F3x       Rx   d 8 00 00 00 00 00 00 00 00
 0.862731 1  18F157F3x       Rx   d 8 00 00 00 00 00 00 00 00
 0.863596 1  18F158F3x       Rx   d 8 00 00 00 00 00 00 00 00
 0.864586 1  18F159F3x       Rx   d 8 00 00 00 00 00 00 00 00
 0.865118 1  CFF21CAx        Rx   d 8 03 00 80 0C 3C 39 00 14
 0.865745 1  18F15AF3x       Rx   d 8 00 00 00 00 00 00 00 00
 0.866537 1  18F15BF3x       Rx   d 7 00 00 00 00 00 00 00
 0.867396 1  18F15CF3x       Rx   d 8 00 00 00 00 00 00 00 00
 0.868277 1  18F15DF3x       Rx   d 8 00 00 00 00 00 00 00 00
 0.869180 1  18F15EF3x       Rx   d 8 00 00 00 00 00 00 00 00
 0.873148 1  18F100D0x       Rx   d 8 0C FF FF FF FF FF FF FF
 0.877046 1  CFF21CAx        Rx   d 8 03 00 80 0C 3C 39 00 14
 0.887480 1  18FF2112x       Rx   d 8 01 00 00 00 00 00 00 00
 0.889501 1  CFF21CAx        Rx   d 8 03 00 80 0C 3C 39 00 14
 0.901103 1  CFF21CAx        Rx   d 8 03 00 80 0C 3C 39 00 14
 0.901663 1  18F100D0x       Rx   d 8 0C FF FF FF FF FF FF FF
 0.913220 1  CFF21CAx        Rx   d 8 03 00 80 0C 3C 39 00 14
 0.925220 1  CFF21CAx        Rx   d 8 03 00 80 0C 3C 39 00 14
 0.929307 1  18F100D0x       Rx   d 8 0C FF FF FF FF FF FF FF
 0.937506 1  CFF21CAx        Rx   d 8 03 00 80 0C 3C 39 00 14
 0.949446 1  CFF21CAx        Rx   d 8 03 00 80 0C 3C 39 00 14
 0.950021 1  18F100D0x       Rx   d 8 0C FF FF FF FF FF FF FF
 0.953044 1  18F104F3x       Rx   d 8 39 37 06 01 02 FF FF FF
 0.953942 1  18F113F3x       Rx   d 8 10 25 10 27 10 27 10 26
 0.954824 1  18F100F3x       Rx   d 8 03 3B 7D 12 F5 FA 14 00
 0.955564 1  18F102F3x       Rx   d 8 10 2B 10 23 10 0C 00 08
 0.956984 1  18F106F3x       Rx   d 8 45 E0 FC FF FF FF FF FF
 0.958345 1  18F107F3x       Rx   d 8 38 A4 27 10 01 74 00 00
 0.960103 1  18F108F3x       Rx   d 8 00 00 00 00 00 00 00 00
 0.961155 1  18F114F3x       Rx   d 8 10 25 10 24 10 27 10 27
 0.961865 1  CFF21CAx        Rx   d 8 03 00 80 0C 3C 39 00 14
 0.962320 1  18F115F3x       Rx   d 8 10 24 10 24 10 25 10 23
 0.963386 1  18F116F3x       Rx   d 8 10 28 10 27 10 28 10 2B
 0.964646 1  18F117F3x       Rx   d 8 10 26 10 27 10 2A 10 2A
 0.965597 1  18F118F3x       Rx   d 8 00 00 00 00 00 00 00 00
 0.966528 1  18F119F3x       Rx   d 8 00 00 00 00 00 00 00 00
 0.967573 1  18F11AF3x       Rx   d 8 00 00 00 00 00 00 00 00
 0.968526 1  18F11BF3x       Rx   d 8 00 00 00 00 00 00 00 00
 0.969500 1  18F11CF3x       Rx   d 8 00 00 00 00 00 00 00 00
 0.970466 1  18F11DF3x       Rx   d 8 00 00 00 00 00 00 00 00
 0.971293 1  18F11EF3x       Rx   d 8 00 00 00 00 00 00 00 00
 0.972397 1  18F11FF3x       Rx   d 8 00 00 00 00 00 00 00 00
 0.973363 1  18F120F3x       Rx   d 8 00 00 00 00 00 00 00 00
 0.973950 1  CFF21CAx        Rx   d 8 03 00 80 0C 3C 39 00 14
 0.974518 1  18F100D0x       Rx   d 8 0C FF FF FF FF FF FF FF
 0.975043 1  18F121F3x       Rx   d 8 00 00 00 00 00 00 00 00
 0.976001 1  18F122F3x       Rx   d 8 00 00 00 00 00 00 00 00
 0.976941 1  18F123F3x       Rx   d 8 00 00 00 00 00 00 00 00
 0.977834 1  18F124F3x       Rx   d 8 00 00 00 00 00 00 00 00
 0.978750 1  18F125F3x       Rx   d 8 00 00 00 00 00 00 00 00
 0.979514 1  18F126F3x       Rx   d 8 00 00 00 00 00 00 00 00
 0.980566 1  18F127F3x       Rx   d 8 00 00 00 00 00 00 00 00
 0.981490 1  18F128F3x       Rx   d 8 00 00 00 00 00 00 00 00
 0.982442 1  18F129F3x       Rx   d 8 00 00 00 00 00 00 00 00
 0.983361 1  18F12AF3x       Rx   d 8 00 00 00 00 00 00 00 00
 0.984596 1  18F12BF3x       Rx   d 8 00 00 00 00 00 00 00 00
 0.985181 1  18FF2112x       Rx   d 8 01 00 00 00 00 00 00 00
 0.985771 1  18F12CF3x       Rx   d 8 00 00 00 00 00 00 00 00
 0.986338 1  CFF21CAx        Rx   d 8 03 00 80 0C 3C 39 00 14
 0.986931 1  18F12DF3x       Rx   d 8 00 00 00 00 00 00 00 00
 0.987670 1  18F12EF3x       Rx   d 8 00 00 00 00 00 00 00 00
 0.988719 1  18F12FF3x       Rx   d 8 00 00 00 00 00 00 00 00
 0.989600 1  18F130F3x       Rx   d 8 00 00 00 00 00 00 00 00
 0.990486 1  18F131F3x       Rx   d 8 00 00 00 00 00 00 00 00
 0.991413 1  18F132F3x       Rx   d 8 00 00 00 00 00 00 00 00
 0.992238 1  18F133F3x       Rx   d 8 00 00 00 00 00 00 00 00
 0.993133 1  18F134F3x       Rx   d 8 00 00 00 00 00 00 00 00
 0.994361 1  18F135F3x       Rx   d 8 00 00 00 00 00 00 00 00
 0.995271 1  18F136F3x       Rx   d 8 00 00 00 00 00 00 00 00
 0.996194 1  18F137F3x       Rx   d 8 00 00 00 00 00 00 00 00
 0.997112 1  18F138F3x       Rx   d 8 00 00 00 00 00 00 00 00
 0.997816 1  CFF21CAx        Rx   d 8 03 00 80 0C 3C 39 00 14
 0.998396 1  18F100D0x       Rx   d 8 0C FF FF FF FF FF FF FF
 0.998971 1  18F139F3x       Rx   d 8 00 00 00 00 00 00 00 00
 0.999920 1  18F13AF3x       Rx   d 8 00 00 00 00 00 00 00 00
 1.000562 1  18F13BF3x       Rx   d 8 00 00 00 00 00 00 00 00
 1.001562 1  18F13CF3x       Rx   d 8 00 00 00 00 00 00 00 00
 1.002465 1  18F155F3x       Rx   d 8 37 37 38 38 38 39 38 00
 1.003394 1  18F156F3x       Rx   d 8 00 00 00 00 00 00 00 00
 1.004450 1  18F157F3x       Rx   d 8 00 00 00 00 00 00 00 00
 1.005472 1  18F158F3x       Rx   d 8 00 00 00 00 00 00 00 00
 1.006404 1  18F159F3x       Rx   d 8 00 00 00 00 00 00 00 00
 1.007316 1  18F15AF3x       Rx   d 8 00 00 00 00 00 00 00 00
 1.008171 1  18F15BF3x       Rx   d 7 00 00 00 00 00 00 00
 1.008911 1  18F15CF3x       Rx   d 8 00 00 00 00 00 00 00 00
 1.009912 1  18F15DF3x       Rx   d 8 00 00 00 00 00 00 00 00
 1.010464 1  CFF21CAx        Rx   d 8 03 00 80 0C 3C 39 00 14
 1.011042 1  18F15EF3x       Rx   d 8 00 00 00 00 00 00 00 00
 1.018146 1  18F100D0x       Rx   d 8 0C FF FF FF FF FF FF FF
 1.021717 1  CFF21CAx        Rx   d 8 03 00 80 0C 3C 39 00 14
 1.033825 1  CFF21CAx        Rx   d 8 03 00 80 0C 3C 39 00 14
 1.045689 1  CFF21CAx        Rx   d 8 03 00 80 0C 3C 39 00 14
 1.046264 1  18F100D0x       Rx   d 8 0C FF FF FF FF FF FF FF
 1.054633 1  18F100F3x       Rx   d 8 03 3B 7D 12 F5 FA 14 00
 1.055652 1  18F102F3x       Rx   d 8 10 2B 10 23 10 0C 00 08
 1.056934 1  18F106F3x       Rx   d 8 45 E0 FC FF FF FF FF FF
 1.058131 1  18F107F3x       Rx   d 8 38 A4 27 10 01 74 00 00
 1.058546 1  CFF21CAx        Rx   d 8 03 00 80 0C 3C 39 00 14
 1.059773 1  18F108F3x       Rx   d 8 00 00 00 00 00 00 00 00
 1.060644 1  18F155F3x       Rx   d 8 37 37 38 38 38 39 38 00
 1.061528 1  18F156F3x       Rx   d 8 00 00 00 00 00 00 00 00
 1.062393 1  18F157F3x       Rx   d 8 00 00 00 00 00 00 00 00
 1.063485 1  18F158F3x       Rx   d 8 00 00 00 00 00 00 00 00
 1.064667 1  18F159F3x       Rx   d 8 00 00 00 00 00 00 00 00
 1.075508 1  18F15AF3x       Rx   d 8 00 00 00 00 00 00 00 00
 1.075668 1  18F100D0x       Rx   d 8 0C FF FF FF FF FF FF FF
 1.075787 1  18F15BF3x       Rx   d 7 00 00 00 00 00 00 00
 1.075909 1  18F15CF3x       Rx   d 8 00 00 00 00 00 00 00 00
 1.076094 1  18F15DF3x       Rx   d 8 00 00 00 00 00 00 00 00
 1.076261 1  18F15EF3x       Rx   d 8 00 00 00 00 00 00 00 00
 1.076393 1  CFF21CAx        Rx   d 8 03 00 80 0C 3C 39 00 14
 1.082043 1  18FF2112x       Rx   d 8 01 00 00 00 00 00 00 00
 1.082609 1  CFF21CAx        Rx   d 8 03 00 80 0C 3C 39 00 14
 1.085881 1  18F100D0x       Rx   d 8 0C FF FF FF FF FF FF FF
 1.093916 1  CFF21CAx        Rx   d 8 03 00 80 0C 3C 39 00 14
 1.106114 1  CFF21CAx        Rx   d 8 02 00 80 0C 3C 39 00 14
 1.106636 1  18F100D0x       Rx   d 8 0C FF FF FF FF FF FF FF
 1.118084 1  CFF21CAx        Rx   d 8 02 00 80 0C 3C 39 00 14
