date Sat May 09 09:46:36.953 2026
base hex  timestamps absolute
internal events logged
Begin Triggerblock Sat May 09 09:46:36.958 2026
 0.000000 Start of measurement
 0.000000 1  CFF21CAx        Rx   d 8 2A 00 40 16 3D 3A 00 14
 0.000166 1  18FF2112x       Rx   d 8 01 00 00 00 00 00 00 00
 0.000264 1  CFF21CAx        Rx   d 8 2A 00 43 16 3D 3A 00 14
 0.000361 1  18F100D0x       Rx   d 8 0C FF FF FF FF FF FF FF
 0.006007 1  CFF21CAx        Rx   d 8 29 00 44 16 3D 3A 00 14
 0.006624 1  18FECACAx       Rx   d 8 00 00 00 00 00 00 FF FF
 0.018504 1  CFF21CAx        Rx   d 8 29 00 46 16 3D 3A 00 14
 0.019127 1  18F100D0x       Rx   d 8 0C FF FF FF FF FF FF FF
 0.019643 1  18F100F3x       Rx   d 8 03 38 7E 60 F5 FA 14 00
 0.020586 1  18F102F3x       Rx   d 8 10 1A 10 13 10 0C 00 07
 0.021879 1  18F106F3x       Rx   d 8 45 E0 FC FF FF FF FF FF
 0.023126 1  18F107F3x       Rx   d 8 38 A4 27 10 01 73 00 00
 0.024878 1  18F108F3x       Rx   d 8 00 00 00 00 00 00 00 00
 0.025785 1  18F155F3x       Rx   d 8 37 37 38 38 38 39 38 00
 0.026911 1  18F156F3x       Rx   d 8 00 00 00 00 00 00 00 00
 0.027802 1  18F157F3x       Rx   d 8 00 00 00 00 00 00 00 00
 0.028689 1  18F158F3x       Rx   d 8 00 00 00 00 00 00 00 00
 0.029634 1  18F159F3x       Rx   d 8 00 00 00 00 00 00 00 00
 0.030142 1  CFF21CAx        Rx   d 8 29 00 46 16 3D 3A 00 14
 0.030713 1  18F15AF3x       Rx   d 8 00 00 00 00 00 00 00 00
 0.031576 1  18F15BF3x       Rx   d 7 00 00 00 00 00 00 00
 0.032492 1  18F15CF3x       Rx   d 8 00 00 00 00 00 00 00 00
 0.033377 1  18F15DF3x       Rx   d 8 00 00 00 00 00 00 00 00
 0.034231 1  18F15EF3x       Rx   d 8 00 00 00 00 00 00 00 00
 0.042673 1  CFF21CAx        Rx   d 8 28 00 42 16 3D 3A 00 14
 0.046198 1  18F100D0x       Rx   d 8 0C FF FF FF FF FF FF FF
 0.054663 1  CFF21CAx        Rx   d 8 28 00 45 16 3D 3A 00 14
 0.066665 1  CFF21CAx        Rx   d 8 27 00 3E 16 3D 3A 00 14
 0.070304 1  18F100D0x       Rx   d 8 0C FF FF FF FF FF FF FF
 0.078267 1  CFF21CAx        Rx   d 8 27 00 41 16 3D 3A 00 14
 0.079641 1  18FF2112x       Rx   d 8 01 00 00 00 00 00 00 00
 0.090899 1  CFF21CAx        Rx   d 8 27 00 3E 16 3D 3A 00 14
 0.094434 1  18F100D0x       Rx   d 8 0C FF FF FF FF FF FF FF
 0.102411 1  CFF21CAx        Rx   d 8 27 00 37 16 3D 3A 00 14
 0.114302 1  18F104F3x       Rx   d 8 39 37 06 01 02 FF FF FF
 0.115098 1  CFF21CAx        Rx   d 8 27 00 35 16 3D 3A 00 14
 0.115612 1  18F113F3x       Rx   d 8 10 16 10 15 10 15 10 16
 0.116865 1  18F114F3x       Rx   d 8 10 14 10 14 10 17 10 16
 0.117740 1  18F115F3x       Rx   d 8 10 14 10 15 10 15 10 13
 0.118522 1  18F100D0x       Rx   d 8 0C FF FF FF FF FF FF FF
 0.119102 1  18F116F3x       Rx   d 8 10 18 10 17 10 19 10 1A
 0.120090 1  18F100F3x       Rx   d 8 03 38 7E 60 F5 FA 14 00
 0.120934 1  18F102F3x       Rx   d 8 10 1A 10 13 10 0C 00 07
 0.122406 1  18F106F3x       Rx   d 8 45 E0 FC FF FF FF FF FF
 0.123676 1  18F107F3x       Rx   d 8 38 A4 27 10 01 73 00 00
 0.125486 1  18F108F3x       Rx   d 8 00 00 00 00 00 00 00 00
 0.126808 1  18F117F3x       Rx   d 8 10 16 10 16 10 1A 10 19
 0.127328 1  CFF21CAx        Rx   d 8 27 00 30 16 3D 3A 00 14
 0.127909 1  18F118F3x       Rx   d 8 00 00 00 00 00 00 00 00
 0.128918 1  18F119F3x       Rx   d 8 00 00 00 00 00 00 00 00
 0.129835 1  18F11AF3x       Rx   d 8 00 00 00 00 00 00 00 00
 0.130807 1  18F11BF3x       Rx   d 8 00 00 00 00 00 00 00 00
 0.131809 1  18F11CF3x       Rx   d 8 00 00 00 00 00 00 00 00
 0.132766 1  18F11DF3x       Rx   d 8 00 00 00 00 00 00 00 00
 0.133738 1  18F11EF3x       Rx   d 8 00 00 00 00 00 00 00 00
 0.134722 1  18F11FF3x       Rx   d 8 00 00 00 00 00 00 00 00
 0.135700 1  18F120F3x       Rx   d 8 00 00 00 00 00 00 00 00
 0.136938 1  18F121F3x       Rx   d 8 00 00 00 00 00 00 00 00
 0.137844 1  18F122F3x       Rx   d 8 00 00 00 00 00 00 00 00
 0.138764 1  18F123F3x       Rx   d 8 00 00 00 00 00 00 00 00
 0.139274 1  CFF21CAx        Rx   d 8 28 00 2B 16 3D 3A 00 14
 0.139834 1  18F124F3x       Rx   d 8 00 00 00 00 00 00 00 00
 0.140738 1  18F125F3x       Rx   d 8 00 00 00 00 00 00 00 00
 0.141774 1  18F126F3x       Rx   d 8 00 00 00 00 00 00 00 00
 0.142592 1  18F100D0x       Rx   d 8 0C FF FF FF FF FF FF FF
 0.143173 1  18F127F3x       Rx   d 8 00 00 00 00 00 00 00 00
 0.144046 1  18F128F3x       Rx   d 8 00 00 00 00 00 00 00 00
 0.145019 1  18F129F3x       Rx   d 8 00 00 00 00 00 00 00 00
 0.145838 1  18F12AF3x       Rx   d 8 00 00 00 00 00 00 00 00
 0.146924 1  18F12BF3x       Rx   d 8 00 00 00 00 00 00 00 00
 0.147792 1  18F12CF3x       Rx   d 8 00 00 00 00 00 00 00 00
 0.148812 1  18F12DF3x       Rx   d 8 00 00 00 00 00 00 00 00
 0.149735 1  18F12EF3x       Rx   d 8 00 00 00 00 00 00 00 00
 0.150702 1  18F12FF3x       Rx   d 8 00 00 00 00 00 00 00 00
 0.151213 1  CFF21CAx        Rx   d 8 28 00 2D 16 3D 3A 00 14
 0.151703 1  18F130F3x       Rx   d 8 00 00 00 00 00 00 00 00
 0.152744 1  18F131F3x       Rx   d 8 00 00 00 00 00 00 00 00
 0.153718 1  18F132F3x       Rx   d 8 00 00 00 00 00 00 00 00
 0.154652 1  18F133F3x       Rx   d 8 00 00 00 00 00 00 00 00
 0.155641 1  18F134F3x       Rx   d 8 00 00 00 00 00 00 00 00
 0.156772 1  18F135F3x       Rx   d 8 00 00 00 00 00 00 00 00
 0.157712 1  18F136F3x       Rx   d 8 00 00 00 00 00 00 00 00
 0.158633 1  18F137F3x       Rx   d 8 00 00 00 00 00 00 00 00
 0.159554 1  18F138F3x       Rx   d 8 00 00 00 00 00 00 00 00
 0.160267 1  18F139F3x       Rx   d 8 00 00 00 00 00 00 00 00
 0.161308 1  18F13AF3x       Rx   d 8 00 00 00 00 00 00 00 00
 0.162176 1  18F13BF3x       Rx   d 8 00 00 00 00 00 00 00 00
 0.163015 1  18F13CF3x       Rx   d 8 00 00 00 00 00 00 00 00
 0.163563 1  CFF21CAx        Rx   d 8 2A 00 2B 16 3D 3A 00 14
 0.164047 1  18F155F3x       Rx   d 8 37 37 38 38 38 39 38 00
 0.164991 1  18F156F3x       Rx   d 8 00 00 00 00 00 00 00 00
 0.165895 1  18F157F3x       Rx   d 8 00 00 00 00 00 00 00 00
 0.166827 1  18F100D0x       Rx   d 8 0C FF FF FF FF FF FF FF
 0.167396 1  18F158F3x       Rx   d 8 00 00 00 00 00 00 00 00
 0.168171 1  18F159F3x       Rx   d 8 00 00 00 00 00 00 00 00
 0.169165 1  18F15AF3x       Rx   d 8 00 00 00 00 00 00 00 00
 0.169946 1  18F15BF3x       Rx   d 7 00 00 00 00 00 00 00
 0.170818 1  18F15CF3x       Rx   d 8 00 00 00 00 00 00 00 00
 0.171728 1  18F15DF3x       Rx   d 8 00 00 00 00 00 00 00 00
 0.172451 1  18F15EF3x       Rx   d 8 00 00 00 00 00 00 00 00
 0.174844 1  CFF21CAx        Rx   d 8 2A 00 29 16 3D 3A 00 14
 0.176921 1  18FF2112x       Rx   d 8 01 00 00 00 00 00 00 00
 0.187419 1  CFF21CAx        Rx   d 8 2A 00 2A 16 3D 3A 00 14
 0.190961 1  18F100D0x       Rx   d 8 0C FF FF FF FF FF FF FF
 0.198948 1  CFF21CAx        Rx   d 8 2B 00 2A 16 3D 3A 00 14
 0.216268 1  CFF21CAx        Rx   d 8 2B 00 29 16 3D 3A 00 14
 0.216405 1  18F100D0x       Rx   d 8 0C FF FF FF FF FF FF FF
 0.218842 1  18F100F3x       Rx   d 8 03 38 7E 60 F5 FA 14 00
 0.219717 1  18F102F3x       Rx   d 8 10 1A 10 13 10 0C 00 07
 0.221079 1  18F106F3x       Rx   d 8 45 E0 FC FF FF FF FF FF
 0.222267 1  18F107F3x       Rx   d 8 38 A4 27 10 01 73 00 00
 0.223414 1  CFF21CAx        Rx   d 8 2B 00 2F 16 3D 3A 00 14
 0.224080 1  18F108F3x       Rx   d 8 00 00 00 00 00 00 00 00
 0.224916 1  18F155F3x       Rx   d 8 37 37 38 38 38 39 38 00
 0.225799 1  18F156F3x       Rx   d 8 00 00 00 00 00 00 00 00
 0.226923 1  18F157F3x       Rx   d 8 00 00 00 00 00 00 00 00
 0.227831 1  18F158F3x       Rx   d 8 00 00 00 00 00 00 00 00
 0.228739 1  18F159F3x       Rx   d 8 00 00 00 00 00 00 00 00
 0.229664 1  18F15AF3x       Rx   d 8 00 00 00 00 00 00 00 00
 0.230524 1  18F15BF3x       Rx   d 7 00 00 00 00 00 00 00
 0.231394 1  18F15CF3x       Rx   d 8 00 00 00 00 00 00 00 00
 0.232238 1  18F15DF3x       Rx   d 8 00 00 00 00 00 00 00 00
 0.233089 1  18F15EF3x       Rx   d 8 00 00 00 00 00 00 00 00
 0.235422 1  CFF21CAx        Rx   d 8 2C 00 30 16 3D 3A 00 14
 0.239115 1  18F100D0x       Rx   d 8 0C FF FF FF FF FF FF FF
 0.247089 1  CFF21CAx        Rx   d 8 2C 00 31 16 3D 3A 00 14
 0.259570 1  CFF21CAx        Rx   d 8 2C 00 31 16 3D 3A 00 14
 0.263126 1  18F100D0x       Rx   d 8 0C FF FF FF FF FF FF FF
 0.271130 1  CFF21CAx        Rx   d 8 2E 00 2F 16 3D 3A 00 14
 0.274255 1  18FF2112x       Rx   d 8 01 00 00 00 00 00 00 00
 0.283669 1  CFF21CAx        Rx   d 8 2E 00 30 16 3D 3A 00 14
 0.287206 1  18F100D0x       Rx   d 8 0C FF FF FF FF FF FF FF
 0.295252 1  CFF21CAx        Rx   d 8 2E 00 30 16 3D 3A 00 14
 0.307906 1  CFF21CAx        Rx   d 8 2E 00 30 16 3D 3A 00 14
 0.311425 1  18F100D0x       Rx   d 8 0C FF FF FF FF FF FF FF
 0.318852 1  18F100F3x       Rx   d 8 03 38 7E 69 F5 FA 14 00
 0.319374 1  CFF21CAx        Rx   d 8 2E 00 2E 16 3D 3A 00 14
 0.319909 1  18F102F3x       Rx   d 8 10 1B 10 13 10 0C 00 08
 0.321168 1  18F106F3x       Rx   d 8 45 E0 FC FF FF FF FF FF
 0.322452 1  18F107F3x       Rx   d 8 38 A4 27 10 01 73 00 00
 0.324247 1  18F108F3x       Rx   d 8 00 00 00 00 00 00 00 00
 0.325154 1  18F155F3x       Rx   d 8 37 37 38 38 38 39 38 00
 0.326046 1  18F156F3x       Rx   d 8 00 00 00 00 00 00 00 00
 0.326926 1  18F157F3x       Rx   d 8 00 00 00 00 00 00 00 00
 0.327937 1  18F158F3x       Rx   d 8 00 00 00 00 00 00 00 00
 0.328875 1  18F159F3x       Rx   d 8 00 00 00 00 00 00 00 00
 0.329766 1  18F15AF3x       Rx   d 8 00 00 00 00 00 00 00 00
 0.330621 1  18F15BF3x       Rx   d 7 00 00 00 00 00 00 00
 0.331377 1  18F15CF3x       Rx   d 8 00 00 00 00 00 00 00 00
 0.331941 1  CFF21CAx        Rx   d 8 2E 00 31 16 3D 3A 00 14
 0.332509 1  18F15DF3x       Rx   d 8 00 00 00 00 00 00 00 00
 0.333368 1  18F15EF3x       Rx   d 8 00 00 00 00 00 00 00 00
 0.335517 1  18F100D0x       Rx   d 8 0C FF FF FF FF FF FF FF
 0.343677 1  CFF21CAx        Rx   d 8 2E 00 34 16 3D 3A 00 14
 0.355853 1  CFF21CAx        Rx   d 8 2E 00 36 16 3D 3A 00 14
 0.359533 1  18F100D0x       Rx   d 8 0C FF FF FF FF FF FF FF
 0.367546 1  CFF21CAx        Rx   d 8 2D 00 3A 16 3D 3A 00 14
 0.371511 1  18FF2112x       Rx   d 8 01 00 00 00 00 00 00 00
 0.380351 1  CFF21CAx        Rx   d 8 2D 00 3B 16 3D 3A 00 14
 0.383662 1  18F100D0x       Rx   d 8 0C FF FF FF FF FF FF FF
 0.391655 1  CFF21CAx        Rx   d 8 2D 00 40 16 3D 3A 00 14
 0.404112 1  CFF21CAx        Rx   d 8 2D 00 40 16 3D 3A 00 14
 0.408024 1  18F100D0x       Rx   d 8 0C FF FF FF FF FF FF FF
 0.415854 1  CFF21CAx        Rx   d 8 2D 00 42 16 3D 3A 00 14
 0.418992 1  18F100F3x       Rx   d 8 03 38 7E 69 F5 FA 14 00
 0.419855 1  18F102F3x       Rx   d 8 10 1B 10 13 10 0C 00 08
 0.421235 1  18F106F3x       Rx   d 8 45 E0 FC FF FF FF FF FF
 0.422353 1  18F107F3x       Rx   d 8 38 A4 27 10 01 73 00 00
 0.436929 1  18F108F3x       Rx   d 8 00 00 00 00 00 00 00 00
 0.437073 1  18F155F3x       Rx   d 8 37 37 38 38 38 39 38 00
 0.437190 1  18F156F3x       Rx   d 8 00 00 00 00 00 00 00 00
 0.437362 1  18F157F3x       Rx   d 8 00 00 00 00 00 00 00 00
 0.437485 1  18F158F3x       Rx   d 8 00 00 00 00 00 00 00 00
 0.437594 1  CFF21CAx        Rx   d 8 2B 00 40 16 3D 3A 00 14
 0.437697 1  18F159F3x       Rx   d 8 00 00 00 00 00 00 00 00
 0.437820 1  18F15AF3x       Rx   d 8 00 00 00 00 00 00 00 00
 0.437979 1  18F15BF3x       Rx   d 7 00 00 00 00 00 00 00
 0.438117 1  18F15CF3x       Rx   d 8 00 00 00 00 00 00 00 00
 0.438242 1  18F15DF3x       Rx   d 8 00 00 00 00 00 00 00 00
 0.438343 1  18F15EF3x       Rx   d 8 00 00 00 00 00 00 00 00
 0.438440 1  18F100D0x       Rx   d 8 0C FF FF FF FF FF FF FF
 0.439826 1  CFF21CAx        Rx   d 8 2B 00 41 16 3D 3A 00 14
 0.451897 1  CFF21CAx        Rx   d 8 2B 00 3E 16 3D 3A 00 14
 0.460387 1  18F100D0x       Rx   d 8 0C FF FF FF FF FF FF FF
 0.463920 1  CFF21CAx        Rx   d 8 2B 00 3D 16 3D 3A 00 14
 0.468827 1  18FF2112x       Rx   d 8 01 00 00 00 00 00 00 00
 0.476524 1  CFF21CAx        Rx   d 8 2B 00 3C 16 3D 3A 00 14
 0.484112 1  18F100D0x       Rx   d 8 0C FF FF FF FF FF FF FF
 0.488093 1  CFF21CAx        Rx   d 8 2B 00 39 16 3D 3A 00 14
 0.500115 1  CFF21CAx        Rx   d 8 2B 00 38 16 3D 3A 00 14
 0.508688 1  18F100D0x       Rx   d 8 0C FF FF FF FF FF FF FF
 0.512203 1  CFF21CAx        Rx   d 8 2B 00 33 16 3D 3A 00 14
 0.518861 1  18F100F3x       Rx   d 8 03 38 7E 74 F5 FA 14 00
 0.519716 1  18F102F3x       Rx   d 8 10 1B 10 13 10 0C 00 08
 0.521112 1  18F106F3x       Rx   d 8 45 E0 FC FF FF FF FF FF
 0.522317 1  18F107F3x       Rx   d 8 38 A4 27 10 01 73 00 00
 0.524085 1  18F108F3x       Rx   d 8 00 00 00 00 00 00 00 00
 0.524607 1  CFF21CAx        Rx   d 8 2B 00 38 16 3D 3A 00 14
 0.525177 1  18F155F3x       Rx   d 8 37 37 38 38 38 39 38 00
 0.526095 1  18F156F3x       Rx   d 8 00 00 00 00 00 00 00 00
 0.527009 1  18F157F3x       Rx   d 8 00 00 00 00 00 00 00 00
 0.527903 1  18F158F3x       Rx   d 8 00 00 00 00 00 00 00 00
 0.528803 1  18F159F3x       Rx   d 8 00 00 00 00 00 00 00 00
 0.529636 1  18F15AF3x       Rx   d 8 00 00 00 00 00 00 00 00
 0.530704 1  18F15BF3x       Rx   d 7 00 00 00 00 00 00 00
 0.531408 1  18F15CF3x       Rx   d 8 00 00 00 00 00 00 00 00
 0.532203 1  18F100D0x       Rx   d 8 0C FF FF FF FF FF FF FF
 0.532777 1  18F15DF3x       Rx   d 8 00 00 00 00 00 00 00 00
 0.533651 1  18F15EF3x       Rx   d 8 00 00 00 00 00 00 00 00
 0.536376 1  CFF21CAx        Rx   d 8 2B 00 33 16 3D 3A 00 14
 0.548378 1  CFF21CAx        Rx   d 8 2B 00 35 16 3D 3A 00 14
 0.556501 1  18F100D0x       Rx   d 8 0C FF FF FF FF FF FF FF
 0.560374 1  CFF21CAx        Rx   d 8 2B 00 37 16 3D 3A 00 14
 0.566135 1  18FF2112x       Rx   d 8 01 00 00 00 00 00 00 00
 0.572529 1  CFF21CAx        Rx   d 8 2B 00 3D 16 3D 3A 00 14
 0.584450 1  CFF21CAx        Rx   d 8 2C 00 38 16 3D 3A 00 14
 0.585135 1  18F100D0x       Rx   d 8 0C FF FF FF FF FF FF FF
 0.596726 1  CFF21CAx        Rx   d 8 2C 00 3D 16 3D 3A 00 14
 0.604597 1  18F100D0x       Rx   d 8 0C FF FF FF FF FF FF FF
 0.608577 1  CFF21CAx        Rx   d 8 2C 00 39 16 3D 3A 00 14
 0.619040 1  18F100F3x       Rx   d 8 03 38 7E 74 F5 FA 14 00
 0.619726 1  18F102F3x       Rx   d 8 10 1B 10 13 10 0C 00 08
 0.621190 1  CFF21CAx        Rx   d 8 2C 00 38 16 3D 3A 00 14
 0.621683 1  18F106F3x       Rx   d 8 45 E0 FC FF FF FF FF FF
 0.623004 1  18F107F3x       Rx   d 8 38 A4 27 10 01 73 00 00
 0.624729 1  18F108F3x       Rx   d 8 00 00 00 00 00 00 00 00
 0.625633 1  18F155F3x       Rx   d 8 37 37 38 38 38 39 38 00
 0.626917 1  18F156F3x       Rx   d 8 00 00 00 00 00 00 00 00
 0.627894 1  18F157F3x       Rx   d 8 00 00 00 00 00 00 00 00
 0.628796 1  18F158F3x       Rx   d 8 00 00 00 00 00 00 00 00
 0.629794 1  18F159F3x       Rx   d 8 00 00 00 00 00 00 00 00
 0.630761 1  18F15AF3x       Rx   d 8 00 00 00 00 00 00 00 00
 0.631580 1  18F15BF3x       Rx   d 7 00 00 00 00 00 00 00
 0.632465 1  18F15CF3x       Rx   d 8 00 00 00 00 00 00 00 00
 0.632962 1  CFF21CAx        Rx   d 8 2C 00 3A 16 3D 3A 00 14
 0.633473 1  18F100D0x       Rx   d 8 0C FF FF FF FF FF FF FF
 0.634088 1  18F15DF3x       Rx   d 8 00 00 00 00 00 00 00 00
 0.635000 1  18F15EF3x       Rx   d 8 00 00 00 00 00 00 00 00
 0.656294 1  CFF21CAx        Rx   d 8 2C 00 39 16 3D 3A 00 14
 0.656722 1  CFF21CAx        Rx   d 8 2C 00 39 16 3D 3A 00 14
 0.657242 1  18F100D0x       Rx   d 8 0C FF FF FF FF FF FF FF
 0.663432 1  18FF2112x       Rx   d 8 01 00 00 00 00 00 00 00
 0.668767 1  CFF21CAx        Rx   d 8 2C 00 37 16 3D 3A 00 14
 0.680831 1  CFF21CAx        Rx   d 8 2C 00 37 16 3D 3A 00 14
 0.681372 1  18F100D0x       Rx   d 8 0C FF FF FF FF FF FF FF
 0.692962 1  CFF21CAx        Rx   d 8 2C 00 39 16 3D 3A 00 14
 0.704970 1  CFF21CAx        Rx   d 8 2C 00 34 16 3D 3A 00 14
 0.705418 1  18F100D0x       Rx   d 8 0C FF FF FF FF FF FF FF
 0.717005 1  CFF21CAx        Rx   d 8 2C 00 39 16 3D 3A 00 14
 0.718873 1  18F100F3x       Rx   d 8 03 38 7E 74 F5 FA 14 00
 0.719743 1  18F102F3x       Rx   d 8 10 1B 10 13 10 0C 00 08
 0.721058 1  18F106F3x       Rx   d 8 45 E0 FC FF FF FF FF FF
 0.722262 1  18F107F3x       Rx   d 8 38 A4 27 10 01 73 00 00
 0.724075 1  18F108F3x       Rx   d 8 00 00 00 00 00 00 00 00
 0.724936 1  18F155F3x       Rx   d 8 37 37 38 38 38 39 38 00
 0.725939 1  18F156F3x       Rx   d 8 00 00 00 00 00 00 00 00
 0.727062 1  18F157F3x       Rx   d 8 00 00 00 00 00 00 00 00
 0.728478 1  18F158F3x       Rx   d 8 00 00 00 00 00 00 00 00
 0.728720 1  18F159F3x       Rx   d 8 00 00 00 00 00 00 00 00
 0.729339 1  CFF21CAx        Rx   d 8 2C 00 34 16 3D 3A 00 14
 0.729918 1  18F100D0x       Rx   d 8 0C FF FF FF FF FF FF FF
 0.730477 1  18F15AF3x       Rx   d 8 00 00 00 00 00 00 00 00
 0.731299 1  18F15BF3x       Rx   d 7 00 00 00 00 00 00 00
 0.732244 1  18F15CF3x       Rx   d 8 00 00 00 00 00 00 00 00
 0.733102 1  18F15DF3x       Rx   d 8 00 00 00 00 00 00 00 00
 0.733890 1  18F15EF3x       Rx   d 8 00 00 00 00 00 00 00 00
 0.741071 1  CFF21CAx        Rx   d 8 2C 00 37 16 3D 3A 00 14
 0.753199 1  CFF21CAx        Rx   d 8 2C 00 36 16 3D 3A 00 14
 0.753664 1  18F100D0x       Rx   d 8 0C FF FF FF FF FF FF FF
 0.760819 1  18FF2112x       Rx   d 8 01 00 00 00 00 00 00 00
 0.765108 1  CFF21CAx        Rx   d 8 2C 00 38 16 3D 3A 00 14
 0.777891 1  CFF21CAx        Rx   d 8 2C 00 38 16 3D 3A 00 14
 0.778225 1  18F100D0x       Rx   d 8 0C FF FF FF FF FF FF FF
 0.789410 1  CFF21CAx        Rx   d 8 2C 00 39 16 3D 3A 00 14
 0.801321 1  CFF21CAx        Rx   d 8 2C 00 39 16 3D 3A 00 14
 0.802006 1  18F100D0x       Rx   d 8 0C FF FF FF FF FF FF FF
 0.813591 1  CFF21CAx        Rx   d 8 2C 00 3A 16 3D 3A 00 14
 0.819018 1  18F100F3x       Rx   d 8 03 38 7E 63 F5 FA 14 00
 0.819870 1  18F102F3x       Rx   d 8 10 1B 10 13 10 0C 00 08
 0.821232 1  18F106F3x       Rx   d 8 45 E0 FC FF FF FF FF FF
 0.822411 1  18F107F3x       Rx   d 8 38 A4 27 10 01 73 00 00
 0.824206 1  18F108F3x       Rx   d 8 00 00 00 00 00 00 00 00
 0.825077 1  18F155F3x       Rx   d 8 37 37 38 38 38 39 38 00
 0.826013 1  18F156F3x       Rx   d 8 00 00 00 00 00 00 00 00
 0.826561 1  CFF21CAx        Rx   d 8 2C 00 38 16 3D 3A 00 14
 0.827091 1  18F100D0x       Rx   d 8 0C FF FF FF FF FF FF FF
 0.827672 1  18F157F3x       Rx   d 8 00 00 00 00 00 00 00 00
 0.828599 1  18F158F3x       Rx   d 8 00 00 00 00 00 00 00 00
 0.829468 1  18F159F3x       Rx   d 8 00 00 00 00 00 00 00 00
 0.830511 1  18F15AF3x       Rx   d 8 00 00 00 00 00 00 00 00
 0.831174 1  18F15BF3x       Rx   d 7 00 00 00 00 00 00 00
 0.832019 1  18F15CF3x       Rx   d 8 00 00 00 00 00 00 00 00
 0.832884 1  18F15DF3x       Rx   d 8 00 00 00 00 00 00 00 00
 0.833773 1  18F15EF3x       Rx   d 8 00 00 00 00 00 00 00 00
 0.837543 1  CFF21CAx        Rx   d 8 2C 00 3A 16 3D 3A 00 14
 0.849927 1  CFF21CAx        Rx   d 8 2C 00 39 16 3D 3A 00 14
 0.850577 1  18F100D0x       Rx   d 8 0C FF FF FF FF FF FF FF
 0.858240 1  18FF2112x       Rx   d 8 01 00 00 00 00 00 00 00
 0.861672 1  CFF21CAx        Rx   d 8 2C 00 3B 16 3D 3A 00 14
 0.877103 1  CFF21CAx        Rx   d 8 2C 00 3D 16 3D 3A 00 14
 0.877236 1  18F100D0x       Rx   d 8 0C FF FF FF FF FF FF FF
 0.885631 1  CFF21CAx        Rx   d 8 2C 00 3F 16 3D 3A 00 14
 0.898167 1  CFF21CAx        Rx   d 8 2C 00 40 16 3D 3A 00 14
 0.898705 1  18F100D0x       Rx   d 8 0C FF FF FF FF FF FF FF
 0.909783 1  CFF21CAx        Rx   d 8 2B 00 43 16 3D 3A 00 14
 0.918916 1  18F100F3x       Rx   d 8 03 38 7E 63 F5 FA 14 00
 0.919735 1  18F102F3x       Rx   d 8 10 1B 10 13 10 0C 00 08
 0.921073 1  18F106F3x       Rx   d 8 45 E0 FC FF FF FF FF FF
 0.922240 1  CFF21CAx        Rx   d 8 2B 00 44 16 3D 3A 00 14
 0.922820 1  18F100D0x       Rx   d 8 0C FF FF FF FF FF FF FF
 0.923364 1  18F107F3x       Rx   d 8 38 A4 27 10 01 73 00 00
 0.925142 1  18F108F3x       Rx   d 8 00 00 00 00 00 00 00 00
 0.926042 1  18F155F3x       Rx   d 8 37 37 38 38 38 39 38 00
 0.926944 1  18F156F3x       Rx   d 8 00 00 00 00 00 00 00 00
 0.927822 1  18F157F3x       Rx   d 8 00 00 00 00 00 00 00 00
 0.928762 1  18F158F3x       Rx   d 8 00 00 00 00 00 00 00 00
 0.929657 1  18F159F3x       Rx   d 8 00 00 00 00 00 00 00 00
 0.930578 1  18F15AF3x       Rx   d 8 00 00 00 00 00 00 00 00
 0.931449 1  18F15BF3x       Rx   d 7 00 00 00 00 00 00 00
 0.932315 1  18F15CF3x       Rx   d 8 00 00 00 00 00 00 00 00
 0.933179 1  18F15DF3x       Rx   d 8 00 00 00 00 00 00 00 00
 0.933797 1  CFF21CAx        Rx   d 8 2A 00 45 16 3D 3A 00 14
 0.934371 1  18F15EF3x       Rx   d 8 00 00 00 00 00 00 00 00
 0.946508 1  CFF21CAx        Rx   d 8 2A 00 43 16 3D 3A 00 14
 0.947334 1  18F100D0x       Rx   d 8 0C FF FF FF FF FF FF FF
 0.955383 1  18FF2112x       Rx   d 8 01 00 00 00 00 00 00 00
 0.957978 1  CFF21CAx        Rx   d 8 2A 00 43 16 3D 3A 00 14
 0.970400 1  CFF21CAx        Rx   d 8 29 00 41 16 3D 3A 00 14
 0.974133 1  18F100D0x       Rx   d 8 0C FF FF FF FF FF FF FF
 0.982163 1  CFF21CAx        Rx   d 8 29 00 3F 16 3D 3A 00 14
 0.994646 1  CFF21CAx        Rx   d 8 29 00 3C 16 3D 3A 00 14
 0.998311 1  18F100D0x       Rx   d 8 0C FF FF FF FF FF FF FF
 1.006076 1  CFF21CAx        Rx   d 8 29 00 39 16 3D 3A 00 14
 1.018542 1  CFF21CAx        Rx   d 8 29 00 36 16 3D 3A 00 14
 1.019243 1  18F100F3x       Rx   d 8 03 38 7E 5F F5 FA 14 00
 1.020092 1  18F102F3x       Rx   d 8 10 1B 10 13 10 0C 00 08
 1.021332 1  18F106F3x       Rx   d 8 45 E0 FC FF FF FF FF FF
 1.022483 1  18F107F3x       Rx   d 8 38 A4 27 10 01 73 00 00
 1.023201 1  18F100D0x       Rx   d 8 0C FF FF FF FF FF FF FF
 1.023784 1  18FECACAx       Rx   d 8 00 00 00 00 00 00 FF FF
 1.024638 1  18F108F3x       Rx   d 8 00 00 00 00 00 00 00 00
 1.025465 1  18F155F3x       Rx   d 8 37 37 38 38 38 39 38 00
 1.026350 1  18F156F3x       Rx   d 8 00 00 00 00 00 00 00 00
 1.027090 1  18F157F3x       Rx   d 8 00 00 00 00 00 00 00 00
 1.028168 1  18F158F3x       Rx   d 8 00 00 00 00 00 00 00 00
 1.028995 1  18F159F3x       Rx   d 8 00 00 00 00 00 00 00 00
 1.029873 1  18F15AF3x       Rx   d 8 00 00 00 00 00 00 00 00
 1.030430 1  CFF21CAx        Rx   d 8 2A 00 34 16 3D 3A 00 14
 1.030819 1  18F15BF3x       Rx   d 7 00 00 00 00 00 00 00
 1.031865 1  18F15CF3x       Rx   d 8 00 00 00 00 00 00 00 00
 1.032750 1  18F15DF3x       Rx   d 8 00 00 00 00 00 00 00 00
 1.033637 1  18F15EF3x       Rx   d 8 00 00 00 00 00 00 00 00
 1.042974 1  CFF21CAx        Rx   d 8 2A 00 34 16 3D 3A 00 14
 1.050856 1  18F100D0x       Rx   d 8 0C FF FF FF FF FF FF FF
 1.052582 1  18FF2112x       Rx   d 8 01 00 00 00 00 00 00 00
 1.054411 1  CFF21CAx        Rx   d 8 2A 00 2C 16 3D 3A 00 14
 1.066941 1  CFF21CAx        Rx   d 8 2A 00 2A 16 3D 3A 00 14
 1.075113 1  18F100D0x       Rx   d 8 0C FF FF FF FF FF FF FF
 1.078378 1  CFF21CAx        Rx   d 8 2B 00 25 16 3D 3A 00 14
 1.097315 1  CFF21CAx        Rx   d 8 2B 00 21 16 3D 3A 00 14
 1.099030 1  18F100D0x       Rx   d 8 0C FF FF FF FF FF FF FF
 1.102539 1  CFF21CAx        Rx   d 8 2C 00 25 16 3D 3A 00 14
 1.114368 1  18F104F3x       Rx   d 8 39 37 06 01 02 FF FF FF
 1.115065 1  CFF21CAx        Rx   d 8 2C 00 24 16 3D 3A 00 14
 1.115598 1  18F113F3x       Rx   d 8 10 17 10 15 10 15 10 16
 1.116815 1  18F114F3x       Rx   d 8 10 15 10 15 10 17 10 16
 1.117777 1  18F115F3x       Rx   d 8 10 14 10 15 10 15 10 13
 1.118690 1  18F116F3x       Rx   d 8 10 19 10 17 10 19 10 1B
 1.119740 1  18F100F3x       Rx   d 8 03 38 7E 5F F5 FA 14 00
 1.120702 1  18F102F3x       Rx   d 8 10 1B 10 13 10 0C 00 08
 1.122067 1  18F106F3x       Rx   d 8 45 E0 FC FF FF FF FF FF
 1.123056 1  18F100D0x       Rx   d 8 0C FF FF FF FF FF FF FF
 1.123616 1  18F107F3x       Rx   d 8 38 A4 27 10 01 73 00 00
 1.125505 1  18F108F3x       Rx   d 8 00 00 00 00 00 00 00 00
 1.126738 1  18F117F3x       Rx   d 8 10 17 10 16 10 1A 10 19
 1.127297 1  CFF21CAx        Rx   d 8 2C 00 24 16 3D 3A 00 14
 1.127859 1  18F118F3x       Rx   d 8 00 00 00 00 00 00 00 00
 1.128830 1  18F119F3x       Rx   d 8 00 00 00 00 00 00 00 00
 1.129843 1  18F11AF3x       Rx   d 8 00 00 00 00 00 00 00 00
 1.130785 1  18F11BF3x       Rx   d 8 00 00 00 00 00 00 00 00
 1.131782 1  18F11CF3x       Rx   d 8 00 00 00 00 00 00 00 00
 1.132801 1  18F11DF3x       Rx   d 8 00 00 00 00 00 00 00 00
 1.133764 1  18F11EF3x       Rx   d 8 00 00 00 00 00 00 00 00
 1.134732 1  18F11FF3x       Rx   d 8 00 00 00 00 00 00 00 00
 1.135679 1  18F120F3x       Rx   d 8 00 00 00 00 00 00 00 00
 1.136904 1  18F121F3x       Rx   d 8 00 00 00 00 00 00 00 00
 1.137813 1  18F122F3x       Rx   d 8 00 00 00 00 00 00 00 00
 1.138783 1  18F123F3x       Rx   d 8 00 00 00 00 00 00 00 00
 1.139328 1  CFF21CAx        Rx   d 8 2E 00 23 16 3D 3A 00 14
 1.139899 1  18F124F3x       Rx   d 8 00 00 00 00 00 00 00 00
 1.140857 1  18F125F3x       Rx   d 8 00 00 00 00 00 00 00 00
 1.141872 1  18F126F3x       Rx   d 8 00 00 00 00 00 00 00 00
 1.142780 1  18F127F3x       Rx   d 8 00 00 00 00 00 00 00 00
 1.143714 1  18F128F3x       Rx   d 8 00 00 00 00 00 00 00 00
 1.144675 1  18F129F3x       Rx   d 8 00 00 00 00 00 00 00 00
 1.145609 1  18F12AF3x       Rx   d 8 00 00 00 00 00 00 00 00
 1.146831 1  18F12BF3x       Rx   d 8 00 00 00 00 00 00 00 00
 1.147391 1  18F100D0x       Rx   d 8 0C FF FF FF FF FF FF FF
 1.148028 1  18F12CF3x       Rx   d 8 00 00 00 00 00 00 00 00
 1.148898 1  18F12DF3x       Rx   d 8 00 00 00 00 00 00 00 00
 1.149708 1  18FF2112x       Rx   d 8 01 00 00 00 00 00 00 00
 1.150280 1  18F12EF3x       Rx   d 8 00 00 00 00 00 00 00 00
 1.150848 1  CFF21CAx        Rx   d 8 2E 00 28 16 3D 3A 00 14
 1.151436 1  18F12FF3x       Rx   d 8 00 00 00 00 00 00 00 00
 1.152360 1  18F130F3x       Rx   d 8 00 00 00 00 00 00 00 00
 1.153248 1  18F131F3x       Rx   d 8 00 00 00 00 00 00 00 00
 1.154128 1  18F132F3x       Rx   d 8 00 00 00 00 00 00 00 00
 1.155089 1  18F133F3x       Rx   d 8 00 00 00 00 00 00 00 00
 1.155870 1  18F134F3x       Rx   d 8 00 00 00 00 00 00 00 00
 1.156974 1  18F135F3x       Rx   d 8 00 00 00 00 00 00 00 00
 1.157883 1  18F136F3x       Rx   d 8 00 00 00 00 00 00 00 00
 1.158786 1  18F137F3x       Rx   d 8 00 00 00 00 00 00 00 00
 1.159713 1  18F138F3x       Rx   d 8 00 00 00 00 00 00 00 00
 1.160606 1  18F139F3x       Rx   d 8 00 00 00 00 00 00 00 00
 1.161535 1  18F13AF3x       Rx   d 8 00 00 00 00 00 00 00 00
 1.162404 1  18F13BF3x       Rx   d 8 00 00 00 00 00 00 00 00
 1.163231 1  CFF21CAx        Rx   d 8 2E 00 28 16 3D 3A 00 14
 1.163796 1  18F13CF3x       Rx   d 8 00 00 00 00 00 00 00 00
 1.164722 1  18F155F3x       Rx   d 8 37 37 38 38 38 39 38 00
 1.165662 1  18F156F3x       Rx   d 8 00 00 00 00 00 00 00 00
 1.166855 1  18F157F3x       Rx   d 8 00 00 00 00 00 00 00 00
 1.167761 1  18F158F3x       Rx   d 8 00 00 00 00 00 00 00 00
 1.168687 1  18F159F3x       Rx   d 8 00 00 00 00 00 00 00 00
 1.169617 1  18F15AF3x       Rx   d 8 00 00 00 00 00 00 00 00
 1.170485 1  18F15BF3x       Rx   d 7 00 00 00 00 00 00 00
 1.171211 1  18F100D0x       Rx   d 8 0C FF FF FF FF FF FF FF
 1.171810 1  18F15CF3x       Rx   d 8 00 00 00 00 00 00 00 00
 1.172654 1  18F15DF3x       Rx   d 8 00 00 00 00 00 00 00 00
 1.173576 1  18F15EF3x       Rx   d 8 00 00 00 00 00 00 00 00
 1.174794 1  CFF21CAx        Rx   d 8 2F 00 29 16 3D 3A 00 14
 1.187277 1  CFF21CAx        Rx   d 8 2F 00 2B 16 3D 3A 00 14
 1.195378 1  18F100D0x       Rx   d 8 0C FF FF FF FF FF FF FF
 1.198992 1  CFF21CAx        Rx   d 8 2F 00 2A 16 3D 3A 00 14
 1.211404 1  CFF21CAx        Rx   d 8 2F 00 29 16 3D 3A 00 14
 1.218867 1  18F100F3x       Rx   d 8 03 38 7E 5F F5 FA 14 00
 1.219580 1  18F100D0x       Rx   d 8 0C FF FF FF FF FF FF FF
 1.220199 1  18F102F3x       Rx   d 8 10 1B 10 13 10 0C 00 08
 1.221373 1  18F106F3x       Rx   d 8 45 E0 FC FF FF FF FF FF
 1.222504 1  18F107F3x       Rx   d 8 38 A4 27 10 01 73 00 00
 1.223557 1  CFF21CAx        Rx   d 8 2F 00 2D 16 3D 3A 00 14
 1.224485 1  18F108F3x       Rx   d 8 00 00 00 00 00 00 00 00
 1.225312 1  18F155F3x       Rx   d 8 37 37 38 38 38 39 38 00
 1.226201 1  18F156F3x       Rx   d 8 00 00 00 00 00 00 00 00
 1.226935 1  18F157F3x       Rx   d 8 00 00 00 00 00 00 00 00
 1.227978 1  18F158F3x       Rx   d 8 00 00 00 00 00 00 00 00
 1.228910 1  18F159F3x       Rx   d 8 00 00 00 00 00 00 00 00
 1.229806 1  18F15AF3x       Rx   d 8 00 00 00 00 00 00 00 00
 1.230621 1  18F15BF3x       Rx   d 7 00 00 00 00 00 00 00
 1.231528 1  18F15CF3x       Rx   d 8 00 00 00 00 00 00 00 00
 1.232414 1  18F15DF3x       Rx   d 8 00 00 00 00 00 00 00 00
 1.233131 1  18F15EF3x       Rx   d 8 00 00 00 00 00 00 00 00
 1.235448 1  CFF21CAx        Rx   d 8 31 00 2E 16 3D 3A 00 14
 1.243563 1  18F100D0x       Rx   d 8 0C FF FF FF FF FF FF FF
 1.247052 1  18FF2112x       Rx   d 8 01 00 00 00 00 00 00 00
 1.247524 1  CFF21CAx        Rx   d 8 31 00 30 16 3D 3A 00 14
 1.259694 1  CFF21CAx        Rx   d 8 31 00 32 16 3D 3A 00 14
 1.267859 1  18F100D0x       Rx   d 8 0C FF FF FF FF FF FF FF
 1.271353 1  CFF21CAx        Rx   d 8 30 00 34 16 3D 3A 00 14
 1.283740 1  CFF21CAx        Rx   d 8 30 00 35 16 3D 3A 00 14
 1.291809 1  18F100D0x       Rx   d 8 0C FF FF FF FF FF FF FF
 1.295420 1  CFF21CAx        Rx   d 8 30 00 39 16 3D 3A 00 14
 1.316315 1  CFF21CAx        Rx   d 8 30 00 38 16 3D 3A 00 14
 1.316441 1  18F100D0x       Rx   d 8 0C FF FF FF FF FF FF FF
 1.318812 1  18F100F3x       Rx   d 8 03 38 7E 94 F5 FA 14 00
 1.319369 1  CFF21CAx        Rx   d 8 30 00 3B 16 3D 3A 00 14
 1.319982 1  18F102F3x       Rx   d 8 10 1A 10 13 10 0C 00 07
 1.321230 1  18F106F3x       Rx   d 8 45 E0 FC FF FF FF FF FF
 1.322505 1  18F107F3x       Rx   d 8 38 A4 27 10 01 73 00 00
 1.324286 1  18F108F3x       Rx   d 8 00 00 00 00 00 00 00 00
 1.325142 1  18F155F3x       Rx   d 8 37 37 38 38 38 39 38 00
 1.326061 1  18F156F3x       Rx   d 8 00 00 00 00 00 00 00 00
 1.327045 1  18F157F3x       Rx   d 8 00 00 00 00 00 00 00 00
 1.327845 1  18F158F3x       Rx   d 8 00 00 00 00 00 00 00 00
 1.328754 1  18F159F3x       Rx   d 8 00 00 00 00 00 00 00 00
 1.329662 1  18F15AF3x       Rx   d 8 00 00 00 00 00 00 00 00
 1.330539 1  18F15BF3x       Rx   d 7 00 00 00 00 00 00 00
 1.331396 1  18F15CF3x       Rx   d 8 00 00 00 00 00 00 00 00
 1.332041 1  CFF21CAx        Rx   d 8 2F 00 38 16 3D 3A 00 14
 1.332580 1  18F15DF3x       Rx   d 8 00 00 00 00 00 00 00 00
 1.333515 1  18F15EF3x       Rx   d 8 00 00 00 00 00 00 00 00
 1.340004 1  18F100D0x       Rx   d 8 0C FF FF FF FF FF FF FF
 1.343504 1  CFF21CAx        Rx   d 8 2F 00 3C 16 3D 3A 00 14
 1.344313 1  18FF2112x       Rx   d 8 01 00 00 00 00 00 00 00
 1.356094 1  CFF21CAx        Rx   d 8 2E 00 38 16 3D 3A 00 14
 1.364031 1  18F100D0x       Rx   d 8 0C FF FF FF FF FF FF FF
 1.367619 1  CFF21CAx        Rx   d 8 2E 00 3E 16 3D 3A 00 14
 1.380122 1  CFF21CAx        Rx   d 8 2E 00 39 16 3D 3A 00 14
 1.391748 1  CFF21CAx        Rx   d 8 2E 00 3C 16 3D 3A 00 14
 1.392248 1  18F100D0x       Rx   d 8 0C FF FF FF FF FF FF FF
 1.404268 1  CFF21CAx        Rx   d 8 2E 00 3F 16 3D 3A 00 14
 1.415897 1  CFF21CAx        Rx   d 8 2E 00 3E 16 3D 3A 00 14
 1.416425 1  18F100D0x       Rx   d 8 0C FF FF FF FF FF FF FF
 1.419037 1  18F100F3x       Rx   d 8 03 38 7E 94 F5 FA 14 00
 1.419778 1  18F102F3x       Rx   d 8 10 1A 10 13 10 0C 00 07
 1.421223 1  18F106F3x       Rx   d 8 45 E0 FC FF FF FF FF FF
 1.422484 1  18F107F3x       Rx   d 8 38 A4 27 10 01 73 00 00
 1.424189 1  18F108F3x       Rx   d 8 00 00 00 00 00 00 00 00
 1.425019 1  18F155F3x       Rx   d 8 37 37 38 38 38 39 38 00
 1.425836 1  18F156F3x       Rx   d 8 00 00 00 00 00 00 00 00
 1.427212 1  18F157F3x       Rx   d 8 00 00 00 00 00 00 00 00
 1.428003 1  18F158F3x       Rx   d 8 00 00 00 00 00 00 00 00
 1.428556 1  CFF21CAx        Rx   d 8 2D 00 41 16 3D 3A 00 14
 1.429196 1  18F159F3x       Rx   d 8 00 00 00 00 00 00 00 00
 1.430028 1  18F15AF3x       Rx   d 8 00 00 00 00 00 00 00 00
 1.430759 1  18F15BF3x       Rx   d 7 00 00 00 00 00 00 00
 1.431674 1  18F15CF3x       Rx   d 8 00 00 00 00 00 00 00 00
 1.432559 1  18F15DF3x       Rx   d 8 00 00 00 00 00 00 00 00
 1.433399 1  18F15EF3x       Rx   d 8 00 00 00 00 00 00 00 00
 1.439994 1  CFF21CAx        Rx   d 8 2D 00 3F 16 3D 3A 00 14
 1.440583 1  18F100D0x       Rx   d 8 0C FF FF FF FF FF FF FF
 1.441651 1  18FF2112x       Rx   d 8 01 00 00 00 00 00 00 00
 1.452563 1  CFF21CAx        Rx   d 8 2C 00 42 16 3D 3A 00 14
 1.464250 1  CFF21CAx        Rx   d 8 2C 00 3F 16 3D 3A 00 14
 1.464609 1  18F100D0x       Rx   d 8 0C FF FF FF FF FF FF FF
 1.476272 1  CFF21CAx        Rx   d 8 2C 00 40 16 3D 3A 00 14
 1.488296 1  CFF21CAx        Rx   d 8 2B 00 3E 16 3D 3A 00 14
 1.488887 1  18F100D0x       Rx   d 8 0C FF FF FF FF FF FF FF
 1.500639 1  CFF21CAx        Rx   d 8 2B 00 3E 16 3D 3A 00 14
 1.512335 1  CFF21CAx        Rx   d 8 2B 00 3B 16 3D 3A 00 14
 1.512886 1  18F100D0x       Rx   d 8 0C FF FF FF FF FF FF FF
 1.519089 1  18F100F3x       Rx   d 8 03 38 7E 6F F5 FA 14 00
 1.519926 1  18F102F3x       Rx   d 8 10 1A 10 13 10 0C 00 07
 1.521209 1  18F106F3x       Rx   d 8 45 E0 FC FF FF FF FF FF
 1.529822 1  18F107F3x       Rx   d 8 38 A4 27 10 01 73 00 00
 1.537473 1  18F108F3x       Rx   d 8 00 00 00 00 00 00 00 00
 1.537606 1  CFF21CAx        Rx   d 8 2A 00 3D 16 3D 3A 00 14
 1.537717 1  18F155F3x       Rx   d 8 37 37 38 38 38 39 38 00
 1.537828 1  18F156F3x       Rx   d 8 00 00 00 00 00 00 00 00
 1.537957 1  18F157F3x       Rx   d 8 00 00 00 00 00 00 00 00
 1.538209 1  18F158F3x       Rx   d 8 00 00 00 00 00 00 00 00
 1.538330 1  18F159F3x       Rx   d 8 00 00 00 00 00 00 00 00
 1.538448 1  18F15AF3x       Rx   d 8 00 00 00 00 00 00 00 00
 1.538674 1  18F15BF3x       Rx   d 7 00 00 00 00 00 00 00
 1.538806 1  18F15CF3x       Rx   d 8 00 00 00 00 00 00 00 00
 1.538920 1  18F15DF3x       Rx   d 8 00 00 00 00 00 00 00 00
 1.539022 1  18F15EF3x       Rx   d 8 00 00 00 00 00 00 00 00
 1.539123 1  CFF21CAx        Rx   d 8 2A 00 39 16 3D 3A 00 14
 1.539239 1  18F100D0x       Rx   d 8 0C FF FF FF FF FF FF FF
 1.539339 1  18FF2112x       Rx   d 8 01 00 00 00 00 00 00 00
 1.548317 1  CFF21CAx        Rx   d 8 2A 00 37 16 3D 3A 00 14
 1.560419 1  CFF21CAx        Rx   d 8 2A 00 38 16 3D 3A 00 14
 1.560957 1  18F100D0x       Rx   d 8 0C FF FF FF FF FF FF FF
 1.572538 1  CFF21CAx        Rx   d 8 2A 00 32 16 3D 3A 00 14
 1.584533 1  CFF21CAx        Rx   d 8 29 00 35 16 3D 3A 00 14
 1.585054 1  18F100D0x       Rx   d 8 0C FF FF FF FF FF FF FF
 1.596601 1  CFF21CAx        Rx   d 8 29 00 31 16 3D 3A 00 14
 1.608642 1  CFF21CAx        Rx   d 8 2B 00 32 16 3D 3A 00 14
 1.612593 1  18F100D0x       Rx   d 8 0C FF FF FF FF FF FF FF
 1.618981 1  18F100F3x       Rx   d 8 03 38 7E 6F F5 FA 14 00
 1.619787 1  18F102F3x       Rx   d 8 10 1A 10 13 10 0C 00 07
 1.621122 1  CFF21CAx        Rx   d 8 2B 00 2D 16 3D 3A 00 14
 1.621567 1  18F106F3x       Rx   d 8 45 E0 FC FF FF FF FF FF
 1.622883 1  18F107F3x       Rx   d 8 38 A4 27 10 01 73 00 00
 1.624725 1  18F108F3x       Rx   d 8 00 00 00 00 00 00 00 00
 1.625679 1  18F155F3x       Rx   d 8 37 37 38 38 38 39 38 00
 1.626759 1  18F156F3x       Rx   d 8 00 00 00 00 00 00 00 00
 1.627752 1  18F157F3x       Rx   d 8 00 00 00 00 00 00 00 00
 1.628669 1  18F158F3x       Rx   d 8 00 00 00 00 00 00 00 00
 1.629667 1  18F159F3x       Rx   d 8 00 00 00 00 00 00 00 00
 1.630604 1  18F15AF3x       Rx   d 8 00 00 00 00 00 00 00 00
 1.631562 1  18F15BF3x       Rx   d 7 00 00 00 00 00 00 00
 1.632426 1  18F15CF3x       Rx   d 8 00 00 00 00 00 00 00 00
 1.633275 1  CFF21CAx        Rx   d 8 2B 00 30 16 3D 3A 00 14
 1.633616 1  18F15DF3x       Rx   d 8 00 00 00 00 00 00 00 00
 1.634374 1  18F15EF3x       Rx   d 8 00 00 00 00 00 00 00 00
 1.636184 1  18FF2112x       Rx   d 8 01 00 00 00 00 00 00 00
 1.636859 1  18F100D0x       Rx   d 8 0C FF FF FF FF FF FF FF
 1.644865 1  CFF21CAx        Rx   d 8 2C 00 2D 16 3D 3A 00 14
 1.656921 1  CFF21CAx        Rx   d 8 2C 00 31 16 3D 3A 00 14
 1.660969 1  18F100D0x       Rx   d 8 0C FF FF FF FF FF FF FF
 1.668949 1  CFF21CAx        Rx   d 8 2C 00 30 16 3D 3A 00 14
 1.680946 1  CFF21CAx        Rx   d 8 2D 00 31 16 3D 3A 00 14
 1.685064 1  18F100D0x       Rx   d 8 0C FF FF FF FF FF FF FF
 1.693201 1  CFF21CAx        Rx   d 8 2D 00 31 16 3D 3A 00 14
 1.705313 1  CFF21CAx        Rx   d 8 2D 00 31 16 3D 3A 00 14
 1.709000 1  18F100D0x       Rx   d 8 0C FF FF FF FF FF FF FF
 1.717066 1  CFF21CAx        Rx   d 8 2D 00 2D 16 3D 3A 00 14
 1.718905 1  18F100F3x       Rx   d 8 03 38 7E 6F F5 FA 14 00
 1.719945 1  18F102F3x       Rx   d 8 10 1A 10 13 10 0C 00 07
 1.721206 1  18F106F3x       Rx   d 8 45 E0 FC FF FF FF FF FF
 1.722465 1  18F107F3x       Rx   d 8 38 A4 27 10 01 73 00 00
 1.724126 1  18F108F3x       Rx   d 8 00 00 00 00 00 00 00 00
 1.724997 1  18F155F3x       Rx   d 8 37 37 38 38 38 39 38 00
 1.725902 1  18F156F3x       Rx   d 8 00 00 00 00 00 00 00 00
 1.727212 1  18F157F3x       Rx   d 8 00 00 00 00 00 00 00 00
 1.728019 1  18F158F3x       Rx   d 8 00 00 00 00 00 00 00 00
 1.728908 1  18F159F3x       Rx   d 8 00 00 00 00 00 00 00 00
 1.729367 1  CFF21CAx        Rx   d 8 2D 00 31 16 3D 3A 00 14
 1.730227 1  18F15AF3x       Rx   d 8 00 00 00 00 00 00 00 00
 1.730853 1  18F15BF3x       Rx   d 7 00 00 00 00 00 00 00
 1.731711 1  18F15CF3x       Rx   d 8 00 00 00 00 00 00 00 00
 1.732613 1  18F15DF3x       Rx   d 8 00 00 00 00 00 00 00 00
 1.733181 1  18F100D0x       Rx   d 8 0C FF FF FF FF FF FF FF
 1.733690 1  18F15EF3x       Rx   d 8 00 00 00 00 00 00 00 00
 1.734329 1  18FF2112x       Rx   d 8 01 00 00 00 00 00 00 00
 1.741308 1  CFF21CAx        Rx   d 8 2E 00 2E 16 3D 3A 00 14
 1.757413 1  CFF21CAx        Rx   d 8 2E 00 31 16 3D 3A 00 14
 1.757538 1  18F100D0x       Rx   d 8 0C FF FF FF FF FF FF FF
 1.765197 1  CFF21CAx        Rx   d 8 2E 00 32 16 3D 3A 00 14
 1.777310 1  CFF21CAx        Rx   d 8 2E 00 33 16 3D 3A 00 14
 1.781261 1  18F100D0x       Rx   d 8 0C FF FF FF FF FF FF FF
 1.789368 1  CFF21CAx        Rx   d 8 2E 00 36 16 3D 3A 00 14
 1.801530 1  CFF21CAx        Rx   d 8 2D 00 38 16 3D 3A 00 14
 1.805368 1  18F100D0x       Rx   d 8 0C FF FF FF FF FF FF FF
 1.813470 1  CFF21CAx        Rx   d 8 2D 00 3B 16 3D 3A 00 14
 1.818903 1  18F100F3x       Rx   d 8 03 38 7E 6C F5 FA 14 00
 1.819787 1  18F102F3x       Rx   d 8 10 1A 10 13 10 0C 00 07
 1.821066 1  18F106F3x       Rx   d 8 45 E0 FC FF FF FF FF FF
 1.822365 1  18F107F3x       Rx   d 8 38 A4 27 10 01 73 00 00
 1.824108 1  18F108F3x       Rx   d 8 00 00 00 00 00 00 00 00
 1.824983 1  18F155F3x       Rx   d 8 37 37 38 38 38 39 38 00
 1.826013 1  18F156F3x       Rx   d 8 00 00 00 00 00 00 00 00
 1.826413 1  CFF21CAx        Rx   d 8 2D 00 3E 16 3D 3A 00 14
 1.827034 1  18F157F3x       Rx   d 8 00 00 00 00 00 00 00 00
 1.827906 1  18F158F3x       Rx   d 8 00 00 00 00 00 00 00 00
 1.828828 1  18F159F3x       Rx   d 8 00 00 00 00 00 00 00 00
 1.829409 1  18F100D0x       Rx   d 8 0C FF FF FF FF FF FF FF
 1.830108 1  18F15AF3x       Rx   d 8 00 00 00 00 00 00 00 00
 1.830731 1  18FF2112x       Rx   d 8 01 00 00 00 00 00 00 00
 1.831253 1  18F15BF3x       Rx   d 7 00 00 00 00 00 00 00
 1.832158 1  18F15CF3x       Rx   d 8 00 00 00 00 00 00 00 00
 1.833130 1  18F15DF3x       Rx   d 8 00 00 00 00 00 00 00 00
 1.833891 1  18F15EF3x       Rx   d 8 00 00 00 00 00 00 00 00
 1.837516 1  CFF21CAx        Rx   d 8 2D 00 3E 16 3D 3A 00 14
 1.849995 1  CFF21CAx        Rx   d 8 2D 00 3F 16 3D 3A 00 14
 1.853732 1  18F100D0x       Rx   d 8 0C FF FF FF FF FF FF FF
 1.861747 1  CFF21CAx        Rx   d 8 2D 00 40 16 3D 3A 00 14
 1.874187 1  CFF21CAx        Rx   d 8 2C 00 40 16 3D 3A 00 14
 1.877818 1  18F100D0x       Rx   d 8 0C FF FF FF FF FF FF FF
 1.885923 1  CFF21CAx        Rx   d 8 2C 00 3F 16 3D 3A 00 14
 1.898195 1  CFF21CAx        Rx   d 8 2C 00 40 16 3D 3A 00 14
 1.901935 1  18F100D0x       Rx   d 8 0C FF FF FF FF FF FF FF
 1.909994 1  CFF21CAx        Rx   d 8 2B 00 3E 16 3D 3A 00 14
 1.919102 1  18F100F3x       Rx   d 8 03 38 7E 6C F5 FA 14 00
 1.919921 1  18F102F3x       Rx   d 8 10 1A 10 13 10 0C 00 07
 1.921225 1  18F106F3x       Rx   d 8 45 E0 FC FF FF FF FF FF
 1.922450 1  CFF21CAx        Rx   d 8 2B 00 3E 16 3D 3A 00 14
 1.922996 1  18F107F3x       Rx   d 8 38 A4 27 10 01 73 00 00
 1.924843 1  18F108F3x       Rx   d 8 00 00 00 00 00 00 00 00
 1.925644 1  18F155F3x       Rx   d 8 37 37 38 38 38 39 38 00
 1.926269 1  18F100D0x       Rx   d 8 0C FF FF FF FF FF FF FF
 1.926975 1  18F156F3x       Rx   d 8 00 00 00 00 00 00 00 00
 1.927893 1  18F157F3x       Rx   d 8 00 00 00 00 00 00 00 00
 1.928484 1  18FF2112x       Rx   d 8 01 00 00 00 00 00 00 00
 1.929046 1  18F158F3x       Rx   d 8 00 00 00 00 00 00 00 00
 1.930003 1  18F159F3x       Rx   d 8 00 00 00 00 00 00 00 00
 1.930854 1  18F15AF3x       Rx   d 8 00 00 00 00 00 00 00 00
 1.931729 1  18F15BF3x       Rx   d 7 00 00 00 00 00 00 00
 1.932507 1  18F15CF3x       Rx   d 8 00 00 00 00 00 00 00 00
 1.933391 1  18F15DF3x       Rx   d 8 00 00 00 00 00 00 00 00
 1.934004 1  CFF21CAx        Rx   d 8 2B 00 3C 16 3D 3A 00 14
 1.934507 1  18F15EF3x       Rx   d 8 00 00 00 00 00 00 00 00
 1.946577 1  CFF21CAx        Rx   d 8 2B 00 3D 16 3D 3A 00 14
 1.950011 1  18F100D0x       Rx   d 8 0C FF FF FF FF FF FF FF
 1.958267 1  CFF21CAx        Rx   d 8 2B 00 3C 16 3D 3A 00 14
 1.975390 1  CFF21CAx        Rx   d 8 2B 00 3C 16 3D 3A 00 14
 1.975516 1  18F100D0x       Rx   d 8 0C FF FF FF FF FF FF FF
 1.982128 1  CFF21CAx        Rx   d 8 2B 00 3B 16 3D 3A 00 14
 1.994564 1  CFF21CAx        Rx   d 8 2B 00 39 16 3D 3A 00 14
 2.002677 1  18F100D0x       Rx   d 8 0C FF FF FF FF FF FF FF
 2.006190 1  CFF21CAx        Rx   d 8 2C 00 3B 16 3D 3A 00 14
 2.018738 1  CFF21CAx        Rx   d 8 2C 00 33 16 3D 3A 00 14
 2.019190 1  18F100F3x       Rx   d 8 03 38 7E 66 F5 FA 14 00
 2.020043 1  18F102F3x       Rx   d 8 10 1A 10 13 10 0C 00 07
 2.021297 1  18F106F3x       Rx   d 8 45 E0 FC FF FF FF FF FF
 2.022615 1  18F107F3x       Rx   d 8 38 A4 27 10 01 73 00 00
 2.023171 1  18F100D0x       Rx   d 8 0C FF FF FF FF FF FF FF
 2.024568 1  18F108F3x       Rx   d 8 00 00 00 00 00 00 00 00
 2.025436 1  18FF2112x       Rx   d 8 01 00 00 00 00 00 00 00
 2.026006 1  18F155F3x       Rx   d 8 37 37 38 38 38 39 38 00
 2.027067 1  18F156F3x       Rx   d 8 00 00 00 00 00 00 00 00
 2.027931 1  18F157F3x       Rx   d 8 00 00 00 00 00 00 00 00
 2.028842 1  18F158F3x       Rx   d 8 00 00 00 00 00 00 00 00
 2.029763 1  18F159F3x       Rx   d 8 00 00 00 00 00 00 00 00
 2.030315 1  CFF21CAx        Rx   d 8 2C 00 30 16 3D 3A 00 14
 2.030868 1  18F15AF3x       Rx   d 8 00 00 00 00 00 00 00 00
 2.031747 1  18F15BF3x       Rx   d 7 00 00 00 00 00 00 00
 2.032669 1  18F15CF3x       Rx   d 8 00 00 00 00 00 00 00 00
 2.033553 1  18F15DF3x       Rx   d 8 00 00 00 00 00 00 00 00
 2.034414 1  18F15EF3x       Rx   d 8 00 00 00 00 00 00 00 00
 2.038323 1  18FECACAx       Rx   d 8 00 00 00 00 00 00 FF FF
 2.042735 1  CFF21CAx        Rx   d 8 2C 00 2D 16 3D 3A 00 14
 2.050784 1  18F100D0x       Rx   d 8 0C FF FF FF FF FF FF FF
 2.054388 1  CFF21CAx        Rx   d 8 2C 00 2F 16 3D 3A 00 14
 2.066950 1  CFF21CAx        Rx   d 8 2D 00 27 16 3D 3A 00 14
 2.075076 1  18F100D0x       Rx   d 8 0C FF FF FF FF FF FF FF
 2.078486 1  CFF21CAx        Rx   d 8 2D 00 2A 16 3D 3A 00 14
 2.091309 1  CFF21CAx        Rx   d 8 2D 00 25 16 3D 3A 00 14
 2.102827 1  CFF21CAx        Rx   d 8 2F 00 26 16 3D 3A 00 14
 2.103357 1  18F100D0x       Rx   d 8 0C FF FF FF FF FF FF FF
 2.114410 1  18F104F3x       Rx   d 8 39 37 06 01 02 FF FF FF
 2.115049 1  CFF21CAx        Rx   d 8 2F 00 29 16 3D 3A 00 14
 2.115524 1  18F113F3x       Rx   d 8 10 15 10 15 10 15 10 16
 2.116934 1  18F114F3x       Rx   d 8 10 14 10 14 10 17 10 15
 2.117856 1  18F115F3x       Rx   d 8 10 14 10 14 10 15 10 13
 2.118634 1  18F116F3x       Rx   d 8 10 18 10 16 10 19 10 1A
 2.119768 1  18F100F3x       Rx   d 8 03 38 7E 66 F5 FA 14 00
 2.120745 1  18F102F3x       Rx   d 8 10 1A 10 13 10 0C 00 07
 2.122189 1  18F106F3x       Rx   d 8 45 E0 FC FF FF FF FF FF
 2.122767 1  18FF2112x       Rx   d 8 01 00 00 00 00 00 00 00
 2.123492 1  18F107F3x       Rx   d 8 38 A4 27 10 01 73 00 00
 2.125341 1  18F108F3x       Rx   d 8 00 00 00 00 00 00 00 00
 2.126267 1  18F117F3x       Rx   d 8 10 16 10 15 10 19 10 18
 2.127078 1  18F118F3x       Rx   d 8 00 00 00 00 00 00 00 00
 2.127815 1  CFF21CAx        Rx   d 8 30 00 2C 16 3D 3A 00 14
 2.128362 1  18F100D0x       Rx   d 8 0C FF FF FF FF FF FF FF
 2.128940 1  18F119F3x       Rx   d 8 00 00 00 00 00 00 00 00
 2.129919 1  18F11AF3x       Rx   d 8 00 00 00 00 00 00 00 00
 2.130799 1  18F11BF3x       Rx   d 8 00 00 00 00 00 00 00 00
 2.131956 1  18F11CF3x       Rx   d 8 00 00 00 00 00 00 00 00
 2.132922 1  18F11DF3x       Rx   d 8 00 00 00 00 00 00 00 00
 2.133881 1  18F11EF3x       Rx   d 8 00 00 00 00 00 00 00 00
 2.134834 1  18F11FF3x       Rx   d 8 00 00 00 00 00 00 00 00
 2.135816 1  18F120F3x       Rx   d 8 00 00 00 00 00 00 00 00
 2.137054 1  18F121F3x       Rx   d 8 00 00 00 00 00 00 00 00
 2.137973 1  18F122F3x       Rx   d 8 00 00 00 00 00 00 00 00
 2.138990 1  18F123F3x       Rx   d 8 00 00 00 00 00 00 00 00
 2.139325 1  CFF21CAx        Rx   d 8 30 00 2F 16 3D 3A 00 14
 2.140097 1  18F124F3x       Rx   d 8 00 00 00 00 00 00 00 00
 2.140975 1  18F125F3x       Rx   d 8 00 00 00 00 00 00 00 00
 2.141934 1  18F126F3x       Rx   d 8 00 00 00 00 00 00 00 00
 2.142885 1  18F127F3x       Rx   d 8 00 00 00 00 00 00 00 00
 2.143668 1  18F128F3x       Rx   d 8 00 00 00 00 00 00 00 00
 2.144627 1  18F129F3x       Rx   d 8 00 00 00 00 00 00 00 00
 2.145565 1  18F12AF3x       Rx   d 8 00 00 00 00 00 00 00 00
 2.146827 1  18F12BF3x       Rx   d 8 00 00 00 00 00 00 00 00
 2.147728 1  18F12CF3x       Rx   d 8 00 00 00 00 00 00 00 00
 2.148669 1  18F12DF3x       Rx   d 8 00 00 00 00 00 00 00 00
 2.150458 1  18F12EF3x       Rx   d 8 00 00 00 00 00 00 00 00
 2.150779 1  18F12FF3x       Rx   d 8 00 00 00 00 00 00 00 00
 2.151155 1  CFF21CAx        Rx   d 8 30 00 32 16 3D 3A 00 14
 2.151696 1  18F100D0x       Rx   d 8 0C FF FF FF FF FF FF FF
 2.152314 1  18F130F3x       Rx   d 8 00 00 00 00 00 00 00 00
 2.153225 1  18F131F3x       Rx   d 8 00 00 00 00 00 00 00 00
 2.154090 1  18F132F3x       Rx   d 8 00 00 00 00 00 00 00 00
 2.155002 1  18F133F3x       Rx   d 8 00 00 00 00 00 00 00 00
 2.155802 1  18F134F3x       Rx   d 8 00 00 00 00 00 00 00 00
 2.157140 1  18F135F3x       Rx   d 8 00 00 00 00 00 00 00 00
 2.157965 1  18F136F3x       Rx   d 8 00 00 00 00 00 00 00 00
 2.158901 1  18F137F3x       Rx   d 8 00 00 00 00 00 00 00 00
 2.159791 1  18F138F3x       Rx   d 8 00 00 00 00 00 00 00 00
 2.160617 1  18F139F3x       Rx   d 8 00 00 00 00 00 00 00 00
 2.161636 1  18F13AF3x       Rx   d 8 00 00 00 00 00 00 00 00
 2.162481 1  18F13BF3x       Rx   d 8 00 00 00 00 00 00 00 00
 2.163339 1  18F13CF3x       Rx   d 8 00 00 00 00 00 00 00 00
 2.163962 1  CFF21CAx        Rx   d 8 30 00 35 16 3D 3A 00 14
 2.164367 1  18F155F3x       Rx   d 8 37 37 38 38 38 39 38 00
 2.165413 1  18F156F3x       Rx   d 8 00 00 00 00 00 00 00 00
 2.166291 1  18F157F3x       Rx   d 8 00 00 00 00 00 00 00 00
 2.167189 1  18F158F3x       Rx   d 8 00 00 00 00 00 00 00 00
 2.168039 1  18F159F3x       Rx   d 8 00 00 00 00 00 00 00 00
 2.168936 1  18F15AF3x       Rx   d 8 00 00 00 00 00 00 00 00
 2.169785 1  18F15BF3x       Rx   d 7 00 00 00 00 00 00 00
 2.170714 1  18F15CF3x       Rx   d 8 00 00 00 00 00 00 00 00
 2.171556 1  18F15DF3x       Rx   d 8 00 00 00 00 00 00 00 00
 2.172364 1  18F15EF3x       Rx   d 8 00 00 00 00 00 00 00 00
 2.175021 1  CFF21CAx        Rx   d 8 30 00 37 16 3D 3A 00 14
 2.175579 1  18F100D0x       Rx   d 8 0C FF FF FF FF FF FF FF
 2.193915 1  CFF21CAx        Rx   d 8 30 00 39 16 3D 3A 00 14
 2.198973 1  CFF21CAx        Rx   d 8 2F 00 3A 16 3D 3A 00 14
 2.199521 1  18F100D0x       Rx   d 8 0C FF FF FF FF FF FF FF
 2.211389 1  CFF21CAx        Rx   d 8 2F 00 3C 16 3D 3A 00 14
 2.219234 1  18F100F3x       Rx   d 8 03 38 7E 66 F5 FA 14 00
 2.219768 1  18FF2112x       Rx   d 8 01 00 00 00 00 00 00 00
 2.220319 1  18F102F3x       Rx   d 8 10 1A 10 13 10 0C 00 07
 2.221614 1  18F106F3x       Rx   d 8 45 E0 FC FF FF FF FF FF
 2.222906 1  18F107F3x       Rx   d 8 38 A4 27 10 01 73 00 00
 2.223457 1  CFF21CAx        Rx   d 8 2F 00 3D 16 3D 3A 00 14
 2.224039 1  18F100D0x       Rx   d 8 0C FF FF FF FF FF FF FF
 2.224840 1  18F108F3x       Rx   d 8 00 00 00 00 00 00 00 00
 2.225808 1  18F155F3x       Rx   d 8 37 37 38 38 38 39 38 00
 2.227031 1  18F156F3x       Rx   d 8 00 00 00 00 00 00 00 00
 2.227841 1  18F157F3x       Rx   d 8 00 00 00 00 00 00 00 00
 2.228822 1  18F158F3x       Rx   d 8 00 00 00 00 00 00 00 00
 2.229678 1  18F159F3x       Rx   d 8 00 00 00 00 00 00 00 00
 2.230602 1  18F15AF3x       Rx   d 8 00 00 00 00 00 00 00 00
 2.231454 1  18F15BF3x       Rx   d 7 00 00 00 00 00 00 00
 2.232325 1  18F15CF3x       Rx   d 8 00 00 00 00 00 00 00 00
 2.233178 1  18F15DF3x       Rx   d 8 00 00 00 00 00 00 00 00
 2.234052 1  18F15EF3x       Rx   d 8 00 00 00 00 00 00 00 00
 2.235581 1  CFF21CAx        Rx   d 8 2F 00 3D 16 3D 3A 00 14
 2.247163 1  CFF21CAx        Rx   d 8 2F 00 3D 16 3D 3A 00 14
 2.247714 1  18F100D0x       Rx   d 8 0C FF FF FF FF FF FF FF
 2.259721 1  CFF21CAx        Rx   d 8 2F 00 3B 16 3D 3A 00 14
 2.271362 1  CFF21CAx        Rx   d 8 2F 00 3A 16 3D 3A 00 14
 2.271857 1  18F100D0x       Rx   d 8 0C FF FF FF FF FF FF FF
 2.283808 1  CFF21CAx        Rx   d 8 2F 00 38 16 3D 3A 00 14
 2.295399 1  CFF21CAx        Rx   d 8 2E 00 37 16 3D 3A 00 14
 2.295939 1  18F100D0x       Rx   d 8 0C FF FF FF FF FF FF FF
 2.307820 1  CFF21CAx        Rx   d 8 2E 00 37 16 3D 3A 00 14
 2.317089 1  18FF2112x       Rx   d 8 01 00 00 00 00 00 00 00
 2.319072 1  18F100F3x       Rx   d 8 03 38 7E 81 F5 FA 14 00
 2.319633 1  CFF21CAx        Rx   d 8 2E 00 37 16 3D 3A 00 14
 2.320206 1  18F100D0x       Rx   d 8 0C FF FF FF FF FF FF FF
 2.320751 1  18F102F3x       Rx   d 8 10 1A 10 12 10 0C 00 08
 2.322217 1  18F106F3x       Rx   d 8 45 E0 FC FF FF FF FF FF
 2.323318 1  18F107F3x       Rx   d 8 38 A4 27 10 01 73 00 00
 2.324983 1  18F108F3x       Rx   d 8 00 00 00 00 00 00 00 00
 2.325826 1  18F155F3x       Rx   d 8 37 37 38 38 38 39 38 00
 2.327035 1  18F156F3x       Rx   d 8 00 00 00 00 00 00 00 00
 2.327924 1  18F157F3x       Rx   d 8 00 00 00 00 00 00 00 00
 2.328813 1  18F158F3x       Rx   d 8 00 00 00 00 00 00 00 00
 2.329737 1  18F159F3x       Rx   d 8 00 00 00 00 00 00 00 00
 2.330660 1  18F15AF3x       Rx   d 8 00 00 00 00 00 00 00 00
 2.331593 1  18F15BF3x       Rx   d 7 00 00 00 00 00 00 00
 2.332090 1  CFF21CAx        Rx   d 8 2E 00 36 16 3D 3A 00 14
 2.332663 1  18F15CF3x       Rx   d 8 00 00 00 00 00 00 00 00
 2.333730 1  18F15DF3x       Rx   d 8 00 00 00 00 00 00 00 00
 2.334417 1  18F15EF3x       Rx   d 8 00 00 00 00 00 00 00 00
 2.343519 1  CFF21CAx        Rx   d 8 2E 00 32 16 3D 3A 00 14
 2.344084 1  18F100D0x       Rx   d 8 0C FF FF FF FF FF FF FF
 2.356255 1  CFF21CAx        Rx   d 8 2E 00 38 16 3D 3A 00 14
 2.367745 1  CFF21CAx        Rx   d 8 2E 00 33 16 3D 3A 00 14
 2.368250 1  18F100D0x       Rx   d 8 0C FF FF FF FF FF FF FF
 2.380320 1  CFF21CAx        Rx   d 8 2D 00 38 16 3D 3A 00 14
 2.391767 1  CFF21CAx        Rx   d 8 2D 00 32 16 3D 3A 00 14
 2.392449 1  18F100D0x       Rx   d 8 0C FF FF FF FF FF FF FF
 2.414165 1  CFF21CAx        Rx   d 8 2D 00 34 16 3D 3A 00 14
 2.414376 1  18FF2112x       Rx   d 8 01 00 00 00 00 00 00 00
 2.415881 1  CFF21CAx        Rx   d 8 2D 00 35 16 3D 3A 00 14
 2.418953 1  18F100F3x       Rx   d 8 03 38 7E 81 F5 FA 14 00
 2.419816 1  18F102F3x       Rx   d 8 10 1A 10 12 10 0C 00 08
 2.420400 1  18F100D0x       Rx   d 8 0C FF FF FF FF FF FF FF
 2.421273 1  18F106F3x       Rx   d 8 45 E0 FC FF FF FF FF FF
 2.422542 1  18F107F3x       Rx   d 8 38 A4 27 10 01 73 00 00
 2.424323 1  18F108F3x       Rx   d 8 00 00 00 00 00 00 00 00
 2.425201 1  18F155F3x       Rx   d 8 37 37 38 38 38 39 38 00
 2.426090 1  18F156F3x       Rx   d 8 00 00 00 00 00 00 00 00
 2.427056 1  18F157F3x       Rx   d 8 00 00 00 00 00 00 00 00
 2.427905 1  18F158F3x       Rx   d 8 00 00 00 00 00 00 00 00
 2.428442 1  CFF21CAx        Rx   d 8 2D 00 32 16 3D 3A 00 14
 2.429048 1  18F159F3x       Rx   d 8 00 00 00 00 00 00 00 00
 2.429940 1  18F15AF3x       Rx   d 8 00 00 00 00 00 00 00 00
 2.430789 1  18F15BF3x       Rx   d 7 00 00 00 00 00 00 00
 2.431685 1  18F15CF3x       Rx   d 8 00 00 00 00 00 00 00 00
 2.432581 1  18F15DF3x       Rx   d 8 00 00 00 00 00 00 00 00
 2.433462 1  18F15EF3x       Rx   d 8 00 00 00 00 00 00 00 00
 2.439946 1  CFF21CAx        Rx   d 8 2D 00 33 16 3D 3A 00 14
 2.444472 1  18F100D0x       Rx   d 8 0C FF FF FF FF FF FF FF
 2.452444 1  CFF21CAx        Rx   d 8 2D 00 32 16 3D 3A 00 14
 2.464122 1  CFF21CAx        Rx   d 8 2D 00 2F 16 3D 3A 00 14
 2.468094 1  18F100D0x       Rx   d 8 0C FF FF FF FF FF FF FF
 2.476571 1  CFF21CAx        Rx   d 8 2E 00 33 16 3D 3A 00 14
 2.488214 1  CFF21CAx        Rx   d 8 2E 00 31 16 3D 3A 00 14
 2.492646 1  18F100D0x       Rx   d 8 0C FF FF FF FF FF FF FF
 2.500212 1  CFF21CAx        Rx   d 8 2E 00 35 16 3D 3A 00 14
 2.511784 1  18FF2112x       Rx   d 8 01 00 00 00 00 00 00 00
 2.512369 1  CFF21CAx        Rx   d 8 2E 00 34 16 3D 3A 00 14
 2.516437 1  18F100D0x       Rx   d 8 0C FF FF FF FF FF FF FF
 2.519064 1  18F100F3x       Rx   d 8 03 38 7E 70 F5 FA 14 00
 2.519948 1  18F102F3x       Rx   d 8 10 1A 10 12 10 0C 00 08
 2.521642 1  18F106F3x       Rx   d 8 45 E0 FC FF FF FF FF FF
 2.522521 1  18F107F3x       Rx   d 8 38 A4 27 10 01 73 00 00
 2.524281 1  18F108F3x       Rx   d 8 00 00 00 00 00 00 00 00
 2.524980 1  CFF21CAx        Rx   d 8 2E 00 38 16 3D 3A 00 14
 2.525531 1  18F155F3x       Rx   d 8 37 37 38 38 38 39 38 00
 2.526342 1  18F156F3x       Rx   d 8 00 00 00 00 00 00 00 00
 2.527301 1  18F157F3x       Rx   d 8 00 00 00 00 00 00 00 00
 2.528200 1  18F158F3x       Rx   d 8 00 00 00 00 00 00 00 00
 2.529045 1  18F159F3x       Rx   d 8 00 00 00 00 00 00 00 00
 2.529838 1  18F15AF3x       Rx   d 8 00 00 00 00 00 00 00 00
 2.530835 1  18F15BF3x       Rx   d 7 00 00 00 00 00 00 00
 2.531634 1  18F15CF3x       Rx   d 8 00 00 00 00 00 00 00 00
 2.532537 1  18F15DF3x       Rx   d 8 00 00 00 00 00 00 00 00
 2.533369 1  18F15EF3x       Rx   d 8 00 00 00 00 00 00 00 00
 2.536443 1  CFF21CAx        Rx   d 8 2E 00 3D 16 3D 3A 00 14
 2.540425 1  18F100D0x       Rx   d 8 0C FF FF FF FF FF FF FF
 2.548418 1  CFF21CAx        Rx   d 8 2E 00 3D 16 3D 3A 00 14
 2.560661 1  CFF21CAx        Rx   d 8 2D 00 40 16 3D 3A 00 14
 2.564609 1  18F100D0x       Rx   d 8 0C FF FF FF FF FF FF FF
 2.572648 1  CFF21CAx        Rx   d 8 2D 00 40 16 3D 3A 00 14
 2.584528 1  CFF21CAx        Rx   d 8 2C 00 43 16 3D 3A 00 14
 2.588685 1  18F100D0x       Rx   d 8 0C FF FF FF FF FF FF FF
 2.596554 1  CFF21CAx        Rx   d 8 2C 00 43 16 3D 3A 00 14
 2.608869 1  CFF21CAx        Rx   d 8 2C 00 43 16 3D 3A 00 14
 2.609306 1  18FF2112x       Rx   d 8 01 00 00 00 00 00 00 00
 2.616840 1  18F100D0x       Rx   d 8 0C FF FF FF FF FF FF FF
 2.619100 1  18F100F3x       Rx   d 8 03 38 7E 70 F5 FA 14 00
 2.620001 1  18F102F3x       Rx   d 8 10 1A 10 12 10 0C 00 08
 2.633053 1  18F106F3x       Rx   d 8 45 E0 FC FF FF FF FF FF
 2.633181 1  CFF21CAx        Rx   d 8 2C 00 46 16 3D 3A 00 14
 2.633286 1  18F107F3x       Rx   d 8 38 A4 27 10 01 73 00 00
 2.633387 1  18F108F3x       Rx   d 8 00 00 00 00 00 00 00 00
 2.633488 1  18F155F3x       Rx   d 8 37 37 38 38 38 39 38 00
 2.633594 1  18F156F3x       Rx   d 8 00 00 00 00 00 00 00 00
 2.633697 1  18F157F3x       Rx   d 8 00 00 00 00 00 00 00 00
 2.633799 1  18F158F3x       Rx   d 8 00 00 00 00 00 00 00 00
 2.633936 1  18F159F3x       Rx   d 8 00 00 00 00 00 00 00 00
 2.634039 1  18F15AF3x       Rx   d 8 00 00 00 00 00 00 00 00
 2.634132 1  18F15BF3x       Rx   d 7 00 00 00 00 00 00 00
 2.634230 1  18F15CF3x       Rx   d 8 00 00 00 00 00 00 00 00
 2.634329 1  18F15DF3x       Rx   d 8 00 00 00 00 00 00 00 00
 2.634434 1  CFF21CAx        Rx   d 8 2C 00 46 16 3D 3A 00 14
 2.634534 1  18F15EF3x       Rx   d 8 00 00 00 00 00 00 00 00
 2.640793 1  18F100D0x       Rx   d 8 0C FF FF FF FF FF FF FF
 2.644754 1  CFF21CAx        Rx   d 8 2B 00 47 16 3D 3A 00 14
 2.657239 1  CFF21CAx        Rx   d 8 2B 00 45 16 3D 3A 00 14
 2.664902 1  18F100D0x       Rx   d 8 0C FF FF FF FF FF FF FF
 2.668901 1  CFF21CAx        Rx   d 8 2B 00 46 16 3D 3A 00 14
 2.681091 1  CFF21CAx        Rx   d 8 2A 00 45 16 3D 3A 00 14
 2.689142 1  18F100D0x       Rx   d 8 0C FF FF FF FF FF FF FF
 2.693006 1  CFF21CAx        Rx   d 8 2A 00 45 16 3D 3A 00 14
 2.705130 1  CFF21CAx        Rx   d 8 2A 00 44 16 3D 3A 00 14
 2.706304 1  18FF2112x       Rx   d 8 01 00 00 00 00 00 00 00
 2.713134 1  18F100D0x       Rx   d 8 0C FF FF FF FF FF FF FF
 2.717140 1  CFF21CAx        Rx   d 8 29 00 44 16 3D 3A 00 14
 2.718972 1  18F100F3x       Rx   d 8 03 38 7E 70 F5 FA 14 00
 2.719900 1  18F102F3x       Rx   d 8 10 1A 10 12 10 0C 00 08
 2.721185 1  18F106F3x       Rx   d 8 45 E0 FC FF FF FF FF FF
 2.722467 1  18F107F3x       Rx   d 8 38 A4 27 10 01 73 00 00
 2.724176 1  18F108F3x       Rx   d 8 00 00 00 00 00 00 00 00
 2.725125 1  18F155F3x       Rx   d 8 37 37 38 38 38 39 38 00
 2.725919 1  18F156F3x       Rx   d 8 00 00 00 00 00 00 00 00
 2.727200 1  18F157F3x       Rx   d 8 00 00 00 00 00 00 00 00
 2.728067 1  18F158F3x       Rx   d 8 00 00 00 00 00 00 00 00
 2.728994 1  18F159F3x       Rx   d 8 00 00 00 00 00 00 00 00
 2.729545 1  CFF21CAx        Rx   d 8 29 00 42 16 3D 3A 00 14
 2.730316 1  18F15AF3x       Rx   d 8 00 00 00 00 00 00 00 00
 2.730923 1  18F15BF3x       Rx   d 7 00 00 00 00 00 00 00
 2.731873 1  18F15CF3x       Rx   d 8 00 00 00 00 00 00 00 00
 2.732747 1  18F15DF3x       Rx   d 8 00 00 00 00 00 00 00 00
 2.733603 1  18F15EF3x       Rx   d 8 00 00 00 00 00 00 00 00
 2.737222 1  18F100D0x       Rx   d 8 0C FF FF FF FF FF FF FF
 2.741224 1  CFF21CAx        Rx   d 8 29 00 41 16 3D 3A 00 14
 2.753620 1  CFF21CAx        Rx   d 8 29 00 40 16 3D 3A 00 14
 2.761431 1  18F100D0x       Rx   d 8 0C FF FF FF FF FF FF FF
 2.765337 1  CFF21CAx        Rx   d 8 29 00 3F 16 3D 3A 00 14
 2.777499 1  CFF21CAx        Rx   d 8 28 00 3E 16 3D 3A 00 14
 2.785538 1  18F100D0x       Rx   d 8 0C FF FF FF FF FF FF FF
 2.789515 1  CFF21CAx        Rx   d 8 28 00 3B 16 3D 3A 00 14
 2.801528 1  CFF21CAx        Rx   d 8 28 00 3E 16 3D 3A 00 14
 2.803440 1  18FF2112x       Rx   d 8 01 00 00 00 00 00 00 00
 2.809516 1  18F100D0x       Rx   d 8 0C FF FF FF FF FF FF FF
 2.813601 1  CFF21CAx        Rx   d 8 28 00 38 16 3D 3A 00 14
 2.818975 1  18F100F3x       Rx   d 8 03 38 7E 53 F5 FA 14 00
 2.819833 1  18F102F3x       Rx   d 8 10 1A 10 12 10 0C 00 08
 2.821102 1  18F106F3x       Rx   d 8 45 E0 FC FF FF FF FF FF
 2.822381 1  18F107F3x       Rx   d 8 38 A4 27 10 01 73 00 00
 2.824298 1  18F108F3x       Rx   d 8 00 00 00 00 00 00 00 00
 2.825446 1  18F155F3x       Rx   d 8 37 37 38 38 38 39 38 00
 2.826067 1  18F156F3x       Rx   d 8 00 00 00 00 00 00 00 00
 2.826600 1  CFF21CAx        Rx   d 8 28 00 3B 16 3D 3A 00 14
 2.827206 1  18F157F3x       Rx   d 8 00 00 00 00 00 00 00 00
 2.828074 1  18F158F3x       Rx   d 8 00 00 00 00 00 00 00 00
 2.828987 1  18F159F3x       Rx   d 8 00 00 00 00 00 00 00 00
 2.829935 1  18F15AF3x       Rx   d 8 00 00 00 00 00 00 00 00
 2.830785 1  18F15BF3x       Rx   d 7 00 00 00 00 00 00 00
 2.831637 1  18F15CF3x       Rx   d 8 00 00 00 00 00 00 00 00
 2.832487 1  18F15DF3x       Rx   d 8 00 00 00 00 00 00 00 00
 2.833333 1  18F15EF3x       Rx   d 8 00 00 00 00 00 00 00 00
 2.833896 1  18F100D0x       Rx   d 8 0C FF FF FF FF FF FF FF
 2.837656 1  CFF21CAx        Rx   d 8 29 00 37 16 3D 3A 00 14
 2.850705 1  CFF21CAx        Rx   d 8 29 00 37 16 3D 3A 00 14
 2.857570 1  18F100D0x       Rx   d 8 0C FF FF FF FF FF FF FF
 2.861545 1  CFF21CAx        Rx   d 8 29 00 32 16 3D 3A 00 14
 2.874061 1  CFF21CAx        Rx   d 8 2A 00 35 16 3D 3A 00 14
 2.882122 1  18F100D0x       Rx   d 8 0C FF FF FF FF FF FF FF
 2.885675 1  CFF21CAx        Rx   d 8 2A 00 2E 16 3D 3A 00 14
 2.898305 1  CFF21CAx        Rx   d 8 2A 00 2D 16 3D 3A 00 14
 2.900757 1  18FF2112x       Rx   d 8 01 00 00 00 00 00 00 00
 2.905886 1  18F100D0x       Rx   d 8 0C FF FF FF FF FF FF FF
 2.909854 1  CFF21CAx        Rx   d 8 2A 00 2C 16 3D 3A 00 14
 2.919069 1  18F100F3x       Rx   d 8 03 38 7E 53 F5 FA 14 00
 2.919884 1  18F102F3x       Rx   d 8 10 1A 10 12 10 0C 00 08
 2.921190 1  18F106F3x       Rx   d 8 45 E0 FC FF FF FF FF FF
 2.922405 1  CFF21CAx        Rx   d 8 2A 00 2E 16 3D 3A 00 14
 2.922947 1  18F107F3x       Rx   d 8 38 A4 27 10 01 73 00 00
 2.924847 1  18F108F3x       Rx   d 8 00 00 00 00 00 00 00 00
 2.925763 1  18F155F3x       Rx   d 8 37 37 38 38 38 39 38 00
 2.926970 1  18F156F3x       Rx   d 8 00 00 00 00 00 00 00 00
 2.927879 1  18F157F3x       Rx   d 8 00 00 00 00 00 00 00 00
 2.928809 1  18F158F3x       Rx   d 8 00 00 00 00 00 00 00 00
 2.929733 1  18F159F3x       Rx   d 8 00 00 00 00 00 00 00 00
 2.930605 1  18F15AF3x       Rx   d 8 00 00 00 00 00 00 00 00
 2.931412 1  18F15BF3x       Rx   d 7 00 00 00 00 00 00 00
 2.932358 1  18F15CF3x       Rx   d 8 00 00 00 00 00 00 00 00
 2.933191 1  18F15DF3x       Rx   d 8 00 00 00 00 00 00 00 00
 2.933987 1  18F15EF3x       Rx   d 8 00 00 00 00 00 00 00 00
 2.934549 1  CFF21CAx        Rx   d 8 2C 00 2A 16 3D 3A 00 14
 2.935182 1  18F100D0x       Rx   d 8 0C FF FF FF FF FF FF FF
 2.946629 1  CFF21CAx        Rx   d 8 2C 00 2E 16 3D 3A 00 14
 2.958297 1  CFF21CAx        Rx   d 8 2C 00 29 16 3D 3A 00 14
 2.958720 1  18F100D0x       Rx   d 8 0C FF FF FF FF FF FF FF
 2.970546 1  CFF21CAx        Rx   d 8 2C 00 2A 16 3D 3A 00 14
 2.982277 1  CFF21CAx        Rx   d 8 2C 00 2D 16 3D 3A 00 14
 2.982989 1  18F100D0x       Rx   d 8 0C FF FF FF FF FF FF FF
 2.994905 1  CFF21CAx        Rx   d 8 2C 00 32 16 3D 3A 00 14
 2.998035 1  18FF2112x       Rx   d 8 01 00 00 00 00 00 00 00
 3.006202 1  CFF21CAx        Rx   d 8 2C 00 30 16 3D 3A 00 14
 3.006926 1  18F100D0x       Rx   d 8 0C FF FF FF FF FF FF FF
 3.018290 1  CFF21CAx        Rx   d 8 2C 00 36 16 3D 3A 00 14
 3.019079 1  18F100F3x       Rx   d 8 03 38 7E 63 F5 FA 14 00
 3.019977 1  18F102F3x       Rx   d 8 10 1A 10 12 10 0C 00 08
 3.021260 1  18F106F3x       Rx   d 8 45 E0 FC FF FF FF FF FF
 3.022385 1  18F107F3x       Rx   d 8 38 A4 27 10 01 73 00 00
 3.024295 1  18F108F3x       Rx   d 8 00 00 00 00 00 00 00 00
 3.025196 1  18F155F3x       Rx   d 8 37 37 38 38 38 39 38 00
 3.026044 1  18F156F3x       Rx   d 8 00 00 00 00 00 00 00 00
 3.027049 1  18F157F3x       Rx   d 8 00 00 00 00 00 00 00 00
 3.028064 1  18F158F3x       Rx   d 8 00 00 00 00 00 00 00 00
 3.029001 1  18F159F3x       Rx   d 8 00 00 00 00 00 00 00 00
 3.029916 1  18F15AF3x       Rx   d 8 00 00 00 00 00 00 00 00
 3.030466 1  CFF21CAx        Rx   d 8 2E 00 32 16 3D 3A 00 14
 3.030877 1  18F100D0x       Rx   d 8 0C FF FF FF FF FF FF FF
 3.031560 1  18F15BF3x       Rx   d 7 00 00 00 00 00 00 00
 3.032352 1  18F15CF3x       Rx   d 8 00 00 00 00 00 00 00 00
 3.033186 1  18F15DF3x       Rx   d 8 00 00 00 00 00 00 00 00
 3.034101 1  18F15EF3x       Rx   d 8 00 00 00 00 00 00 00 00
 3.042933 1  CFF21CAx        Rx   d 8 2E 00 38 16 3D 3A 00 14
 3.054574 1  CFF21CAx        Rx   d 8 2E 00 33 16 3D 3A 00 14
 3.055188 1  18F100D0x       Rx   d 8 0C FF FF FF FF FF FF FF
 3.055704 1  18FECACAx       Rx   d 8 00 00 00 00 00 00 FF FF
 3.068819 1  CFF21CAx        Rx   d 8 2E 00 39 16 3D 3A 00 14
 3.078568 1  CFF21CAx        Rx   d 8 2E 00 38 16 3D 3A 00 14
 3.079152 1  18F100D0x       Rx   d 8 0C FF FF FF FF FF FF FF
 3.091075 1  CFF21CAx        Rx   d 8 2D 00 39 16 3D 3A 00 14
 3.095300 1  18FF2112x       Rx   d 8 01 00 00 00 00 00 00 00
 3.102684 1  CFF21CAx        Rx   d 8 2D 00 39 16 3D 3A 00 14
 3.107047 1  18F100D0x       Rx   d 8 0C FF FF FF FF FF FF FF
 3.114469 1  18F104F3x       Rx   d 8 39 37 06 01 02 FF FF FF
 3.115108 1  CFF21CAx        Rx   d 8 2D 00 3A 16 3D 3A 00 14
 3.115709 1  18F113F3x       Rx   d 8 10 15 10 15 10 14 10 15
 3.116895 1  18F114F3x       Rx   d 8 10 14 10 13 10 16 10 15
 3.117847 1  18F115F3x       Rx   d 8 10 14 10 14 10 14 10 12
 3.118807 1  18F116F3x       Rx   d 8 10 18 10 16 10 18 10 1A
 3.119788 1  18F100F3x       Rx   d 8 03 38 7E 63 F5 FA 14 00
 3.120741 1  18F102F3x       Rx   d 8 10 1A 10 12 10 0C 00 08
 3.122187 1  18F106F3x       Rx   d 8 45 E0 FC FF FF FF FF FF
 3.123508 1  18F107F3x       Rx   d 8 38 A4 27 10 01 73 00 00
 3.125370 1  18F108F3x       Rx   d 8 00 00 00 00 00 00 00 00
 3.126295 1  18F117F3x       Rx   d 8 10 15 10 15 10 19 10 18
 3.127157 1  CFF21CAx        Rx   d 8 2C 00 3B 16 3D 3A 00 14
 3.127761 1  18F118F3x       Rx   d 8 00 00 00 00 00 00 00 00
 3.128785 1  18F119F3x       Rx   d 8 00 00 00 00 00 00 00 00
 3.129758 1  18F11AF3x       Rx   d 8 00 00 00 00 00 00 00 00
 3.130728 1  18F11BF3x       Rx   d 8 00 00 00 00 00 00 00 00
 3.131282 1  18F100D0x       Rx   d 8 0C FF FF FF FF FF FF FF
 3.131861 1  18F11CF3x       Rx   d 8 00 00 00 00 00 00 00 00
 3.132856 1  18F11DF3x       Rx   d 8 00 00 00 00 00 00 00 00
 3.133819 1  18F11EF3x       Rx   d 8 00 00 00 00 00 00 00 00
 3.134818 1  18F11FF3x       Rx   d 8 00 00 00 00 00 00 00 00
 3.135780 1  18F120F3x       Rx   d 8 00 00 00 00 00 00 00 00
 3.137143 1  18F121F3x       Rx   d 8 00 00 00 00 00 00 00 00
 3.138075 1  18F122F3x       Rx   d 8 00 00 00 00 00 00 00 00
 3.138953 1  18F123F3x       Rx   d 8 00 00 00 00 00 00 00 00
 3.139458 1  CFF21CAx        Rx   d 8 2C 00 3D 16 3D 3A 00 14
 3.140087 1  18F124F3x       Rx   d 8 00 00 00 00 00 00 00 00
 3.140996 1  18F125F3x       Rx   d 8 00 00 00 00 00 00 00 00
 3.141996 1  18F126F3x       Rx   d 8 00 00 00 00 00 00 00 00
 3.142833 1  18F127F3x       Rx   d 8 00 00 00 00 00 00 00 00
 3.143784 1  18F128F3x       Rx   d 8 00 00 00 00 00 00 00 00
 3.144739 1  18F129F3x       Rx   d 8 00 00 00 00 00 00 00 00
 3.145660 1  18F12AF3x       Rx   d 8 00 00 00 00 00 00 00 00
 3.146873 1  18F12BF3x       Rx   d 8 00 00 00 00 00 00 00 00
 3.147890 1  18F12CF3x       Rx   d 8 00 00 00 00 00 00 00 00
 3.148792 1  18F12DF3x       Rx   d 8 00 00 00 00 00 00 00 00
 3.149712 1  18F12EF3x       Rx   d 8 00 00 00 00 00 00 00 00
 3.150713 1  18F12FF3x       Rx   d 8 00 00 00 00 00 00 00 00
 3.151204 1  CFF21CAx        Rx   d 8 2C 00 3D 16 3D 3A 00 14
 3.151791 1  18F130F3x       Rx   d 8 00 00 00 00 00 00 00 00
 3.152768 1  18F131F3x       Rx   d 8 00 00 00 00 00 00 00 00
 3.153645 1  18F132F3x       Rx   d 8 00 00 00 00 00 00 00 00
 3.154630 1  18F133F3x       Rx   d 8 00 00 00 00 00 00 00 00
 3.155251 1  18F100D0x       Rx   d 8 0C FF FF FF FF FF FF FF
 3.155846 1  18F134F3x       Rx   d 8 00 00 00 00 00 00 00 00
 3.157089 1  18F135F3x       Rx   d 8 00 00 00 00 00 00 00 00
 3.157922 1  18F136F3x       Rx   d 8 00 00 00 00 00 00 00 00
 3.158903 1  18F137F3x       Rx   d 8 00 00 00 00 00 00 00 00
 3.159817 1  18F138F3x       Rx   d 8 00 00 00 00 00 00 00 00
 3.160733 1  18F139F3x       Rx   d 8 00 00 00 00 00 00 00 00
 3.161596 1  18F13AF3x       Rx   d 8 00 00 00 00 00 00 00 00
 3.162458 1  18F13BF3x       Rx   d 8 00 00 00 00 00 00 00 00
 3.163339 1  18F13CF3x       Rx   d 8 00 00 00 00 00 00 00 00
 3.163905 1  CFF21CAx        Rx   d 8 2C 00 3E 16 3D 3A 00 14
 3.164453 1  18F155F3x       Rx   d 8 37 37 38 38 38 39 38 00
 3.165378 1  18F156F3x       Rx   d 8 00 00 00 00 00 00 00 00
 3.166224 1  18F157F3x       Rx   d 8 00 00 00 00 00 00 00 00
 3.167147 1  18F158F3x       Rx   d 8 00 00 00 00 00 00 00 00
 3.167987 1  18F159F3x       Rx   d 8 00 00 00 00 00 00 00 00
 3.169791 1  18F15AF3x       Rx   d 8 00 00 00 00 00 00 00 00
 3.169937 1  18F15BF3x       Rx   d 7 00 00 00 00 00 00 00
 3.170644 1  18F15CF3x       Rx   d 8 00 00 00 00 00 00 00 00
 3.171494 1  18F15DF3x       Rx   d 8 00 00 00 00 00 00 00 00
 3.172405 1  18F15EF3x       Rx   d 8 00 00 00 00 00 00 00 00
 3.175032 1  CFF21CAx        Rx   d 8 2C 00 3E 16 3D 3A 00 14
 3.179546 1  18F100D0x       Rx   d 8 0C FF FF FF FF FF FF FF
 3.187686 1  CFF21CAx        Rx   d 8 2C 00 3F 16 3D 3A 00 14
 3.192679 1  18FF2112x       Rx   d 8 01 00 00 00 00 00 00 00
 3.199226 1  CFF21CAx        Rx   d 8 2C 00 3F 16 3D 3A 00 14
 3.203605 1  18F100D0x       Rx   d 8 0C FF FF FF FF FF FF FF
 3.211663 1  CFF21CAx        Rx   d 8 2C 00 3D 16 3D 3A 00 14
 3.219117 1  18F100F3x       Rx   d 8 03 38 7E 63 F5 FA 14 00
 3.219980 1  18F102F3x       Rx   d 8 10 1A 10 12 10 0C 00 08
 3.221268 1  18F106F3x       Rx   d 8 45 E0 FC FF FF FF FF FF
 3.222544 1  18F107F3x       Rx   d 8 38 A4 27 10 01 73 00 00
 3.223705 1  CFF21CAx        Rx   d 8 2C 00 3B 16 3D 3A 00 14
 3.224301 1  18F108F3x       Rx   d 8 00 00 00 00 00 00 00 00
 3.225199 1  18F155F3x       Rx   d 8 37 37 38 38 38 39 38 00
 3.226064 1  18F156F3x       Rx   d 8 00 00 00 00 00 00 00 00
 3.227231 1  18F157F3x       Rx   d 8 00 00 00 00 00 00 00 00
 3.227785 1  18F100D0x       Rx   d 8 0C FF FF FF FF FF FF FF
 3.228370 1  18F158F3x       Rx   d 8 00 00 00 00 00 00 00 00
 3.229248 1  18F159F3x       Rx   d 8 00 00 00 00 00 00 00 00
 3.230188 1  18F15AF3x       Rx   d 8 00 00 00 00 00 00 00 00
 3.230939 1  18F15BF3x       Rx   d 7 00 00 00 00 00 00 00
 3.231845 1  18F15CF3x       Rx   d 8 00 00 00 00 00 00 00 00
 3.232749 1  18F15DF3x       Rx   d 8 00 00 00 00 00 00 00 00
 3.233568 1  18F15EF3x       Rx   d 8 00 00 00 00 00 00 00 00
 3.235571 1  CFF21CAx        Rx   d 8 2C 00 39 16 3D 3A 00 14
 3.247545 1  CFF21CAx        Rx   d 8 2C 00 39 16 3D 3A 00 14
 3.252025 1  18F100D0x       Rx   d 8 0C FF FF FF FF FF FF FF
 3.259808 1  CFF21CAx        Rx   d 8 2B 00 36 16 3D 3A 00 14
 3.271503 1  CFF21CAx        Rx   d 8 2B 00 36 16 3D 3A 00 14
 3.285319 1  18F100D0x       Rx   d 8 0C FF FF FF FF FF FF FF
 3.285455 1  CFF21CAx        Rx   d 8 2B 00 33 16 3D 3A 00 14
 3.289832 1  18FF2112x       Rx   d 8 01 00 00 00 00 00 00 00
 3.295412 1  CFF21CAx        Rx   d 8 2C 00 2D 16 3D 3A 00 14
 3.299871 1  18F100D0x       Rx   d 8 0C FF FF FF FF FF FF FF
 3.307970 1  CFF21CAx        Rx   d 8 2C 00 31 16 3D 3A 00 14
 3.319035 1  18F100F3x       Rx   d 8 03 38 7E 5F F5 FA 14 00
 3.319529 1  CFF21CAx        Rx   d 8 2C 00 31 16 3D 3A 00 14
 3.320092 1  18F102F3x       Rx   d 8 10 1A 10 12 10 0C 00 08
 3.321460 1  18F106F3x       Rx   d 8 45 E0 FC FF FF FF FF FF
 3.322613 1  18F107F3x       Rx   d 8 38 A4 27 10 01 73 00 00
 3.324155 1  18F100D0x       Rx   d 8 0C FF FF FF FF FF FF FF
 3.324769 1  18F108F3x       Rx   d 8 00 00 00 00 00 00 00 00
 3.325777 1  18F155F3x       Rx   d 8 37 37 38 38 38 39 38 00
 3.326887 1  18F156F3x       Rx   d 8 00 00 00 00 00 00 00 00
 3.327768 1  18F157F3x       Rx   d 8 00 00 00 00 00 00 00 00
 3.328697 1  18F158F3x       Rx   d 8 00 00 00 00 00 00 00 00
 3.329641 1  18F159F3x       Rx   d 8 00 00 00 00 00 00 00 00
 3.330482 1  18F15AF3x       Rx   d 8 00 00 00 00 00 00 00 00
 3.331295 1  18F15BF3x       Rx   d 7 00 00 00 00 00 00 00
 3.332082 1  CFF21CAx        Rx   d 8 2C 00 2D 16 3D 3A 00 14
 3.332577 1  18F15CF3x       Rx   d 8 00 00 00 00 00 00 00 00
 3.333457 1  18F15DF3x       Rx   d 8 00 00 00 00 00 00 00 00
 3.334294 1  18F15EF3x       Rx   d 8 00 00 00 00 00 00 00 00
 3.343600 1  CFF21CAx        Rx   d 8 2C 00 2B 16 3D 3A 00 14
 3.348216 1  18F100D0x       Rx   d 8 0C FF FF FF FF FF FF FF
 3.356231 1  CFF21CAx        Rx   d 8 2D 00 30 16 3D 3A 00 14
 3.367816 1  CFF21CAx        Rx   d 8 2D 00 2D 16 3D 3A 00 14
 3.372272 1  18F100D0x       Rx   d 8 0C FF FF FF FF FF FF FF
 3.380503 1  CFF21CAx        Rx   d 8 2D 00 32 16 3D 3A 00 14
 3.387283 1  18FF2112x       Rx   d 8 01 00 00 00 00 00 00 00
 3.391817 1  CFF21CAx        Rx   d 8 2D 00 30 16 3D 3A 00 14
 3.399909 1  18F100D0x       Rx   d 8 0C FF FF FF FF FF FF FF
 3.404377 1  CFF21CAx        Rx   d 8 2D 00 34 16 3D 3A 00 14
 3.416067 1  CFF21CAx        Rx   d 8 2D 00 36 16 3D 3A 00 14
 3.419183 1  18F100F3x       Rx   d 8 03 38 7E 5F F5 FA 14 00
 3.419946 1  18F102F3x       Rx   d 8 10 1A 10 12 10 0C 00 08
 3.421311 1  18F106F3x       Rx   d 8 45 E0 FC FF FF FF FF FF
 3.422540 1  18F107F3x       Rx   d 8 38 A4 27 10 01 73 00 00
 3.424266 1  18F108F3x       Rx   d 8 00 00 00 00 00 00 00 00
 3.424932 1  18F100D0x       Rx   d 8 0C FF FF FF FF FF FF FF
 3.425467 1  18F155F3x       Rx   d 8 37 37 38 38 38 39 38 00
 3.426353 1  18F156F3x       Rx   d 8 00 00 00 00 00 00 00 00
 3.427235 1  18F157F3x       Rx   d 8 00 00 00 00 00 00 00 00
 3.428104 1  18F158F3x       Rx   d 8 00 00 00 00 00 00 00 00
 3.428666 1  CFF21CAx        Rx   d 8 2D 00 36 16 3D 3A 00 14
 3.429245 1  18F159F3x       Rx   d 8 00 00 00 00 00 00 00 00
 3.430260 1  18F15AF3x       Rx   d 8 00 00 00 00 00 00 00 00
 3.430956 1  18F15BF3x       Rx   d 7 00 00 00 00 00 00 00
 3.431875 1  18F15CF3x       Rx   d 8 00 00 00 00 00 00 00 00
 3.432781 1  18F15DF3x       Rx   d 8 00 00 00 00 00 00 00 00
 3.433624 1  18F15EF3x       Rx   d 8 00 00 00 00 00 00 00 00
 3.440134 1  CFF21CAx        Rx   d 8 2D 00 38 16 3D 3A 00 14
 3.448300 1  18F100D0x       Rx   d 8 0C FF FF FF FF FF FF FF
 3.452595 1  CFF21CAx        Rx   d 8 2D 00 39 16 3D 3A 00 14
 3.464130 1  CFF21CAx        Rx   d 8 2D 00 3B 16 3D 3A 00 14
 3.472360 1  18F100D0x       Rx   d 8 0C FF FF FF FF FF FF FF
 3.476215 1  CFF21CAx        Rx   d 8 2D 00 3C 16 3D 3A 00 14
 3.484438 1  18FF2112x       Rx   d 8 01 00 00 00 00 00 00 00
 3.488532 1  CFF21CAx        Rx   d 8 2C 00 39 16 3D 3A 00 14
 3.504494 1  18F100D0x       Rx   d 8 0C FF FF FF FF FF FF FF
 3.504611 1  CFF21CAx        Rx   d 8 2C 00 3B 16 3D 3A 00 14
 3.512327 1  CFF21CAx        Rx   d 8 2B 00 39 16 3D 3A 00 14
 3.519019 1  18F100F3x       Rx   d 8 03 38 7E 6D F5 FA 14 00
 3.519859 1  18F102F3x       Rx   d 8 10 1A 10 12 10 0C 00 08
 3.520709 1  18F100D0x       Rx   d 8 0C FF FF FF FF FF FF FF
 3.521283 1  18F106F3x       Rx   d 8 45 E0 FC FF FF FF FF FF
 3.522587 1  18F107F3x       Rx   d 8 38 A4 27 10 01 73 00 00
 3.524364 1  18F108F3x       Rx   d 8 00 00 00 00 00 00 00 00
 3.524925 1  CFF21CAx        Rx   d 8 2B 00 38 16 3D 3A 00 14
 3.525470 1  18F155F3x       Rx   d 8 37 37 38 38 38 39 38 00
 3.526363 1  18F156F3x       Rx   d 8 00 00 00 00 00 00 00 00
 3.527266 1  18F157F3x       Rx   d 8 00 00 00 00 00 00 00 00
 3.528109 1  18F158F3x       Rx   d 8 00 00 00 00 00 00 00 00
 3.529034 1  18F159F3x       Rx   d 8 00 00 00 00 00 00 00 00
 3.529859 1  18F15AF3x       Rx   d 8 00 00 00 00 00 00 00 00
 3.530715 1  18F15BF3x       Rx   d 7 00 00 00 00 00 00 00
 3.531626 1  18F15CF3x       Rx   d 8 00 00 00 00 00 00 00 00
 3.532471 1  18F15DF3x       Rx   d 8 00 00 00 00 00 00 00 00
 3.533302 1  18F15EF3x       Rx   d 8 00 00 00 00 00 00 00 00
 3.536317 1  CFF21CAx        Rx   d 8 2B 00 36 16 3D 3A 00 14
 3.544393 1  18F100D0x       Rx   d 8 0C FF FF FF FF FF FF FF
 3.548841 1  CFF21CAx        Rx   d 8 2B 00 35 16 3D 3A 00 14
 3.560471 1  CFF21CAx        Rx   d 8 2B 00 36 16 3D 3A 00 14
 3.568519 1  18F100D0x       Rx   d 8 0C FF FF FF FF FF FF FF
 3.572601 1  CFF21CAx        Rx   d 8 2B 00 36 16 3D 3A 00 14
 3.581819 1  18FF2112x       Rx   d 8 01 00 00 00 00 00 00 00
 3.584716 1  CFF21CAx        Rx   d 8 2B 00 34 16 3D 3A 00 14
 3.592794 1  18F100D0x       Rx   d 8 0C FF FF FF FF FF FF FF
 3.596591 1  CFF21CAx        Rx   d 8 2B 00 3A 16 3D 3A 00 14
 3.608844 1  CFF21CAx        Rx   d 8 2C 00 37 16 3D 3A 00 14
 3.616892 1  18F100D0x       Rx   d 8 0C FF FF FF FF FF FF FF
 3.619079 1  18F100F3x       Rx   d 8 03 38 7E 6D F5 FA 14 00
 3.619881 1  18F102F3x       Rx   d 8 10 1A 10 12 10 0C 00 08
 3.621212 1  18F106F3x       Rx   d 8 45 E0 FC FF FF FF FF FF
 3.621697 1  CFF21CAx        Rx   d 8 2C 00 3D 16 3D 3A 00 14
 3.622370 1  18F107F3x       Rx   d 8 38 A4 27 10 01 73 00 00
 3.624363 1  18F108F3x       Rx   d 8 00 00 00 00 00 00 00 00
 3.625192 1  18F155F3x       Rx   d 8 37 37 38 38 38 39 38 00
 3.626104 1  18F156F3x       Rx   d 8 00 00 00 00 00 00 00 00
 3.627264 1  18F157F3x       Rx   d 8 00 00 00 00 00 00 00 00
 3.628115 1  18F158F3x       Rx   d 8 00 00 00 00 00 00 00 00
 3.629041 1  18F159F3x       Rx   d 8 00 00 00 00 00 00 00 00
 3.630016 1  18F15AF3x       Rx   d 8 00 00 00 00 00 00 00 00
 3.630871 1  18F15BF3x       Rx   d 7 00 00 00 00 00 00 00
 3.631811 1  18F15CF3x       Rx   d 8 00 00 00 00 00 00 00 00
 3.632635 1  18F15DF3x       Rx   d 8 00 00 00 00 00 00 00 00
 3.633201 1  CFF21CAx        Rx   d 8 2C 00 39 16 3D 3A 00 14
 3.633765 1  18F15EF3x       Rx   d 8 00 00 00 00 00 00 00 00
 3.644941 1  CFF21CAx        Rx   d 8 2B 00 3F 16 3D 3A 00 14
 3.645515 1  18F100D0x       Rx   d 8 0C FF FF FF FF FF FF FF
 3.656988 1  CFF21CAx        Rx   d 8 2B 00 3B 16 3D 3A 00 14
 3.668868 1  CFF21CAx        Rx   d 8 2B 00 40 16 3D 3A 00 14
 3.669447 1  18F100D0x       Rx   d 8 0C FF FF FF FF FF FF FF
 3.679073 1  18FF2112x       Rx   d 8 01 00 00 00 00 00 00 00
 3.681084 1  CFF21CAx        Rx   d 8 2B 00 3B 16 3D 3A 00 14
 3.693235 1  CFF21CAx        Rx   d 8 2B 00 3B 16 3D 3A 00 14
 3.693706 1  18F100D0x       Rx   d 8 0C FF FF FF FF FF FF FF
 3.705197 1  CFF21CAx        Rx   d 8 2B 00 3D 16 3D 3A 00 14
 3.723907 1  CFF21CAx        Rx   d 8 2B 00 39 16 3D 3A 00 14
 3.724022 1  18F100D0x       Rx   d 8 0C FF FF FF FF FF FF FF
 3.724118 1  18F100F3x       Rx   d 8 03 38 7E 6D F5 FA 14 00
 3.724200 1  18F102F3x       Rx   d 8 10 19 10 12 10 0C 00 07
 3.724297 1  18F106F3x       Rx   d 8 45 E0 FC FF FF FF FF FF
 3.724387 1  18F107F3x       Rx   d 8 38 A4 27 10 01 73 00 00
 3.724474 1  18F108F3x       Rx   d 8 00 00 00 00 00 00 00 00
 3.725059 1  18F155F3x       Rx   d 8 37 37 38 38 38 39 38 00
 3.725997 1  18F156F3x       Rx   d 8 00 00 00 00 00 00 00 00
 3.727101 1  18F157F3x       Rx   d 8 00 00 00 00 00 00 00 00
 3.728059 1  18F158F3x       Rx   d 8 00 00 00 00 00 00 00 00
 3.728896 1  18F159F3x       Rx   d 8 00 00 00 00 00 00 00 00
 3.729410 1  CFF21CAx        Rx   d 8 2B 00 39 16 3D 3A 00 14
 3.730076 1  18F15AF3x       Rx   d 8 00 00 00 00 00 00 00 00
 3.730844 1  18F15BF3x       Rx   d 7 00 00 00 00 00 00 00
 3.731772 1  18F15CF3x       Rx   d 8 00 00 00 00 00 00 00 00
 3.732684 1  18F15DF3x       Rx   d 8 00 00 00 00 00 00 00 00
 3.733536 1  18F15EF3x       Rx   d 8 00 00 00 00 00 00 00 00
 3.741191 1  CFF21CAx        Rx   d 8 2B 00 35 16 3D 3A 00 14
 3.741818 1  18F100D0x       Rx   d 8 0C FF FF FF FF FF FF FF
 3.753312 1  CFF21CAx        Rx   d 8 2B 00 35 16 3D 3A 00 14
 3.765295 1  CFF21CAx        Rx   d 8 2A 00 34 16 3D 3A 00 14
 3.765917 1  18F100D0x       Rx   d 8 0C FF FF FF FF FF FF FF
 3.776790 1  18FF2112x       Rx   d 8 01 00 00 00 00 00 00 00
 3.777408 1  CFF21CAx        Rx   d 8 2A 00 2E 16 3D 3A 00 14
 3.789437 1  CFF21CAx        Rx   d 8 2A 00 32 16 3D 3A 00 14
 3.789941 1  18F100D0x       Rx   d 8 0C FF FF FF FF FF FF FF
 3.801501 1  CFF21CAx        Rx   d 8 2B 00 2E 16 3D 3A 00 14
 3.813871 1  CFF21CAx        Rx   d 8 2B 00 2F 16 3D 3A 00 14
 3.814182 1  18F100D0x       Rx   d 8 0C FF FF FF FF FF FF FF
 3.819255 1  18F100F3x       Rx   d 8 03 38 7E 6E F5 FA 14 00
 3.819946 1  18F102F3x       Rx   d 8 10 19 10 12 10 0C 00 07
 3.821323 1  18F106F3x       Rx   d 8 45 E0 FC FF FF FF FF FF
 3.822569 1  18F107F3x       Rx   d 8 38 A4 27 10 01 73 00 00
 3.824279 1  18F108F3x       Rx   d 8 00 00 00 00 00 00 00 00
 3.825132 1  18F155F3x       Rx   d 8 37 37 38 38 38 39 38 00
 3.825953 1  18F156F3x       Rx   d 8 00 00 00 00 00 00 00 00
 3.826567 1  CFF21CAx        Rx   d 8 2B 00 31 16 3D 3A 00 14
 3.827093 1  18F157F3x       Rx   d 8 00 00 00 00 00 00 00 00
 3.828030 1  18F158F3x       Rx   d 8 00 00 00 00 00 00 00 00
 3.828885 1  18F159F3x       Rx   d 8 00 00 00 00 00 00 00 00
 3.829790 1  18F15AF3x       Rx   d 8 00 00 00 00 00 00 00 00
 3.830674 1  18F15BF3x       Rx   d 7 00 00 00 00 00 00 00
 3.831733 1  18F15CF3x       Rx   d 8 00 00 00 00 00 00 00 00
 3.832583 1  18F15DF3x       Rx   d 8 00 00 00 00 00 00 00 00
 3.833433 1  18F15EF3x       Rx   d 8 00 00 00 00 00 00 00 00
 3.837778 1  CFF21CAx        Rx   d 8 2C 00 30 16 3D 3A 00 14
 3.838305 1  18F100D0x       Rx   d 8 0C FF FF FF FF FF FF FF
 3.850108 1  CFF21CAx        Rx   d 8 2C 00 2E 16 3D 3A 00 14
 3.861883 1  CFF21CAx        Rx   d 8 2C 00 2E 16 3D 3A 00 14
 3.862412 1  18F100D0x       Rx   d 8 0C FF FF FF FF FF FF FF
 3.873567 1  18FF2112x       Rx   d 8 01 00 00 00 00 00 00 00
 3.874284 1  CFF21CAx        Rx   d 8 2C 00 29 16 3D 3A 00 14
 3.886024 1  CFF21CAx        Rx   d 8 2C 00 2C 16 3D 3A 00 14
 3.886509 1  18F100D0x       Rx   d 8 0C FF FF FF FF FF FF FF
 3.898269 1  CFF21CAx        Rx   d 8 2E 00 2A 16 3D 3A 00 14
 3.910151 1  CFF21CAx        Rx   d 8 2E 00 2D 16 3D 3A 00 14
 3.910538 1  18F100D0x       Rx   d 8 0C FF FF FF FF FF FF FF
 3.919263 1  18F100F3x       Rx   d 8 03 38 7E 6E F5 FA 14 00
 3.920072 1  18F102F3x       Rx   d 8 10 19 10 12 10 0C 00 07
 3.921260 1  18F106F3x       Rx   d 8 45 E0 FC FF FF FF FF FF
 3.922541 1  CFF21CAx        Rx   d 8 2F 00 2A 16 3D 3A 00 14
 3.923136 1  18F107F3x       Rx   d 8 38 A4 27 10 01 73 00 00
 3.924947 1  18F108F3x       Rx   d 8 00 00 00 00 00 00 00 00
 3.925840 1  18F155F3x       Rx   d 8 37 37 38 38 38 39 38 00
 3.926941 1  18F156F3x       Rx   d 8 00 00 00 00 00 00 00 00
 3.927973 1  18F157F3x       Rx   d 8 00 00 00 00 00 00 00 00
 3.928893 1  18F158F3x       Rx   d 8 00 00 00 00 00 00 00 00
 3.929821 1  18F159F3x       Rx   d 8 00 00 00 00 00 00 00 00
 3.943322 1  18F15AF3x       Rx   d 8 00 00 00 00 00 00 00 00
 3.943457 1  18F15BF3x       Rx   d 7 00 00 00 00 00 00 00
 3.943569 1  18F15CF3x       Rx   d 8 00 00 00 00 00 00 00 00
 3.943673 1  18F15DF3x       Rx   d 8 00 00 00 00 00 00 00 00
 3.943774 1  18F15EF3x       Rx   d 8 00 00 00 00 00 00 00 00
 3.943875 1  CFF21CAx        Rx   d 8 2F 00 2D 16 3D 3A 00 14
 3.943978 1  18F100D0x       Rx   d 8 0C FF FF FF FF FF FF FF
 3.946481 1  CFF21CAx        Rx   d 8 2F 00 2E 16 3D 3A 00 14
 3.958153 1  CFF21CAx        Rx   d 8 2F 00 2F 16 3D 3A 00 14
 3.962546 1  18F100D0x       Rx   d 8 0C FF FF FF FF FF FF FF
 3.970659 1  CFF21CAx        Rx   d 8 2F 00 30 16 3D 3A 00 14
 3.971197 1  18FF2112x       Rx   d 8 01 00 00 00 00 00 00 00
 3.982220 1  CFF21CAx        Rx   d 8 2F 00 33 16 3D 3A 00 14
 3.986714 1  18F100D0x       Rx   d 8 0C FF FF FF FF FF FF FF
 3.994641 1  CFF21CAx        Rx   d 8 30 00 33 16 3D 3A 00 14
 4.006361 1  CFF21CAx        Rx   d 8 30 00 39 16 3D 3A 00 14
 4.010706 1  18F100D0x       Rx   d 8 0C FF FF FF FF FF FF FF
 4.018975 1  CFF21CAx        Rx   d 8 2F 00 37 16 3D 3A 00 14
 4.019467 1  18F100F3x       Rx   d 8 03 38 7E 84 F5 FA 14 00
 4.020312 1  18F102F3x       Rx   d 8 10 19 10 12 10 0C 00 07
 4.021662 1  18F106F3x       Rx   d 8 45 E0 FC FF FF FF FF FF
 4.022899 1  18F107F3x       Rx   d 8 38 A4 27 10 01 73 00 00
 4.024749 1  18F108F3x       Rx   d 8 00 00 00 00 00 00 00 00
 4.025703 1  18F155F3x       Rx   d 8 37 37 38 38 38 39 38 00
 4.026873 1  18F156F3x       Rx   d 8 00 00 00 00 00 00 00 00
 4.027836 1  18F157F3x       Rx   d 8 00 00 00 00 00 00 00 00
 4.028740 1  18F158F3x       Rx   d 8 00 00 00 00 00 00 00 00
 4.029681 1  18F159F3x       Rx   d 8 00 00 00 00 00 00 00 00
 4.030388 1  CFF21CAx        Rx   d 8 2F 00 3B 16 3D 3A 00 14
 4.030939 1  18F15AF3x       Rx   d 8 00 00 00 00 00 00 00 00
 4.031850 1  18F15BF3x       Rx   d 7 00 00 00 00 00 00 00
 4.032775 1  18F15CF3x       Rx   d 8 00 00 00 00 00 00 00 00
 4.033620 1  18F15DF3x       Rx   d 8 00 00 00 00 00 00 00 00
 4.034435 1  18F15EF3x       Rx   d 8 00 00 00 00 00 00 00 00
 4.035058 1  18F100D0x       Rx   d 8 0C FF FF FF FF FF FF FF
 4.043033 1  CFF21CAx        Rx   d 8 2F 00 38 16 3D 3A 00 14
 4.054655 1  CFF21CAx        Rx   d 8 2F 00 3B 16 3D 3A 00 14
 4.059215 1  18F100D0x       Rx   d 8 0C FF FF FF FF FF FF FF
 4.067061 1  CFF21CAx        Rx   d 8 2F 00 37 16 3D 3A 00 14
 4.068158 1  18FF2112x       Rx   d 8 01 00 00 00 00 00 00 00
 4.070710 1  18FECACAx       Rx   d 8 00 00 00 00 00 00 FF FF
 4.078553 1  CFF21CAx        Rx   d 8 2F 00 3A 16 3D 3A 00 14
 4.083361 1  18F100D0x       Rx   d 8 0C FF FF FF FF FF FF FF
 4.091297 1  CFF21CAx        Rx   d 8 2F 00 3A 16 3D 3A 00 14
 4.102899 1  CFF21CAx        Rx   d 8 2F 00 3A 16 3D 3A 00 14
 4.107311 1  18F100D0x       Rx   d 8 0C FF FF FF FF FF FF FF
 4.114498 1  18F104F3x       Rx   d 8 39 37 06 01 02 FF FF FF
 4.115161 1  CFF21CAx        Rx   d 8 2F 00 3D 16 3D 3A 00 14
 4.115848 1  18F113F3x       Rx   d 8 10 15 10 15 10 15 10 15
 4.117071 1  18F114F3x       Rx   d 8 10 14 10 13 10 17 10 16
 4.118017 1  18F115F3x       Rx   d 8 10 14 10 14 10 14 10 12
 4.118813 1  18F116F3x       Rx   d 8 10 18 10 15 10 18 10 19
 4.119938 1  18F100F3x       Rx   d 8 03 38 7E 84 F5 FA 14 00
 4.120939 1  18F102F3x       Rx   d 8 10 19 10 12 10 0C 00 07
 4.122298 1  18F106F3x       Rx   d 8 45 E0 FC FF FF FF FF FF
 4.123632 1  18F107F3x       Rx   d 8 38 A4 27 10 01 73 00 00
 4.125464 1  18F108F3x       Rx   d 8 00 00 00 00 00 00 00 00
 4.126404 1  18F117F3x       Rx   d 8 10 15 10 15 10 19 10 18
 4.127141 1  CFF21CAx        Rx   d 8 2F 00 3B 16 3D 3A 00 14
 4.127868 1  18F118F3x       Rx   d 8 00 00 00 00 00 00 00 00
 4.128852 1  18F119F3x       Rx   d 8 00 00 00 00 00 00 00 00
 4.129828 1  18F11AF3x       Rx   d 8 00 00 00 00 00 00 00 00
 4.130738 1  18F11BF3x       Rx   d 8 00 00 00 00 00 00 00 00
 4.131852 1  18F11CF3x       Rx   d 8 00 00 00 00 00 00 00 00
 4.132822 1  18F11DF3x       Rx   d 8 00 00 00 00 00 00 00 00
 4.133795 1  18F11EF3x       Rx   d 8 00 00 00 00 00 00 00 00
 4.134720 1  18F11FF3x       Rx   d 8 00 00 00 00 00 00 00 00
 4.135138 1  18F100D0x       Rx   d 8 0C FF FF FF FF FF FF FF
 4.135879 1  18F120F3x       Rx   d 8 00 00 00 00 00 00 00 00
 4.137194 1  18F121F3x       Rx   d 8 00 00 00 00 00 00 00 00
 4.138073 1  18F122F3x       Rx   d 8 00 00 00 00 00 00 00 00
 4.139041 1  18F123F3x       Rx   d 8 00 00 00 00 00 00 00 00
 4.139441 1  CFF21CAx        Rx   d 8 2F 00 3E 16 3D 3A 00 14
 4.140189 1  18F124F3x       Rx   d 8 00 00 00 00 00 00 00 00
 4.141079 1  18F125F3x       Rx   d 8 00 00 00 00 00 00 00 00
 4.142037 1  18F126F3x       Rx   d 8 00 00 00 00 00 00 00 00
 4.142988 1  18F127F3x       Rx   d 8 00 00 00 00 00 00 00 00
 4.143776 1  18F128F3x       Rx   d 8 00 00 00 00 00 00 00 00
 4.144764 1  18F129F3x       Rx   d 8 00 00 00 00 00 00 00 00
 4.145677 1  18F12AF3x       Rx   d 8 00 00 00 00 00 00 00 00
 4.146905 1  18F12BF3x       Rx   d 8 00 00 00 00 00 00 00 00
 4.147846 1  18F12CF3x       Rx   d 8 00 00 00 00 00 00 00 00
 4.148952 1  18F12DF3x       Rx   d 8 00 00 00 00 00 00 00 00
 4.162621 1  18F12EF3x       Rx   d 8 00 00 00 00 00 00 00 00
 4.162753 1  18F12FF3x       Rx   d 8 00 00 00 00 00 00 00 00
 4.162869 1  CFF21CAx        Rx   d 8 2F 00 3A 16 3D 3A 00 14
 4.162971 1  18F130F3x       Rx   d 8 00 00 00 00 00 00 00 00
 4.163070 1  18F131F3x       Rx   d 8 00 00 00 00 00 00 00 00
 4.163169 1  18F132F3x       Rx   d 8 00 00 00 00 00 00 00 00
 4.163266 1  18F133F3x       Rx   d 8 00 00 00 00 00 00 00 00
 4.163379 1  18F134F3x       Rx   d 8 00 00 00 00 00 00 00 00
 4.163480 1  18F135F3x       Rx   d 8 00 00 00 00 00 00 00 00
 4.163580 1  18F136F3x       Rx   d 8 00 00 00 00 00 00 00 00
 4.163678 1  18F137F3x       Rx   d 8 00 00 00 00 00 00 00 00
 4.163832 1  18F100D0x       Rx   d 8 0C FF FF FF FF FF FF FF
 4.163961 1  18F138F3x       Rx   d 8 00 00 00 00 00 00 00 00
 4.164069 1  18F139F3x       Rx   d 8 00 00 00 00 00 00 00 00
 4.164170 1  18F13AF3x       Rx   d 8 00 00 00 00 00 00 00 00
 4.164269 1  18F13BF3x       Rx   d 8 00 00 00 00 00 00 00 00
 4.164367 1  18F13CF3x       Rx   d 8 00 00 00 00 00 00 00 00
 4.164464 1  CFF21CAx        Rx   d 8 2E 00 3A 16 3D 3A 00 14
 4.164564 1  18F155F3x       Rx   d 8 37 37 38 38 38 39 38 00
 4.164939 1  18F156F3x       Rx   d 8 00 00 00 00 00 00 00 00
 4.165534 1  18FF2112x       Rx   d 8 01 00 00 00 00 00 00 00
 4.166117 1  18F157F3x       Rx   d 8 00 00 00 00 00 00 00 00
 4.167148 1  18F158F3x       Rx   d 8 00 00 00 00 00 00 00 00
 4.168088 1  18F159F3x       Rx   d 8 00 00 00 00 00 00 00 00
 4.168902 1  18F15AF3x       Rx   d 8 00 00 00 00 00 00 00 00
 4.169804 1  18F15BF3x       Rx   d 7 00 00 00 00 00 00 00
 4.170697 1  18F15CF3x       Rx   d 8 00 00 00 00 00 00 00 00
 4.171563 1  18F15DF3x       Rx   d 8 00 00 00 00 00 00 00 00
 4.172402 1  18F15EF3x       Rx   d 8 00 00 00 00 00 00 00 00
 4.174983 1  CFF21CAx        Rx   d 8 2E 00 39 16 3D 3A 00 14
 4.183117 1  18F100D0x       Rx   d 8 0C FF FF FF FF FF FF FF
 4.187542 1  CFF21CAx        Rx   d 8 2D 00 39 16 3D 3A 00 14
 4.199126 1  CFF21CAx        Rx   d 8 2D 00 37 16 3D 3A 00 14
 4.207129 1  18F100D0x       Rx   d 8 0C FF FF FF FF FF FF FF
 4.211685 1  CFF21CAx        Rx   d 8 2D 00 35 16 3D 3A 00 14
 4.219122 1  18F100F3x       Rx   d 8 03 38 7E 84 F5 FA 14 00
 4.219960 1  18F102F3x       Rx   d 8 10 19 10 12 10 0C 00 07
 4.221243 1  18F106F3x       Rx   d 8 45 E0 FC FF FF FF FF FF
 4.222473 1  18F107F3x       Rx   d 8 38 A4 27 10 01 73 00 00
 4.223674 1  CFF21CAx        Rx   d 8 2D 00 34 16 3D 3A 00 14
 4.224267 1  18F108F3x       Rx   d 8 00 00 00 00 00 00 00 00
 4.225134 1  18F155F3x       Rx   d 8 37 37 38 38 38 39 38 00
 4.226108 1  18F156F3x       Rx   d 8 00 00 00 00 00 00 00 00
 4.227140 1  18F157F3x       Rx   d 8 00 00 00 00 00 00 00 00
 4.228107 1  18F158F3x       Rx   d 8 00 00 00 00 00 00 00 00
 4.228966 1  18F159F3x       Rx   d 8 00 00 00 00 00 00 00 00
 4.229894 1  18F15AF3x       Rx   d 8 00 00 00 00 00 00 00 00
 4.230747 1  18F15BF3x       Rx   d 7 00 00 00 00 00 00 00
 4.231305 1  18F100D0x       Rx   d 8 0C FF FF FF FF FF FF FF
 4.231909 1  18F15CF3x       Rx   d 8 00 00 00 00 00 00 00 00
 4.232820 1  18F15DF3x       Rx   d 8 00 00 00 00 00 00 00 00
 4.233690 1  18F15EF3x       Rx   d 8 00 00 00 00 00 00 00 00
 4.235670 1  CFF21CAx        Rx   d 8 2D 00 32 16 3D 3A 00 14
 4.247324 1  CFF21CAx        Rx   d 8 2D 00 33 16 3D 3A 00 14
 4.255442 1  18F100D0x       Rx   d 8 0C FF FF FF FF FF FF FF
 4.259784 1  CFF21CAx        Rx   d 8 2D 00 32 16 3D 3A 00 14
 4.262590 1  18FF2112x       Rx   d 8 01 00 00 00 00 00 00 00
 4.271555 1  CFF21CAx        Rx   d 8 2D 00 34 16 3D 3A 00 14
 4.279454 1  18F100D0x       Rx   d 8 0C FF FF FF FF FF FF FF
 4.284298 1  CFF21CAx        Rx   d 8 2E 00 34 16 3D 3A 00 14
 4.295534 1  CFF21CAx        Rx   d 8 2E 00 36 16 3D 3A 00 14
 4.303763 1  18F100D0x       Rx   d 8 0C FF FF FF FF FF FF FF
 4.308032 1  CFF21CAx        Rx   d 8 2E 00 37 16 3D 3A 00 14
 4.319129 1  18F100F3x       Rx   d 8 03 37 7E 6B F5 FA 14 00
 4.319568 1  CFF21CAx        Rx   d 8 2E 00 36 16 3D 3A 00 14
 4.320157 1  18F102F3x       Rx   d 8 10 19 10 12 10 0C 00 07
 4.321396 1  18F106F3x       Rx   d 8 45 E0 FC FF FF FF FF FF
 4.322665 1  18F107F3x       Rx   d 8 38 A4 27 10 01 72 00 00
 4.324600 1  18F108F3x       Rx   d 8 00 00 00 00 00 00 00 00
 4.325417 1  18F155F3x       Rx   d 8 37 37 38 38 38 39 38 00
 4.326358 1  18F156F3x       Rx   d 8 00 00 00 00 00 00 00 00
 4.327221 1  18F157F3x       Rx   d 8 00 00 00 00 00 00 00 00
 4.327878 1  18F100D0x       Rx   d 8 0C FF FF FF FF FF FF FF
 4.328433 1  18F158F3x       Rx   d 8 00 00 00 00 00 00 00 00
 4.329315 1  18F159F3x       Rx   d 8 00 00 00 00 00 00 00 00
 4.330329 1  18F15AF3x       Rx   d 8 00 00 00 00 00 00 00 00
 4.330991 1  18F15BF3x       Rx   d 7 00 00 00 00 00 00 00
 4.331982 1  18F15CF3x       Rx   d 8 00 00 00 00 00 00 00 00
 4.332505 1  CFF21CAx        Rx   d 8 2E 00 34 16 3D 3A 00 14
 4.333120 1  18F15DF3x       Rx   d 8 00 00 00 00 00 00 00 00
 4.333850 1  18F15EF3x       Rx   d 8 00 00 00 00 00 00 00 00
 4.343849 1  CFF21CAx        Rx   d 8 2E 00 34 16 3D 3A 00 14
 4.351883 1  18F100D0x       Rx   d 8 0C FF FF FF FF FF FF FF
 4.356179 1  CFF21CAx        Rx   d 8 2E 00 33 16 3D 3A 00 14
 4.359988 1  18FF2112x       Rx   d 8 01 00 00 00 00 00 00 00
 4.367972 1  CFF21CAx        Rx   d 8 2E 00 34 16 3D 3A 00 14
 4.381869 1  18F100D0x       Rx   d 8 0C FF FF FF FF FF FF FF
 4.381994 1  CFF21CAx        Rx   d 8 2F 00 34 16 3D 3A 00 14
 4.391955 1  CFF21CAx        Rx   d 8 2F 00 33 16 3D 3A 00 14
 4.399914 1  18F100D0x       Rx   d 8 0C FF FF FF FF FF FF FF
 4.404506 1  CFF21CAx        Rx   d 8 2F 00 34 16 3D 3A 00 14
 4.416065 1  CFF21CAx        Rx   d 8 2F 00 33 16 3D 3A 00 14
 4.419093 1  18F100F3x       Rx   d 8 03 37 7E 6B F5 FA 14 00
 4.419900 1  18F102F3x       Rx   d 8 10 19 10 12 10 0C 00 07
 4.421193 1  18F106F3x       Rx   d 8 45 E0 FC FF FF FF FF FF
 4.422466 1  18F107F3x       Rx   d 8 38 A4 27 10 01 72 00 00
 4.424322 1  18F108F3x       Rx   d 8 00 00 00 00 00 00 00 00
 4.425167 1  18F155F3x       Rx   d 8 37 37 38 38 38 39 38 00
 4.426108 1  18F156F3x       Rx   d 8 00 00 00 00 00 00 00 00
 4.427157 1  18F157F3x       Rx   d 8 00 00 00 00 00 00 00 00
 4.428081 1  18F158F3x       Rx   d 8 00 00 00 00 00 00 00 00
 4.428587 1  CFF21CAx        Rx   d 8 2F 00 32 16 3D 3A 00 14
 4.429156 1  18F100D0x       Rx   d 8 0C FF FF FF FF FF FF FF
 4.429735 1  18F159F3x       Rx   d 8 00 00 00 00 00 00 00 00
 4.430699 1  18F15AF3x       Rx   d 8 00 00 00 00 00 00 00 00
 4.431479 1  18F15BF3x       Rx   d 7 00 00 00 00 00 00 00
 4.432366 1  18F15CF3x       Rx   d 8 00 00 00 00 00 00 00 00
 4.433211 1  18F15DF3x       Rx   d 8 00 00 00 00 00 00 00 00
 4.434094 1  18F15EF3x       Rx   d 8 00 00 00 00 00 00 00 00
 4.440108 1  CFF21CAx        Rx   d 8 2E 00 35 16 3D 3A 00 14
 4.452139 1  CFF21CAx        Rx   d 8 2E 00 33 16 3D 3A 00 14
 4.452660 1  18F100D0x       Rx   d 8 0C FF FF FF FF FF FF FF
 4.457432 1  18FF2112x       Rx   d 8 01 00 00 00 00 00 00 00
 4.464172 1  CFF21CAx        Rx   d 8 2E 00 34 16 3D 3A 00 14
 4.476782 1  CFF21CAx        Rx   d 8 2E 00 34 16 3D 3A 00 14
 4.477429 1  18F100D0x       Rx   d 8 0C FF FF FF FF FF FF FF
 4.488622 1  CFF21CAx        Rx   d 8 2E 00 32 16 3D 3A 00 14
 4.500343 1  CFF21CAx        Rx   d 8 2E 00 35 16 3D 3A 00 14
 4.500868 1  18F100D0x       Rx   d 8 0C FF FF FF FF FF FF FF
 4.512524 1  CFF21CAx        Rx   d 8 2D 00 36 16 3D 3A 00 14
 4.519292 1  18F100F3x       Rx   d 8 03 37 7E 78 F5 FA 14 00
 4.520102 1  18F102F3x       Rx   d 8 10 19 10 12 10 0C 00 07
 4.521375 1  18F106F3x       Rx   d 8 45 E0 FC FF FF FF FF FF
 4.522631 1  18F107F3x       Rx   d 8 38 A4 27 10 01 72 00 00
 4.524291 1  18F108F3x       Rx   d 8 00 00 00 00 00 00 00 00
 4.524943 1  CFF21CAx        Rx   d 8 2D 00 37 16 3D 3A 00 14
 4.525607 1  18F100D0x       Rx   d 8 0C FF FF FF FF FF FF FF
 4.526150 1  18F155F3x       Rx   d 8 37 37 38 38 38 39 38 00
 4.527303 1  18F156F3x       Rx   d 8 00 00 00 00 00 00 00 00
 4.528228 1  18F157F3x       Rx   d 8 00 00 00 00 00 00 00 00
 4.529012 1  18F158F3x       Rx   d 8 00 00 00 00 00 00 00 00
 4.530037 1  18F159F3x       Rx   d 8 00 00 00 00 00 00 00 00
 4.530936 1  18F15AF3x       Rx   d 8 00 00 00 00 00 00 00 00
 4.531781 1  18F15BF3x       Rx   d 7 00 00 00 00 00 00 00
 4.532648 1  18F15CF3x       Rx   d 8 00 00 00 00 00 00 00 00
 4.533509 1  18F15DF3x       Rx   d 8 00 00 00 00 00 00 00 00
 4.534202 1  18F15EF3x       Rx   d 8 00 00 00 00 00 00 00 00
 4.536403 1  CFF21CAx        Rx   d 8 2D 00 38 16 3D 3A 00 14
 4.548649 1  CFF21CAx        Rx   d 8 2D 00 38 16 3D 3A 00 14
 4.549236 1  18F100D0x       Rx   d 8 0C FF FF FF FF FF FF FF
 4.554629 1  18FF2112x       Rx   d 8 01 00 00 00 00 00 00 00
 4.560539 1  CFF21CAx        Rx   d 8 2D 00 37 16 3D 3A 00 14
 4.573260 1  CFF21CAx        Rx   d 8 2D 00 35 16 3D 3A 00 14
 4.573749 1  18F100D0x       Rx   d 8 0C FF FF FF FF FF FF FF
 4.584909 1  CFF21CAx        Rx   d 8 2D 00 31 16 3D 3A 00 14
 4.606662 1  CFF21CAx        Rx   d 8 2D 00 31 16 3D 3A 00 14
 4.606774 1  18F100D0x       Rx   d 8 0C FF FF FF FF FF FF FF
 4.608762 1  CFF21CAx        Rx   d 8 2E 00 2F 16 3D 3A 00 14
 4.619088 1  18F100F3x       Rx   d 8 03 37 7E 78 F5 FA 14 00
 4.619941 1  18F102F3x       Rx   d 8 10 19 10 12 10 0C 00 07
 4.621287 1  18F106F3x       Rx   d 8 45 E0 FC FF FF FF FF FF
 4.621755 1  CFF21CAx        Rx   d 8 2E 00 31 16 3D 3A 00 14
 4.622342 1  18F100D0x       Rx   d 8 0C FF FF FF FF FF FF FF
 4.622926 1  18F107F3x       Rx   d 8 38 A4 27 10 01 72 00 00
 4.624759 1  18F108F3x       Rx   d 8 00 00 00 00 00 00 00 00
 4.625687 1  18F155F3x       Rx   d 8 37 37 38 38 38 39 38 00
 4.626532 1  18F156F3x       Rx   d 8 00 00 00 00 00 00 00 00
 4.627454 1  18F157F3x       Rx   d 8 00 00 00 00 00 00 00 00
 4.628305 1  18F158F3x       Rx   d 8 00 00 00 00 00 00 00 00
 4.629199 1  18F159F3x       Rx   d 8 00 00 00 00 00 00 00 00
 4.630099 1  18F15AF3x       Rx   d 8 00 00 00 00 00 00 00 00
 4.630913 1  18F15BF3x       Rx   d 7 00 00 00 00 00 00 00
 4.631824 1  18F15CF3x       Rx   d 8 00 00 00 00 00 00 00 00
 4.632731 1  18F15DF3x       Rx   d 8 00 00 00 00 00 00 00 00
 4.633271 1  CFF21CAx        Rx   d 8 2E 00 32 16 3D 3A 00 14
 4.633819 1  18F15EF3x       Rx   d 8 00 00 00 00 00 00 00 00
 4.644914 1  CFF21CAx        Rx   d 8 2E 00 2F 16 3D 3A 00 14
 4.648912 1  18F100D0x       Rx   d 8 0C FF FF FF FF FF FF FF
 4.651704 1  18FF2112x       Rx   d 8 01 00 00 00 00 00 00 00
 4.656893 1  CFF21CAx        Rx   d 8 2E 00 33 16 3D 3A 00 14
 4.669042 1  CFF21CAx        Rx   d 8 2E 00 32 16 3D 3A 00 14
 4.673076 1  18F100D0x       Rx   d 8 0C FF FF FF FF FF FF FF
 4.681143 1  CFF21CAx        Rx   d 8 2E 00 30 16 3D 3A 00 14
 4.693122 1  CFF21CAx        Rx   d 8 2E 00 32 16 3D 3A 00 14
 4.697579 1  18F100D0x       Rx   d 8 0C FF FF FF FF FF FF FF
 4.705278 1  CFF21CAx        Rx   d 8 2E 00 31 16 3D 3A 00 14
 4.717292 1  CFF21CAx        Rx   d 8 2E 00 2F 16 3D 3A 00 14
 4.719175 1  18F100F3x       Rx   d 8 03 37 7E 78 F5 FA 14 00
 4.720016 1  18F102F3x       Rx   d 8 10 19 10 12 10 0C 00 07
 4.721329 1  18F106F3x       Rx   d 8 45 E0 FC FF FF FF FF FF
 4.722013 1  18F100D0x       Rx   d 8 0C FF FF FF FF FF FF FF
 4.722741 1  18F107F3x       Rx   d 8 38 A4 27 10 01 72 00 00
 4.724545 1  18F108F3x       Rx   d 8 00 00 00 00 00 00 00 00
 4.725406 1  18F155F3x       Rx   d 8 37 37 38 38 38 39 38 00
 4.726285 1  18F156F3x       Rx   d 8 00 00 00 00 00 00 00 00
 4.727152 1  18F157F3x       Rx   d 8 00 00 00 00 00 00 00 00
 4.728194 1  18F158F3x       Rx   d 8 00 00 00 00 00 00 00 00
 4.729081 1  18F159F3x       Rx   d 8 00 00 00 00 00 00 00 00
 4.729669 1  CFF21CAx        Rx   d 8 2E 00 33 16 3D 3A 00 14
 4.730404 1  18F15AF3x       Rx   d 8 00 00 00 00 00 00 00 00
 4.731044 1  18F15BF3x       Rx   d 7 00 00 00 00 00 00 00
 4.731843 1  18F15CF3x       Rx   d 8 00 00 00 00 00 00 00 00
 4.732790 1  18F15DF3x       Rx   d 8 00 00 00 00 00 00 00 00
 4.733618 1  18F15EF3x       Rx   d 8 00 00 00 00 00 00 00 00
 4.741325 1  CFF21CAx        Rx   d 8 2E 00 30 16 3D 3A 00 14
 4.745444 1  18F100D0x       Rx   d 8 0C FF FF FF FF FF FF FF
 4.749118 1  18FF2112x       Rx   d 8 01 00 00 00 00 00 00 00
 4.753481 1  CFF21CAx        Rx   d 8 2E 00 34 16 3D 3A 00 14
 4.765528 1  CFF21CAx        Rx   d 8 2E 00 35 16 3D 3A 00 14
 4.769374 1  18F100D0x       Rx   d 8 0C FF FF FF FF FF FF FF
 4.778025 1  CFF21CAx        Rx   d 8 2E 00 33 16 3D 3A 00 14
 4.789585 1  CFF21CAx        Rx   d 8 2E 00 34 16 3D 3A 00 14
 4.793733 1  18F100D0x       Rx   d 8 0C FF FF FF FF FF FF FF
 4.801782 1  CFF21CAx        Rx   d 8 2E 00 32 16 3D 3A 00 14
 4.825674 1  CFF21CAx        Rx   d 8 2E 00 32 16 3D 3A 00 14
 4.825805 1  18F100D0x       Rx   d 8 0C FF FF FF FF FF FF FF
 4.825908 1  18F100F3x       Rx   d 8 03 37 7E 8A F5 FA 14 00
 4.826013 1  18F102F3x       Rx   d 8 10 19 10 12 10 0C 00 07
 4.826116 1  18F106F3x       Rx   d 8 45 E0 FC FF FF FF FF FF
 4.826297 1  18F107F3x       Rx   d 8 38 A4 27 10 01 72 00 00
 4.826394 1  18F108F3x       Rx   d 8 00 00 00 00 00 00 00 00
 4.826502 1  18F155F3x       Rx   d 8 37 37 38 38 38 39 38 00
 4.826609 1  18F156F3x       Rx   d 8 00 00 00 00 00 00 00 00
 4.826785 1  CFF21CAx        Rx   d 8 2E 00 35 16 3D 3A 00 14
 4.827162 1  18F157F3x       Rx   d 8 00 00 00 00 00 00 00 00
 4.828089 1  18F158F3x       Rx   d 8 00 00 00 00 00 00 00 00
 4.828977 1  18F159F3x       Rx   d 8 00 00 00 00 00 00 00 00
 4.829889 1  18F15AF3x       Rx   d 8 00 00 00 00 00 00 00 00
 4.830753 1  18F15BF3x       Rx   d 7 00 00 00 00 00 00 00
 4.831623 1  18F15CF3x       Rx   d 8 00 00 00 00 00 00 00 00
 4.832472 1  18F15DF3x       Rx   d 8 00 00 00 00 00 00 00 00
 4.833305 1  18F15EF3x       Rx   d 8 00 00 00 00 00 00 00 00
 4.837666 1  CFF21CAx        Rx   d 8 2E 00 34 16 3D 3A 00 14
 4.842112 1  18F100D0x       Rx   d 8 0C FF FF FF FF FF FF FF
 4.846280 1  18FF2112x       Rx   d 8 01 00 00 00 00 00 00 00
 4.849765 1  CFF21CAx        Rx   d 8 2E 00 36 16 3D 3A 00 14
 4.861817 1  CFF21CAx        Rx   d 8 2E 00 36 16 3D 3A 00 14
 4.865820 1  18F100D0x       Rx   d 8 0C FF FF FF FF FF FF FF
