date Sat May 23 19:06:48.850 2026
base hex  timestamps absolute
internal events logged
Begin Triggerblock Sat May 23 19:06:53.621 2026
 0.000000 Start of measurement
 0.000000 1  740             Rx   d 8 03 22 A5 00 00 00 00 00
 0.003048 1  748             Rx   d 8 04 62 A5 00 01 00 00 00
 0.004997 1  740             Rx   d 8 03 22 01 06 00 00 00 00
 0.009126 1  748             Rx   d 8 05 62 01 06 A0 00 00 00
 0.010505 1  740             Rx   d 8 03 22 A5 00 00 00 00 00
 0.013209 1  748             Rx   d 8 04 62 A5 00 01 00 00 00
 0.014296 1  740             Rx   d 8 03 22 01 06 00 00 00 00
 0.017129 1  748             Rx   d 8 05 62 01 06 A0 00 00 00
 0.018172 1  740             Rx   d 8 03 22 F1 95 00 00 00 00
 0.021217 1  748             Rx   d 8 10 0B 62 F1 95 33 2E 30
 0.022439 1  740             Rx   d 8 30 00 04 00 00 00 00 00
 0.022927 1  748             Rx   d 8 21 2E 34 2E 34 00 00 00
 0.024356 1  740             Rx   d 8 03 22 A5 0F 00 00 00 00
 0.026815 1  748             Rx   d 8 10 1F 62 A5 0F 41 36 35
 0.028033 1  740             Rx   d 8 30 00 04 00 00 00 00 00
 0.028927 1  748             Rx   d 8 21 30 5F 43 31 32 31 2E
 0.032744 1  748             Rx   d 8 22 30 37 34 2E 30 30 31
 0.036921 1  748             Rx   d 8 23 2E 30 31 5F 54 31 2E
 0.040978 1  748             Rx   d 8 24 30 2E 32 00 00 00 00
 0.042475 1  740             Rx   d 8 03 22 28 00 00 00 00 00
 0.044997 1  748             Rx   d 8 10 0F 62 28 00 03 17 03
 0.046162 1  740             Rx   d 8 30 00 04 00 00 00 00 00
 0.047078 1  748             Rx   d 8 21 E8 03 12 FF E6 00 07
 0.051231 1  748             Rx   d 8 22 34 06 00 00 00 00 00
 0.051976 1  740             Rx   d 8 02 10 03 00 00 00 00 00
 0.055231 1  748             Rx   d 8 06 50 03 00 32 00 C8 00
 0.056292 1  740             Rx   d 8 02 27 01 00 00 00 00 00
 0.059898 1  748             Rx   d 8 06 67 01 0D 4A F9 74 00
 0.060943 1  740             Rx   d 8 06 27 02 38 20 62 9F 00
 0.064867 1  748             Rx   d 8 02 67 02 00 00 00 00 00
 0.066063 1  740             Rx   d 8 10 09 34 00 24 00 00 3A
 0.066944 1  748             Rx   d 8 30 00 02 00 00 00 00 00
 0.067835 1  740             Rx   d 8 21 00 05 F8 00 00 00 00
 0.071329 1  748             Rx   d 8 04 74 20 02 00 00 00 00
 0.072184 1  740             Rx   d 8 12 04 36 01 01 00 3A BC
 0.073012 1  748             Rx   d 8 30 00 02 00 00 00 00 00
 0.073906 1  740             Rx   d 8 21 3B 6F 3C E9 3D 86 3D
 0.074134 1  740             Rx   d 8 22 BA 6C A8 EC 8F 6C 86
 0.075271 1  740             Rx   d 8 23 E6 8E 6B 85 EC 8C 6C
 0.077198 1  740             Rx   d 8 24 83 E6 8B 6B 82 20 18
 0.079421 1  740             Rx   d 8 25 EE 83 E6 82 7B 00 10
 0.081239 1  740             Rx   d 8 26 18 A6 30 ED 86 E6 85
 0.083386 1  740             Rx   d 8 27 7B 00 10 18 6A 70 6D
 0.085735 1  740             Rx   d 8 28 86 6E 83 EE 80 19 1F
 0.086258 1  740             Rx   d 8 29 6D 80 04 75 DF EE 8F
 0.088309 1  740             Rx   d 8 2A E6 8E 1B 88 0A B7 2C
 0.090211 1  740             Rx   d 8 2B 14 10 3D B7 4A 3D 6C
 0.092178 1  740             Rx   d 8 2C AA 34 EC 8C E3 82 6C
 0.094085 1  740             Rx   d 8 2D 86 18 A9 8A 6E 84 EE
 0.096087 1  740             Rx   d 8 2E 8A 1A E1 90 CC FF FF
 0.098335 1  740             Rx   d 8 2F 3B CD 00 0F 35 EC F0
 0.100173 1  740             Rx   d 8 20 10 16 3E 41 22 18 87
 0.102449 1  740             Rx   d 8 21 C6 70 B7 05 AE 86 18
 0.104419 1  740             Rx   d 8 22 AC 84 22 0C C6 80 AE
 0.106256 1  740             Rx   d 8 23 86 18 AC 84 23 03 C7
 0.108120 1  740             Rx   d 8 24 20 2E EE 8A 1A 10 CD
 0.110452 1  740             Rx   d 8 25 7F FF 35 C7 87 3B EC
 0.112221 1  740             Rx   d 8 26 F0 10 16 3E 41 22 19
 0.113370 1  740             Rx   d 8 27 87 C6 10 B7 05 AE 86
 0.115160 1  740             Rx   d 8 28 18 AC 84 22 0D CD 80
 0.117381 1  740             Rx   d 8 29 00 AD 86 18 AC 84 23
 0.118254 1  740             Rx   d 8 2A 03 C6 01 8F C6 FF 1B
 0.119309 1  740             Rx   d 8 2B 88 3D 3B 34 C3 C3 50
 0.121376 1  740             Rx   d 8 2C 18 89 00 00 CD 42 40
 0.122236 1  740             Rx   d 8 2D 35 CD 00 0F 35 16 3F
 0.124455 1  740             Rx   d 8 2E 11 16 3E 50 6C 82 6E
 0.125143 1  740             Rx   d 8 2F 80 87 C7 CE 00 80 AE
 0.127193 1  740             Rx   d 8 20 82 18 AC 80 22 03 52
 0.129089 1  740             Rx   d 8 21 20 06 E6 83 7B 01 00
 0.130090 1  740             Rx   d 8 22 C7 1B 84 3D 1B 99 3B
 0.132392 1  740             Rx   d 8 23 34 C6 01 6B 88 16 3A
 0.134166 1  740             Rx   d 8 24 48 6C 89 C7 87 6C 86
 0.136179 1  740             Rx   d 8 25 6C 84 20 04 07 52 22
 0.138423 1  740             Rx   d 8 26 46 1F 01 06 80 F7 C6
 0.140205 1  740             Rx   d 8 27 30 7B 01 06 79 01 02
 0.142414 1  740             Rx   d 8 28 C7 87 EE 80 18 84 00
 0.144196 1  740             Rx   d 8 29 7F 18 AA 8D 7E 01 0A
 0.146170 1  740             Rx   d 8 2A 52 7B 01 02 EE 82 18
 0.148398 1  740             Rx   d 8 2B 84 FF F8 7E 01 0A C6
 0.150172 1  740             Rx   d 8 2C 80 7B 01 06 C7 6C 86
 0.151455 1  740             Rx   d 8 2D 6C 84 20 04 07 1A 22
 0.152492 1  740             Rx   d 8 2E 0E 1F 01 06 80 F7 1F
 0.154232 1  740             Rx   d 8 2F 01 06 33 02 20 02 69
 0.155312 1  740             Rx   d 8 20 88 EC 89 16 3A 4D E6
 0.156358 1  740             Rx   d 8 21 88 1B 8B 3D EC 88 EE
 0.158231 1  740             Rx   d 8 22 86 16 3E 4B 6C 88 6E
 0.160163 1  740             Rx   d 8 23 86 CD 86 A0 35 CD 00
 0.161055 1  740             Rx   d 8 24 01 35 16 3E 41 3D 1B
 0.163103 1  740             Rx   d 8 25 99 3B EC 8D 3B EC 8D
 0.164282 1  740             Rx   d 8 26 3B EC 84 18 87 16 3A
 0.166266 1  740             Rx   d 8 27 50 1B 84 6B 88 27 07
 0.167351 1  740             Rx   d 8 28 04 01 04 C6 01 20 71
 0.169386 1  740             Rx   d 8 29 E6 88 27 05 CD 01 00
 0.171264 1  740             Rx   d 8 2A 20 03 CD 04 00 6D 86
 0.173218 1  740             Rx   d 8 2B 35 C7 87 3B EC F0 11
 0.175420 1  740             Rx   d 8 2C EE 8F 16 3F 1F 18 C7
 0.177219 1  740             Rx   d 8 2D 35 35 16 3E 41 27 04
 0.179219 1  740             Rx   d 8 2E C6 02 20 4A C7 87 6C
 0.180273 1  740             Rx   d 8 2F 84 20 37 E6 88 27 05
 0.182404 1  740             Rx   d 8 20 CD 12 00 20 03 CD 0A
 0.183362 1  740             Rx   d 8 21 00 35 EC 8F EE 8D 16
 0.185207 1  740             Rx   d 8 22 3A EF 1B 82 04 41 04
 0.187325 1  740             Rx   d 8 23 C6 03 20 27 EC 86 E3
 0.189180 1  740             Rx   d 8 24 8D 6C 8D CC 00 00 18
 0.190395 1  740             Rx   d 8 25 E3 8B 6C 8B EC 86 E3
 0.192248 1  740             Rx   d 8 26 84 6C 84 CC 00 00 18
 0.194232 1  740             Rx   d 8 27 E3 82 6C 82 C7 87 EE
 0.195075 1  740             Rx   d 8 28 80 AE 84 18 AC 82 22
 0.197169 1  740             Rx   d 8 29 BC 1B 89 3D 15 E3 00
 0.204165 1  748             Rx   d 8 02 76 01 00 00 00 00 00
 0.205438 1  740             Rx   d 8 12 04 36 02 34 37 07 2B
 0.205988 1  748             Rx   d 8 30 00 02 00 00 00 00 00
 0.206964 1  740             Rx   d 8 21 26 22 07 27 26 1E 07
 0.208303 1  740             Rx   d 8 22 23 26 1A EE 86 E6 85
 0.210205 1  740             Rx   d 8 23 5B 10 18 EC 00 EE 81
 0.211441 1  740             Rx   d 8 24 3B E6 82 5B 10 18 ED
 0.213280 1  740             Rx   d 8 25 00 35 EC 82 AC B3 27
 0.215307 1  740             Rx   d 8 26 02 C7 8F C6 01 1B 83
 0.216153 1  740             Rx   d 8 27 3D EE 88 19 02 6D 88
 0.217406 1  740             Rx   d 8 28 ED 83 34 1A 42 6E 85
 0.218397 1  740             Rx   d 8 29 E6 89 5B 10 30 18 EC
 0.220357 1  740             Rx   d 8 2A 00 3B E6 84 5B 10 18
 0.221296 1  740             Rx   d 8 2B EE 40 34 EC 82 AC B3
 0.223296 1  740             Rx   d 8 2C 3D 1B 99 34 37 C6 01
 0.225224 1  740             Rx   d 8 2D 6B 87 16 3A 48 6C 88
 0.226192 1  740             Rx   d 8 2E C7 87 6C 85 6C 83 20
 0.228070 1  740             Rx   d 8 2F 04 07 69 22 5D 1F 01
 0.230157 1  740             Rx   d 8 20 06 80 F7 C6 30 7B 01
 0.231289 1  740             Rx   d 8 21 06 79 01 02 C7 87 EE
 0.233201 1  740             Rx   d 8 22 8C 18 84 00 7F 18 AA
 0.234134 1  740             Rx   d 8 23 F0 10 7E 01 0A 52 7B
 0.236184 1  740             Rx   d 8 24 01 02 EE 8E 7E 01 0A
 0.237512 1  740             Rx   d 8 25 58 7B 01 02 EE 81 19
 0.238356 1  740             Rx   d 8 26 02 6D 81 A6 80 5A 10
 0.240364 1  740             Rx   d 8 27 18 ED 00 7D 01 0A 52
 0.242362 1  740             Rx   d 8 28 C1 06 25 E8 C6 80 7B
 0.244179 1  740             Rx   d 8 29 01 06 C7 87 6C 85 6C
 0.246517 1  740             Rx   d 8 2A 83 20 04 07 1A 22 0E
 0.248263 1  740             Rx   d 8 2B 1F 01 06 80 F7 1F 01
 0.250369 1  740             Rx   d 8 2C 06 33 02 20 02 69 87
 0.252279 1  740             Rx   d 8 2D EC 88 16 3A 4D E6 87
 0.253501 1  740             Rx   d 8 2E 1B 8A 3D EC 87 EE 85
 0.255236 1  740             Rx   d 8 2F 16 3E 4B 6C 87 6E 85
 0.256342 1  740             Rx   d 8 20 CD 86 A0 35 CD 00 01
 0.257196 1  740             Rx   d 8 21 35 16 3E 41 3D 6C A8
 0.258275 1  740             Rx   d 8 22 69 86 EC 8F 3B EC 8F
 0.260133 1  740             Rx   d 8 23 3B EC 84 18 87 16 3A
 0.261158 1  740             Rx   d 8 24 50 1B 84 6B 87 27 07
 0.262167 1  740             Rx   d 8 25 04 01 04 C6 01 20 7C
 0.263218 1  740             Rx   d 8 26 C7 87 6C 84 20 69 E6
 0.265416 1  740             Rx   d 8 27 87 27 05 CD 11 00 20
 0.267331 1  740             Rx   d 8 28 03 CD 06 00 35 EC F0
 0.269225 1  740             Rx   d 8 29 11 3B EC F0 11 3B EE
 0.270699 1  740             Rx   d 8 2A F0 11 E6 F0 10 16 3C
 0.272397 1  740             Rx   d 8 2B 52 1B 86 04 41 10 C6
 0.274321 1  740             Rx   d 8 2C 02 20 4F 62 86 E6 86
 0.276328 1  740             Rx   d 8 2D C1 03 23 04 C6 03 20
 0.278265 1  740             Rx   d 8 2E 43 EE 8B E6 8A 34 37
 0.279404 1  740             Rx   d 8 2F EE F0 12 E6 F0 11 16
 0.280345 1  740             Rx   d 8 20 3C 00 1B 83 04 51 E0
 0.281499 1  740             Rx   d 8 21 EC 8F C3 00 08 6C 8F
 0.283277 1  740             Rx   d 8 22 EC 8D C9 00 89 00 6C
 0.284452 1  740             Rx   d 8 23 8D EE 8B 1A 08 6E 8B
 0.286264 1  740             Rx   d 8 24 EC 84 C3 00 08 6C 84
 0.287418 1  740             Rx   d 8 25 EC 82 C9 00 89 00 6C
 0.289237 1  740             Rx   d 8 26 82 C7 87 EE 80 AE 84
 0.291515 1  740             Rx   d 8 27 18 AC 82 22 8A 1B 88
 0.293191 1  740             Rx   d 8 28 3D 6C AD EC 8A 3B EC
 0.295178 1  740             Rx   d 8 29 8A 3B EC 84 18 87 16
 0.296221 1  740             Rx   d 8 2A 3A 50 1B 84 6B 82 27
 0.297408 1  740             Rx   d 8 2B 07 04 01 04 C6 01 20
 0.299266 1  740             Rx   d 8 2C 15 EC 86 3B E6 87 37
 0.301266 1  740             Rx   d 8 2D EC 8D 3B E6 8E 37 EC
 0.302438 1  740             Rx   d 8 2E 86 4A 3A 0C 00 1B 86
 0.303599 1  740             Rx   d 8 2F C7 1B 83 3D 1B 99 3B
 0.305276 1  740             Rx   d 8 20 C6 01 6B 86 16 3A 48
 0.307319 1  740             Rx   d 8 21 6C 87 C7 87 6C 84 6C
 0.309346 1  740             Rx   d 8 22 82 20 0F 07 65 CD 86
 0.310570 1  740             Rx   d 8 23 A0 35 CD 00 01 35 16
 0.312295 1  740             Rx   d 8 24 3E 41 22 4E 1F 01 06
 0.314562 1  740             Rx   d 8 25 80 EC CC 20 30 7B 01
 0.316418 1  740             Rx   d 8 26 06 79 01 02 C7 7C 01
 0.317559 1  740             Rx   d 8 27 0A 52 7B 01 02 EE 8B
 0.319694 1  740             Rx   d 8 28 7E 01 0A 58 7B 01 02
 0.321293 1  740             Rx   d 8 29 EE 80 7E 01 A1 7D 00
 0.325862 1  748             Rx   d 8 02 76 02 00 00 00 00 00
 0.327082 1  740             Rx   d 8 11 FC 36 03 0A C6 80 7B
 0.327826 1  748             Rx   d 8 30 00 02 00 00 00 00 00
 0.329011 1  740             Rx   d 8 21 01 06 C7 87 6C 84 6C
 0.330211 1  740             Rx   d 8 22 82 20 0F 07 25 CD 42
 0.331273 1  740             Rx   d 8 23 40 35 CD 00 0F 35 16
 0.332431 1  740             Rx   d 8 24 3E 41 22 0E 1F 01 06
 0.333372 1  740             Rx   d 8 25 80 EC 1F 01 06 30 02
 0.335486 1  740             Rx   d 8 26 20 02 69 86 EC 87 16
 0.336253 1  740             Rx   d 8 27 3A 4D E6 86 1B 89 3D
 0.337582 1  740             Rx   d 8 28 EC 86 EE 84 16 3E 4B
 0.338456 1  740             Rx   d 8 29 6C 86 6E 84 3D AC 84
 0.339384 1  740             Rx   d 8 2A 18 AE 82 31 1B 84 05
 0.340514 1  740             Rx   d 8 2B 40 04 A4 01 08 3D 83
 0.342508 1  740             Rx   d 8 2C 00 01 18 82 00 00 3D
 0.344368 1  740             Rx   d 8 2D 18 69 82 EC 8C 26 1D
 0.346336 1  740             Rx   d 8 2E EE 8E ED 86 EC 88 11
 0.348631 1  740             Rx   d 8 2F 28 0C EC 86 18 C7 11
 0.350397 1  740             Rx   d 8 20 6D 82 B7 46 EC 88 11
 0.351557 1  740             Rx   d 8 21 6D 84 6C 88 18 69 86
 0.353324 1  740             Rx   d 8 22 3D 97 27 09 EE 86 B7
 0.355481 1  740             Rx   d 8 23 C5 CD 00 00 20 08 EE
 0.356491 1  740             Rx   d 8 24 8D E6 86 ED 87 B7 C6
 0.357572 1  740             Rx   d 8 25 11 35 EC F0 10 13 3B
 0.358317 1  740             Rx   d 8 26 35 EC F0 12 ED 84 13
 0.360351 1  740             Rx   d 8 27 E3 B1 30 B7 C5 CD 00
 0.362260 1  740             Rx   d 8 28 00 35 65 81 A3 8C B7
 0.363280 1  740             Rx   d 8 29 C5 18 A3 8A 31 04 46
 0.365512 1  740             Rx   d 8 2A 11 36 69 AF 31 37 32
 0.367378 1  740             Rx   d 8 2B 34 33 EE F0 10 11 B7
 0.368576 1  740             Rx   d 8 2C 65 32 20 1F 25 2A 04
 0.370567 1  740             Rx   d 8 2D 64 03 04 45 39 E7 8E
 0.371465 1  740             Rx   d 8 2E 27 06 EE 8E 87 C7 20
 0.372556 1  740             Rx   d 8 2F 0B B7 C5 36 34 69 AF
 0.373709 1  740             Rx   d 8 20 EE F0 13 31 3A 18 10
 0.375437 1  740             Rx   d 8 21 08 3A 34 A3 B1 B7 46
 0.376600 1  740             Rx   d 8 22 20 A4 31 02 20 A0 41
 0.377738 1  740             Rx   d 8 23 51 B7 C5 41 51 04 A4
 0.378724 1  740             Rx   d 8 24 01 08 AE 8E 22 EE 25
 0.380545 1  740             Rx   d 8 25 05 AC F0 10 24 E7 31
 0.382598 1  740             Rx   d 8 26 6D 84 18 69 82 6C 88
 0.384540 1  740             Rx   d 8 27 6E 86 3D 3B 34 1B 9C
 0.385763 1  740             Rx   d 8 28 16 3E 58 30 EC B5 ED
 0.387476 1  740             Rx   d 8 29 B5 05 40 3B 34 1B 9C
 0.388685 1  740             Rx   d 8 2A 16 3E 58 EE 84 EC 86
 0.390499 1  740             Rx   d 8 2B 1B 88 ED B5 05 40 FF
 0.391714 1  740             Rx   d 8 2C FF FF FF FF FF FF FF
 0.392645 1  740             Rx   d 8 2D FF FF FF FF FF FF FF
 0.394502 1  740             Rx   d 8 2E FF FF FF FF FF FF FF
 0.395498 1  740             Rx   d 8 2F FF FF FF FF FF FF FF
 0.396583 1  740             Rx   d 8 20 FF FF FF FF FF FF FF
 0.398751 1  740             Rx   d 8 21 FF FF FF FF FF FF FF
 0.400590 1  740             Rx   d 8 22 FF FF FF FF FF FF FF
 0.401798 1  740             Rx   d 8 23 FF FF FF FF FF FF FF
 0.402920 1  740             Rx   d 8 24 FF FF FF FF FF FF FF
 0.404664 1  740             Rx   d 8 25 FF FF FF FF FF FF FF
 0.405844 1  740             Rx   d 8 26 FF FF FF FF FF FF FF
 0.407698 1  740             Rx   d 8 27 FF FF FF FF FF FF FF
 0.409789 1  740             Rx   d 8 28 FF FF FF FF FF FF FF
 0.411679 1  740             Rx   d 8 29 FF FF FF FF FF FF FF
 0.412878 1  740             Rx   d 8 2A FF FF FF FF FF FF FF
 0.414709 1  740             Rx   d 8 2B FF FF FF FF FF FF FF
 0.416842 1  740             Rx   d 8 2C FF FF FF FF FF FF FF
 0.417697 1  740             Rx   d 8 2D FF FF FF FF FF FF FF
 0.418671 1  740             Rx   d 8 2E FF FF FF FF FF FF FF
 0.420512 1  740             Rx   d 8 2F FF FF FF FF FF FF FF
 0.421500 1  740             Rx   d 8 20 FF FF FF FF FF FF FF
 0.422673 1  740             Rx   d 8 21 FF FF FF FF FF FF FF
 0.424799 1  740             Rx   d 8 22 FF FF FF FF FF FF FF
 0.426570 1  740             Rx   d 8 23 FF FF FF FF FF FF FF
 0.427627 1  740             Rx   d 8 24 FF FF FF FF FF FF FF
 0.429540 1  740             Rx   d 8 25 FF FF FF FF FF FF FF
 0.431629 1  740             Rx   d 8 26 FF FF FF FF FF FF FF
 0.432603 1  740             Rx   d 8 27 FF FF FF FF FF FF FF
 0.433619 1  740             Rx   d 8 28 FF FF FF 35 E5 00 00
 0.437823 1  748             Rx   d 8 02 76 03 00 00 00 00 00
 0.439085 1  740             Rx   d 8 01 37 00 00 00 00 00 00
 0.441804 1  748             Rx   d 8 01 77 00 00 00 00 00 00
 0.454201 1  740             Rx   d 8 03 22 A5 0D 00 00 00 00
 0.458499 1  748             Rx   d 8 10 13 62 A5 0D 22 90 43
 0.459577 1  740             Rx   d 8 30 00 04 00 00 00 00 00
 0.462926 1  748             Rx   d 8 21 20 64 10 08 00 D0 90
 0.466950 1  748             Rx   d 8 22 A0 00 A0 00 00 22 00
 0.477921 1  740             Rx   d 8 03 22 A5 03 00 00 00 00
 0.480968 1  748             Rx   d 8 10 0A 62 A5 03 55 36 2F
 0.482011 1  740             Rx   d 8 30 00 04 00 00 00 00 00
 0.482892 1  748             Rx   d 8 21 69 55 36 00 00 00 00
 0.494823 1  740             Rx   d 8 03 22 A5 05 00 00 00 00
 0.499049 1  748             Rx   d 8 10 0F 62 A5 05 46 39 42
 0.500348 1  740             Rx   d 8 30 00 04 00 00 00 00 00
 0.500986 1  748             Rx   d 8 21 56 4C 30 32 30 39 30
 0.505231 1  748             Rx   d 8 22 31 00 00 00 00 00 00
 0.516871 1  740             Rx   d 8 03 22 06 48 00 00 00 00
 0.521248 1  748             Rx   d 8 03 7F 22 31 00 00 00 00
 0.532822 1  740             Rx   d 8 03 22 A5 0F 00 00 00 00
 0.536963 1  748             Rx   d 8 10 1F 62 A5 0F 41 36 35
 0.538167 1  740             Rx   d 8 30 00 04 00 00 00 00 00
 0.539505 1  748             Rx   d 8 21 30 5F 43 31 32 31 2E
 0.543266 1  748             Rx   d 8 22 30 37 34 2E 30 30 31
 0.547163 1  748             Rx   d 8 23 2E 30 31 5F 54 31 2E
 0.551087 1  748             Rx   d 8 24 30 2E 32 00 00 00 00
 0.562660 1  740             Rx   d 8 03 22 01 00 00 00 00 00
 0.566905 1  748             Rx   d 8 10 26 62 01 00 06 0B B8
 0.568103 1  740             Rx   d 8 30 00 04 00 00 00 00 00
 0.569666 1  748             Rx   d 8 21 13 88 02 D0 05 DC 01
 0.572942 1  748             Rx   d 8 22 2C 00 14 00 14 00 07
 0.576991 1  748             Rx   d 8 23 01 F4 03 E8 00 00 00
 0.581222 1  748             Rx   d 8 24 00 10 CC 0A 8C 00 71
 0.585246 1  748             Rx   d 8 25 00 00 13 88 00 00 00
 0.596736 1  740             Rx   d 8 03 22 0F 50 00 00 00 00
 0.601055 1  748             Rx   d 8 04 62 0F 50 01 00 00 00
 0.611994 1  740             Rx   d 8 03 22 28 00 00 00 00 00
 0.615178 1  748             Rx   d 8 10 0F 62 28 00 03 17 03
 0.616336 1  740             Rx   d 8 30 00 04 00 00 00 00 00
 0.617000 1  748             Rx   d 8 21 E8 03 12 FF E6 00 07
 0.621218 1  748             Rx   d 8 22 34 06 00 00 00 00 00
 0.632940 1  740             Rx   d 8 03 22 28 01 00 00 00 00
 0.636950 1  748             Rx   d 8 10 13 62 28 01 31 A4 54
 0.638287 1  740             Rx   d 8 30 00 04 00 00 00 00 00
 0.639036 1  748             Rx   d 8 21 E3 00 00 00 1F 00 3B
 0.643045 1  748             Rx   d 8 22 1C 03 00 08 C4 53 00
 0.654178 1  740             Rx   d 8 03 22 28 10 00 00 00 00
 0.657567 1  748             Rx   d 8 10 17 62 28 10 00 14 00
 0.658742 1  740             Rx   d 8 30 00 04 00 00 00 00 00
 0.659975 1  748             Rx   d 8 21 07 0F 5C 41 00 07 34
 0.665115 1  748             Rx   d 8 22 00 1E 00 00 1E 52 00
 0.669393 1  748             Rx   d 8 23 00 1E C5 00 00 00 00
 0.681094 1  740             Rx   d 8 03 22 28 20 00 00 00 00
 0.684839 1  748             Rx   d 8 10 13 62 28 20 0F 60 00
 0.686119 1  740             Rx   d 8 30 00 04 00 00 00 00 00
 0.686984 1  748             Rx   d 8 21 0F 0F 60 00 12 0F 5E
 0.691029 1  748             Rx   d 8 22 00 0C 0F 5E 00 0E 00
 0.702242 1  740             Rx   d 8 03 22 28 28 00 00 00 00
 0.705071 1  748             Rx   d 8 10 13 62 28 28 0F 59 00
 0.706210 1  740             Rx   d 8 30 00 04 00 00 00 00 00
 0.706855 1  748             Rx   d 8 21 0B 0F 5A 00 05 0F 5A
 0.711028 1  748             Rx   d 8 22 00 08 0F 5A 00 09 00
 0.721511 1  740             Rx   d 8 03 22 28 30 00 00 00 00
 0.724944 1  748             Rx   d 8 10 0F 62 28 30 42 00 05
 0.726035 1  740             Rx   d 8 30 00 04 00 00 00 00 00
 0.726830 1  748             Rx   d 8 21 41 00 00 41 00 02 41
 0.730926 1  748             Rx   d 8 22 00 03 00 00 00 00 00
 0.741841 1  740             Rx   d 8 03 22 28 38 00 00 00 00
 0.745563 1  748             Rx   d 8 10 0F 62 28 38 40 00 01
 0.746736 1  740             Rx   d 8 30 00 04 00 00 00 00 00
 0.749298 1  748             Rx   d 8 21 40 00 04 41 00 00 41
 0.753089 1  748             Rx   d 8 22 00 02 00 00 00 00 00
 0.763874 1  740             Rx   d 8 03 22 28 32 00 00 00 00
 0.766847 1  748             Rx   d 8 03 7F 22 31 00 00 00 00
 0.778162 1  740             Rx   d 8 03 22 28 3A 00 00 00 00
 0.780955 1  748             Rx   d 8 03 7F 22 31 00 00 00 00
 0.792305 1  740             Rx   d 8 03 22 28 50 00 00 00 00
 0.794838 1  748             Rx   d 8 05 62 28 50 00 00 00 00
 0.805645 1  740             Rx   d 8 03 22 0F 60 00 00 00 00
 0.809350 1  748             Rx   d 8 06 62 0F 60 07 00 80 00
 0.819495 1  740             Rx   d 8 03 22 02 00 00 00 00 00
 0.823013 1  748             Rx   d 8 05 62 02 00 00 14 00 00
 0.833643 1  740             Rx   d 8 03 22 02 02 00 00 00 00
 0.836908 1  748             Rx   d 8 10 17 62 02 02 00 01 02
 0.838149 1  740             Rx   d 8 30 00 04 00 00 00 00 00
 0.839105 1  748             Rx   d 8 21 03 04 05 06 07 08 09
 0.843031 1  748             Rx   d 8 22 0A 0B 0C 0D 0E 0F 14
 0.847212 1  748             Rx   d 8 23 15 16 17 00 00 00 00
 0.857980 1  740             Rx   d 8 03 22 01 01 00 00 00 00
 0.862889 1  748             Rx   d 8 10 2B 62 01 01 0F 5B 0F
 0.864083 1  740             Rx   d 8 30 00 04 00 00 00 00 00
 0.864685 1  748             Rx   d 8 21 5B 0F 5C 0F 5C 0F 5B
 0.869434 1  748             Rx   d 8 22 0F 5A 0F 5D 0F 5D 0F
 0.873073 1  748             Rx   d 8 23 5A 0F 5A 0F 5B 0F 5A
 0.876998 1  748             Rx   d 8 24 0F 5E 0F 5C 0F 5E 0F
 0.881054 1  748             Rx   d 8 25 60 0F 5B 0F 5D 0F 60
 0.885057 1  748             Rx   d 8 26 0F 5E 00 00 00 00 00
 0.895704 1  740             Rx   d 8 03 22 01 05 00 00 00 00
 0.899248 1  748             Rx   d 8 06 62 01 05 00 00 00 00
 0.910425 1  740             Rx   d 8 03 22 02 03 00 00 00 00
 0.913005 1  748             Rx   d 8 05 62 02 03 00 07 00 00
 0.924334 1  740             Rx   d 8 03 22 02 05 00 00 00 00
 0.926855 1  748             Rx   d 8 10 0A 62 02 05 00 01 02
 0.927994 1  740             Rx   d 8 30 00 04 00 00 00 00 00
 0.928963 1  748             Rx   d 8 21 04 05 06 07 00 00 00
 0.940380 1  740             Rx   d 8 03 22 01 02 00 00 00 00
 0.943234 1  748             Rx   d 8 10 0A 62 01 02 41 40 41
 0.944645 1  740             Rx   d 8 30 00 04 00 00 00 00 00
 0.945643 1  748             Rx   d 8 21 41 40 42 41 00 00 00
 0.956889 1  740             Rx   d 8 03 22 02 06 00 00 00 00
 0.959952 1  748             Rx   d 8 05 62 02 06 00 00 00 00
 0.970798 1  740             Rx   d 8 03 22 02 08 00 00 00 00
 0.973957 1  748             Rx   d 8 03 62 02 08 00 00 00 00
 0.984891 1  740             Rx   d 8 03 22 01 03 00 00 00 00
 0.987932 1  748             Rx   d 8 03 62 01 03 00 00 00 00
 0.998846 1  740             Rx   d 8 03 22 02 09 00 00 00 00
 1.001915 1  748             Rx   d 8 05 62 02 09 00 00 00 00
 1.013119 1  740             Rx   d 8 03 22 02 0B 00 00 00 00
 1.016194 1  748             Rx   d 8 03 62 02 0B 00 00 00 00
 1.027055 1  740             Rx   d 8 03 22 01 04 00 00 00 00
 1.029793 1  748             Rx   d 8 03 62 01 04 00 00 00 00
 1.041110 1  740             Rx   d 8 03 22 0E 21 00 00 00 00
 1.044068 1  748             Rx   d 8 10 09 62 0E 21 FF FF FF
 1.045255 1  740             Rx   d 8 30 00 04 00 00 00 00 00
 1.046081 1  748             Rx   d 8 21 FF FF FF 00 00 00 00
 1.057317 1  740             Rx   d 8 03 22 06 20 00 00 00 00
 1.059982 1  748             Rx   d 8 10 15 62 06 20 00 00 00
 1.061302 1  740             Rx   d 8 30 00 04 00 00 00 00 00
 1.063040 1  748             Rx   d 8 21 00 00 FF FF FF FF 00
 1.066975 1  748             Rx   d 8 22 00 00 00 00 00 00 00
 1.071285 1  748             Rx   d 8 23 00 00 00 00 00 00 00
 1.083430 1  740             Rx   d 8 03 22 06 21 00 00 00 00
 1.087072 1  748             Rx   d 8 03 7F 22 31 00 00 00 00
 1.099234 1  740             Rx   d 8 03 22 40 00 00 00 00 00
 1.103079 1  748             Rx   d 8 10 22 62 40 00 00 00 00
 1.104384 1  740             Rx   d 8 30 00 04 00 00 00 00 00
 1.104947 1  748             Rx   d 8 21 00 00 00 00 00 00 00
 1.109136 1  748             Rx   d 8 22 00 FF FF 00 00 00 00
 1.112938 1  748             Rx   d 8 23 00 00 00 00 FF 00 00
 1.117080 1  748             Rx   d 8 24 FF FF FF FF FF FF FF
