date Sat May 16 13:40:30.107 2026
base hex  timestamps absolute
internal events logged
Begin Triggerblock Sat May 16 13:40:30.110 2026
 0.000000 Start of measurement
 0.000000 1  18F104F3x       Rx   d 8 32 31 06 01 01 FF FF FF
 0.003556 1  18F100D0x       Rx   d 8 0C FF FF FF FF FF FF FF
 0.016574 1  18F113F3x       Rx   d 8 0F F5 0F F5 0F F5 0F F5
 0.017720 1  18F114F3x       Rx   d 8 0F F4 0F F3 0F F6 0F F6
 0.017964 1  18F115F3x       Rx   d 8 0F F3 0F F3 0F F4 0F F3
 0.018179 1  18F116F3x       Rx   d 8 0F F8 0F F6 0F F8 0F FA
 0.018389 1  CFF21CAx        Rx   d 8 03 00 80 0C 36 33 00 10
 0.018599 1  18F100F3x       Rx   d 8 03 31 7D 18 EB FA 14 00
 0.018811 1  18F102F3x       Rx   d 8 0F FA 0F F3 10 06 00 07
 0.019029 1  18F106F3x       Rx   d 8 45 E0 FC FF FF FF FF FF
 0.019233 1  18F107F3x       Rx   d 8 38 A4 27 10 01 70 00 00
 0.019445 1  18F108F3x       Rx   d 8 00 00 00 00 00 00 00 00
 0.019650 1  18F117F3x       Rx   d 8 0F F5 0F F6 0F FA 0F F9
 0.019855 1  18F118F3x       Rx   d 8 00 00 00 00 00 00 00 00
 0.020052 1  18F119F3x       Rx   d 8 00 00 00 00 00 00 00 00
 0.020249 1  18F11AF3x       Rx   d 8 00 00 00 00 00 00 00 00
 0.020446 1  18F11BF3x       Rx   d 8 00 00 00 00 00 00 00 00
 0.020643 1  CFF21CAx        Rx   d 8 03 00 80 0C 36 33 00 10
 0.020848 1  18F11CF3x       Rx   d 8 00 00 00 00 00 00 00 00
 0.021049 1  18F11DF3x       Rx   d 8 00 00 00 00 00 00 00 00
 0.021249 1  18F11EF3x       Rx   d 8 00 00 00 00 00 00 00 00
 0.021448 1  18F11FF3x       Rx   d 8 00 00 00 00 00 00 00 00
 0.021646 1  18F120F3x       Rx   d 8 00 00 00 00 00 00 00 00
 0.021844 1  18F121F3x       Rx   d 8 00 00 00 00 00 00 00 00
 0.022043 1  18F122F3x       Rx   d 8 00 00 00 00 00 00 00 00
 0.023056 1  18F123F3x       Rx   d 8 00 00 00 00 00 00 00 00
 0.023966 1  18F124F3x       Rx   d 8 00 00 00 00 00 00 00 00
 0.024929 1  18F125F3x       Rx   d 8 00 00 00 00 00 00 00 00
 0.025891 1  18F126F3x       Rx   d 8 00 00 00 00 00 00 00 00
 0.026622 1  18F127F3x       Rx   d 8 00 00 00 00 00 00 00 00
 0.027480 1  CFF21CAx        Rx   d 8 03 00 80 0C 36 33 00 10
 0.028081 1  18F100D0x       Rx   d 8 0C FF FF FF FF FF FF FF
 0.028714 1  18F128F3x       Rx   d 8 00 00 00 00 00 00 00 00
 0.029617 1  18F129F3x       Rx   d 8 00 00 00 00 00 00 00 00
 0.031071 1  18F12AF3x       Rx   d 8 00 00 00 00 00 00 00 00
 0.031900 1  18F12BF3x       Rx   d 8 00 00 00 00 00 00 00 00
 0.032875 1  18F12CF3x       Rx   d 8 00 00 00 00 00 00 00 00
 0.033654 1  18F12DF3x       Rx   d 8 00 00 00 00 00 00 00 00
 0.034577 1  18F12EF3x       Rx   d 8 00 00 00 00 00 00 00 00
 0.035502 1  18F12FF3x       Rx   d 8 00 00 00 00 00 00 00 00
 0.036406 1  18F130F3x       Rx   d 8 00 00 00 00 00 00 00 00
 0.037368 1  18F131F3x       Rx   d 8 00 00 00 00 00 00 00 00
 0.038208 1  18F132F3x       Rx   d 8 00 00 00 00 00 00 00 00
 0.039095 1  18F133F3x       Rx   d 8 00 00 00 00 00 00 00 00
 0.039641 1  CFF21CAx        Rx   d 8 03 00 80 0C 36 33 00 10
 0.040180 1  18F134F3x       Rx   d 8 00 00 00 00 00 00 00 00
 0.041097 1  18F135F3x       Rx   d 8 00 00 00 00 00 00 00 00
 0.042036 1  18F136F3x       Rx   d 8 00 00 00 00 00 00 00 00
 0.042932 1  18F137F3x       Rx   d 8 00 00 00 00 00 00 00 00
 0.043701 1  18F138F3x       Rx   d 8 00 00 00 00 00 00 00 00
 0.044631 1  18F139F3x       Rx   d 8 00 00 00 00 00 00 00 00
 0.045541 1  18F13AF3x       Rx   d 8 00 00 00 00 00 00 00 00
 0.046438 1  18F13BF3x       Rx   d 8 00 00 00 00 00 00 00 00
 0.047275 1  18F13CF3x       Rx   d 8 00 00 00 00 00 00 00 00
 0.047962 1  18FF2112x       Rx   d 8 01 00 00 00 00 00 00 00
 0.048480 1  18F155F3x       Rx   d 8 31 31 31 31 31 32 31 00
 0.049431 1  18F156F3x       Rx   d 8 00 00 00 00 00 00 00 00
 0.050667 1  18F157F3x       Rx   d 8 00 00 00 00 00 00 00 00
 0.051514 1  CFF21CAx        Rx   d 8 03 00 80 0C 36 33 00 10
 0.052097 1  18F100D0x       Rx   d 8 0C FF FF FF FF FF FF FF
 0.052630 1  18F158F3x       Rx   d 8 00 00 00 00 00 00 00 00
 0.053578 1  18F159F3x       Rx   d 8 00 00 00 00 00 00 00 00
 0.054485 1  18F15AF3x       Rx   d 8 00 00 00 00 00 00 00 00
 0.055356 1  18F15BF3x       Rx   d 7 00 00 00 00 00 00 00
 0.056327 1  18F15CF3x       Rx   d 8 00 00 00 00 00 00 00 00
 0.057110 1  18F15DF3x       Rx   d 8 00 00 00 00 00 00 00 00
 0.057954 1  18F15EF3x       Rx   d 8 00 00 00 00 00 00 00 00
 0.063628 1  CFF21CAx        Rx   d 8 03 00 80 0C 36 33 00 10
 0.075799 1  CFF21CAx        Rx   d 8 03 00 80 0C 36 33 00 10
 0.079953 1  18F100D0x       Rx   d 8 0C FF FF FF FF FF FF FF
 0.088306 1  CFF21CAx        Rx   d 8 03 00 80 0C 36 33 00 10
 0.100155 1  CFF21CAx        Rx   d 8 03 00 80 0C 36 33 00 10
 0.104197 1  18F100D0x       Rx   d 8 0C FF FF FF FF FF FF FF
 0.104547 1  18F100F3x       Rx   d 8 03 31 7D 18 EB FA 14 00
 0.105546 1  18F102F3x       Rx   d 8 0F FA 0F F3 10 06 00 07
 0.106857 1  18F106F3x       Rx   d 8 45 E0 FC FF FF FF FF FF
 0.108164 1  18F107F3x       Rx   d 8 38 A4 27 10 01 70 00 00
 0.109815 1  18F108F3x       Rx   d 8 00 00 00 00 00 00 00 00
 0.111146 1  18F155F3x       Rx   d 8 31 31 31 31 31 32 31 00
 0.112085 1  18F156F3x       Rx   d 8 00 00 00 00 00 00 00 00
 0.112440 1  CFF21CAx        Rx   d 8 03 00 80 0C 36 33 00 10
 0.112998 1  18F157F3x       Rx   d 8 00 00 00 00 00 00 00 00
 0.114085 1  18F158F3x       Rx   d 8 00 00 00 00 00 00 00 00
 0.115022 1  18F159F3x       Rx   d 8 00 00 00 00 00 00 00 00
 0.115926 1  18F15AF3x       Rx   d 8 00 00 00 00 00 00 00 00
 0.116740 1  18F15BF3x       Rx   d 7 00 00 00 00 00 00 00
 0.117659 1  18F15CF3x       Rx   d 8 00 00 00 00 00 00 00 00
 0.118381 1  18F15DF3x       Rx   d 8 00 00 00 00 00 00 00 00
 0.119349 1  18F15EF3x       Rx   d 8 00 00 00 00 00 00 00 00
 0.124077 1  CFF21CAx        Rx   d 8 03 00 80 0C 36 33 00 10
 0.132197 1  18F100D0x       Rx   d 8 0C FF FF FF FF FF FF FF
 0.136485 1  CFF21CAx        Rx   d 8 03 00 80 0C 36 33 00 10
 0.145612 1  18FF2112x       Rx   d 8 01 00 00 00 00 00 00 00
 0.148374 1  CFF21CAx        Rx   d 8 03 00 80 0C 36 33 00 10
 0.156391 1  18F100D0x       Rx   d 8 0C FF FF FF FF FF FF FF
 0.160510 1  CFF21CAx        Rx   d 8 03 00 80 0C 36 33 00 10
 0.172433 1  CFF21CAx        Rx   d 8 03 00 80 0C 36 33 00 10
 0.184328 1  CFF21CAx        Rx   d 8 03 00 80 0C 36 33 00 10
 0.184756 1  18F100D0x       Rx   d 8 0C FF FF FF FF FF FF FF
 0.196229 1  CFF21CAx        Rx   d 8 03 00 80 0C 36 33 00 10
 0.203785 1  18F100F3x       Rx   d 8 03 31 7D 18 EB FA 14 00
 0.204636 1  18F102F3x       Rx   d 8 0F FB 0F F2 10 0C 00 09
 0.205931 1  18F106F3x       Rx   d 8 45 E0 FC FF FF FF FF FF
 0.207177 1  18F107F3x       Rx   d 8 38 A4 27 10 01 70 00 00
 0.208658 1  CFF21CAx        Rx   d 8 02 00 80 0C 36 33 00 10
 0.209303 1  18F100D0x       Rx   d 8 0C FF FF FF FF FF FF FF
 0.209783 1  18F108F3x       Rx   d 8 00 00 00 00 00 00 00 00
 0.210821 1  18F155F3x       Rx   d 8 31 31 31 31 31 32 31 00
 0.211687 1  18F156F3x       Rx   d 8 00 00 00 00 00 00 00 00
 0.212605 1  18F157F3x       Rx   d 8 00 00 00 00 00 00 00 00
 0.213530 1  18F158F3x       Rx   d 8 00 00 00 00 00 00 00 00
 0.214452 1  18F159F3x       Rx   d 8 00 00 00 00 00 00 00 00
 0.215412 1  18F15AF3x       Rx   d 8 00 00 00 00 00 00 00 00
 0.216256 1  18F15BF3x       Rx   d 7 00 00 00 00 00 00 00
 0.217049 1  18F15CF3x       Rx   d 8 00 00 00 00 00 00 00 00
 0.237951 1  18F15DF3x       Rx   d 8 00 00 00 00 00 00 00 00
 0.238140 1  18F15EF3x       Rx   d 8 00 00 00 00 00 00 00 00
 0.238316 1  CFF21CAx        Rx   d 8 02 00 80 0C 36 33 00 10
 0.238490 1  CFF21CAx        Rx   d 8 02 00 80 0C 36 33 00 10
 0.238658 1  18F100D0x       Rx   d 8 0C FF FF FF FF FF FF FF
 0.242611 1  18FF2112x       Rx   d 8 01 00 00 00 00 00 00 00
 0.244551 1  CFF21CAx        Rx   d 8 02 00 80 0C 36 33 00 10
 0.256739 1  CFF21CAx        Rx   d 8 02 00 80 0C 36 33 00 10
 0.260637 1  18F100D0x       Rx   d 8 0C FF FF FF FF FF FF FF
 0.268693 1  CFF21CAx        Rx   d 8 03 00 80 0C 36 33 00 10
 0.280576 1  CFF21CAx        Rx   d 8 03 00 80 0C 36 33 00 10
 0.284577 1  18F100D0x       Rx   d 8 0C FF FF FF FF FF FF FF
 0.292770 1  CFF21CAx        Rx   d 8 03 00 80 0C 36 33 00 10
 0.304195 1  18F100F3x       Rx   d 8 03 31 7D 18 EB FA 14 00
 0.305062 1  18F102F3x       Rx   d 8 0F FB 0F F2 10 0C 00 09
 0.305671 1  CFF21CAx        Rx   d 8 02 00 80 0C 36 33 00 10
 0.305996 1  18F100D0x       Rx   d 8 0C FF FF FF FF FF FF FF
 0.306589 1  18F106F3x       Rx   d 8 45 E0 FC FF FF FF FF FF
 0.308045 1  18F107F3x       Rx   d 8 38 A4 27 10 01 70 00 00
 0.309687 1  18F108F3x       Rx   d 8 00 00 00 00 00 00 00 00
 0.311014 1  18F155F3x       Rx   d 8 31 31 31 31 31 32 31 00
 0.312016 1  18F156F3x       Rx   d 8 00 00 00 00 00 00 00 00
 0.312914 1  18F157F3x       Rx   d 8 00 00 00 00 00 00 00 00
 0.313846 1  18F158F3x       Rx   d 8 00 00 00 00 00 00 00 00
 0.314828 1  18F159F3x       Rx   d 8 00 00 00 00 00 00 00 00
 0.315424 1  18F15AF3x       Rx   d 8 00 00 00 00 00 00 00 00
 0.316396 1  18F15BF3x       Rx   d 7 00 00 00 00 00 00 00
 0.316836 1  CFF21CAx        Rx   d 8 02 00 80 0C 36 33 00 10
 0.317411 1  18F15CF3x       Rx   d 8 00 00 00 00 00 00 00 00
 0.318483 1  18F15DF3x       Rx   d 8 00 00 00 00 00 00 00 00
 0.319143 1  18F15EF3x       Rx   d 8 00 00 00 00 00 00 00 00
 0.328798 1  CFF21CAx        Rx   d 8 02 00 80 0C 36 33 00 10
 0.332859 1  18F100D0x       Rx   d 8 0C FF FF FF FF FF FF FF
 0.339957 1  18FF2112x       Rx   d 8 01 00 00 00 00 00 00 00
 0.340860 1  CFF21CAx        Rx   d 8 03 00 80 0C 36 33 00 10
 0.353180 1  CFF21CAx        Rx   d 8 03 00 80 0C 36 33 00 10
 0.357389 1  18F100D0x       Rx   d 8 0C FF FF FF FF FF FF FF
 0.365238 1  CFF21CAx        Rx   d 8 02 00 80 0C 36 33 00 10
 0.377524 1  CFF21CAx        Rx   d 8 02 00 80 0C 36 33 00 10
 0.386030 1  18F100D0x       Rx   d 8 0C FF FF FF FF FF FF FF
 0.389401 1  CFF21CAx        Rx   d 8 02 00 80 0C 36 33 00 10
 0.401444 1  CFF21CAx        Rx   d 8 02 00 80 0C 36 33 00 10
 0.404204 1  18F100F3x       Rx   d 8 03 31 7D 18 EB FA 14 00
 0.405030 1  18F102F3x       Rx   d 8 0F FB 0F F2 10 0C 00 09
 0.406304 1  18F106F3x       Rx   d 8 45 E0 FC FF FF FF FF FF
 0.407606 1  18F107F3x       Rx   d 8 38 A4 27 10 01 70 00 00
 0.409307 1  18F108F3x       Rx   d 8 00 00 00 00 00 00 00 00
 0.409666 1  18F100D0x       Rx   d 8 0C FF FF FF FF FF FF FF
 0.410286 1  18F155F3x       Rx   d 8 31 31 31 31 31 32 31 00
 0.411394 1  18F156F3x       Rx   d 8 00 00 00 00 00 00 00 00
 0.412107 1  18F157F3x       Rx   d 8 00 00 00 00 00 00 00 00
 0.413124 1  18F158F3x       Rx   d 8 00 00 00 00 00 00 00 00
 0.413483 1  CFF21CAx        Rx   d 8 02 00 80 0C 36 33 00 10
 0.414110 1  18F159F3x       Rx   d 8 00 00 00 00 00 00 00 00
 0.415155 1  18F15AF3x       Rx   d 8 00 00 00 00 00 00 00 00
 0.415895 1  18F15BF3x       Rx   d 7 00 00 00 00 00 00 00
 0.416944 1  18F15CF3x       Rx   d 8 00 00 00 00 00 00 00 00
 0.417733 1  18F15DF3x       Rx   d 8 00 00 00 00 00 00 00 00
 0.418706 1  18F15EF3x       Rx   d 8 00 00 00 00 00 00 00 00
 0.426040 1  CFF21CAx        Rx   d 8 02 00 80 0C 36 33 00 10
 0.437315 1  18FF2112x       Rx   d 8 01 00 00 00 00 00 00 00
 0.437751 1  CFF21CAx        Rx   d 8 02 00 80 0C 36 33 00 10
 0.438394 1  18F100D0x       Rx   d 8 0C FF FF FF FF FF FF FF
 0.463594 1  CFF21CAx        Rx   d 8 02 00 80 0C 36 33 00 10
 0.463832 1  CFF21CAx        Rx   d 8 02 00 80 0C 36 33 00 10
 0.464040 1  18F100D0x       Rx   d 8 0C FF FF FF FF FF FF FF
 0.474133 1  CFF21CAx        Rx   d 8 02 00 80 0C 36 33 00 10
 0.485781 1  CFF21CAx        Rx   d 8 02 00 80 0C 36 33 00 10
 0.486143 1  18F100D0x       Rx   d 8 0C FF FF FF FF FF FF FF
 0.497628 1  CFF21CAx        Rx   d 8 02 00 80 0C 36 33 00 10
 0.503811 1  18F100F3x       Rx   d 8 03 31 7D 18 EB FA 14 00
 0.504684 1  18F102F3x       Rx   d 8 0F FB 0F F2 10 0C 00 09
 0.505986 1  18F106F3x       Rx   d 8 45 E0 FC FF FF FF FF FF
 0.507237 1  18F107F3x       Rx   d 8 38 A4 27 10 01 70 00 00
 0.509088 1  18F108F3x       Rx   d 8 00 00 00 00 00 00 00 00
 0.509631 1  CFF21CAx        Rx   d 8 02 00 80 0C 36 33 00 10
 0.510134 1  18F155F3x       Rx   d 8 31 31 31 31 31 32 31 00
 0.511055 1  18F156F3x       Rx   d 8 00 00 00 00 00 00 00 00
 0.511910 1  18F157F3x       Rx   d 8 00 00 00 00 00 00 00 00
 0.512809 1  18F158F3x       Rx   d 8 00 00 00 00 00 00 00 00
 0.513777 1  18F159F3x       Rx   d 8 00 00 00 00 00 00 00 00
 0.514317 1  18F100D0x       Rx   d 8 0C FF FF FF FF FF FF FF
 0.514872 1  18F15AF3x       Rx   d 8 00 00 00 00 00 00 00 00
 0.515690 1  18F15BF3x       Rx   d 7 00 00 00 00 00 00 00
 0.516597 1  18F15CF3x       Rx   d 8 00 00 00 00 00 00 00 00
 0.517500 1  18F15DF3x       Rx   d 8 00 00 00 00 00 00 00 00
 0.518395 1  18F15EF3x       Rx   d 8 00 00 00 00 00 00 00 00
 0.522057 1  CFF21CAx        Rx   d 8 02 00 80 0C 36 33 00 10
 0.533886 1  CFF21CAx        Rx   d 8 02 00 80 0C 36 33 00 10
 0.534608 1  18FF2112x       Rx   d 8 01 00 00 00 00 00 00 00
 0.537894 1  18F100D0x       Rx   d 8 0C FF FF FF FF FF FF FF
 0.546036 1  CFF21CAx        Rx   d 8 02 00 80 0C 36 33 00 10
 0.558071 1  CFF21CAx        Rx   d 8 02 00 80 0C 36 33 00 10
 0.566056 1  18F100D0x       Rx   d 8 0C FF FF FF FF FF FF FF
 0.570213 1  CFF21CAx        Rx   d 8 02 00 80 0C 36 33 00 10
 0.582313 1  CFF21CAx        Rx   d 8 02 00 80 0C 36 33 00 10
 0.590348 1  18F100D0x       Rx   d 8 0C FF FF FF FF FF FF FF
 0.594107 1  CFF21CAx        Rx   d 8 02 00 80 0C 36 33 00 10
 0.603960 1  18F100F3x       Rx   d 8 03 31 7D 18 EB FA 14 00
 0.605064 1  18F102F3x       Rx   d 8 0F FB 0F F2 10 0C 00 09
 0.606288 1  CFF21CAx        Rx   d 8 02 00 80 0C 36 33 00 10
 0.606647 1  18F106F3x       Rx   d 8 45 E0 FC FF FF FF FF FF
 0.608140 1  18F107F3x       Rx   d 8 38 A4 27 10 01 70 00 00
 0.609820 1  18F108F3x       Rx   d 8 00 00 00 00 00 00 00 00
 0.611141 1  18F155F3x       Rx   d 8 31 31 31 31 31 32 31 00
 0.612097 1  18F156F3x       Rx   d 8 00 00 00 00 00 00 00 00
 0.612956 1  18F157F3x       Rx   d 8 00 00 00 00 00 00 00 00
 0.613885 1  18F158F3x       Rx   d 8 00 00 00 00 00 00 00 00
 0.614755 1  18F159F3x       Rx   d 8 00 00 00 00 00 00 00 00
 0.615755 1  18F15AF3x       Rx   d 8 00 00 00 00 00 00 00 00
 0.616361 1  18F15BF3x       Rx   d 7 00 00 00 00 00 00 00
 0.617380 1  18F15CF3x       Rx   d 8 00 00 00 00 00 00 00 00
 0.618222 1  18F15DF3x       Rx   d 8 00 00 00 00 00 00 00 00
 0.618580 1  CFF21CAx        Rx   d 8 02 00 80 0C 36 33 00 10
 0.619380 1  18F100D0x       Rx   d 8 0C FF FF FF FF FF FF FF
 0.619734 1  18F15EF3x       Rx   d 8 00 00 00 00 00 00 00 00
 0.630121 1  CFF21CAx        Rx   d 8 01 00 80 0C 36 33 00 10
 0.631846 1  18FF2112x       Rx   d 8 01 00 00 00 00 00 00 00
 0.642707 1  CFF21CAx        Rx   d 8 01 00 80 0C 36 33 00 10
 0.643227 1  18F100D0x       Rx   d 8 0C FF FF FF FF FF FF FF
 0.654548 1  CFF21CAx        Rx   d 8 01 00 80 0C 36 33 00 10
 0.688491 1  CFF21CAx        Rx   d 8 02 00 80 0C 36 33 00 10
 0.688733 1  18F100D0x       Rx   d 8 0C FF FF FF FF FF FF FF
 0.688944 1  CFF21CAx        Rx   d 8 02 00 80 0C 36 33 00 10
 0.690226 1  CFF21CAx        Rx   d 8 02 00 80 0C 36 33 00 10
 0.694226 1  18F100D0x       Rx   d 8 0C FF FF FF FF FF FF FF
 0.702604 1  CFF21CAx        Rx   d 8 02 00 80 0C 36 33 00 10
 0.704164 1  18F100F3x       Rx   d 8 03 31 7D 18 EB FA 14 00
 0.705044 1  18F102F3x       Rx   d 8 0F FB 0F F2 10 0C 00 09
 0.706329 1  18F106F3x       Rx   d 8 45 E0 FC FF FF FF FF FF
 0.707592 1  18F107F3x       Rx   d 8 38 A4 27 10 01 70 00 00
 0.709396 1  18F108F3x       Rx   d 8 00 00 00 00 00 00 00 00
 0.710018 1  18F155F3x       Rx   d 8 31 31 31 31 31 32 31 00
 0.711185 1  18F156F3x       Rx   d 8 00 00 00 00 00 00 00 00
 0.712169 1  18F157F3x       Rx   d 8 00 00 00 00 00 00 00 00
 0.713007 1  18F158F3x       Rx   d 8 00 00 00 00 00 00 00 00
 0.713950 1  18F159F3x       Rx   d 8 00 00 00 00 00 00 00 00
 0.714926 1  18F15AF3x       Rx   d 8 00 00 00 00 00 00 00 00
 0.715284 1  CFF21CAx        Rx   d 8 02 00 80 0C 36 33 00 10
 0.715824 1  18F15BF3x       Rx   d 7 00 00 00 00 00 00 00
 0.716948 1  18F15CF3x       Rx   d 8 00 00 00 00 00 00 00 00
 0.717607 1  18F15DF3x       Rx   d 8 00 00 00 00 00 00 00 00
 0.718716 1  18F100D0x       Rx   d 8 0C FF FF FF FF FF FF FF
 0.719072 1  18F15EF3x       Rx   d 8 00 00 00 00 00 00 00 00
 0.726430 1  CFF21CAx        Rx   d 8 02 00 80 0C 36 33 00 10
 0.728940 1  18FF2112x       Rx   d 8 01 00 00 00 00 00 00 00
 0.738482 1  CFF21CAx        Rx   d 8 02 00 80 0C 36 33 00 10
 0.746900 1  18F100D0x       Rx   d 8 0C FF FF FF FF FF FF FF
 0.750427 1  CFF21CAx        Rx   d 8 02 00 80 0C 36 33 00 10
 0.762872 1  CFF21CAx        Rx   d 8 02 00 80 0C 36 33 00 10
 0.771209 1  18F100D0x       Rx   d 8 0C FF FF FF FF FF FF FF
 0.774647 1  CFF21CAx        Rx   d 8 02 00 80 0C 36 33 00 10
 0.786772 1  CFF21CAx        Rx   d 8 02 00 80 0C 36 33 00 10
 0.798816 1  CFF21CAx        Rx   d 8 02 00 80 0C 36 33 00 10
 0.799315 1  18F100D0x       Rx   d 8 0C FF FF FF FF FF FF FF
 0.803995 1  18F100F3x       Rx   d 8 03 31 7D 18 EB FA 14 00
 0.804892 1  18F102F3x       Rx   d 8 0F FB 0F F2 10 0C 00 09
 0.806179 1  18F106F3x       Rx   d 8 45 E0 FC FF FF FF FF FF
 0.806833 1  18FECACAx       Rx   d 8 00 00 00 00 00 00 FF FF
 0.807397 1  18F107F3x       Rx   d 8 38 A4 27 10 01 70 00 00
 0.809140 1  18F108F3x       Rx   d 8 00 00 00 00 00 00 00 00
 0.810028 1  18F155F3x       Rx   d 8 31 31 31 31 31 32 31 00
 0.811060 1  18F156F3x       Rx   d 8 00 00 00 00 00 00 00 00
 0.811628 1  CFF21CAx        Rx   d 8 02 00 80 0C 36 33 00 10
 0.812216 1  18F157F3x       Rx   d 8 00 00 00 00 00 00 00 00
 0.813113 1  18F158F3x       Rx   d 8 00 00 00 00 00 00 00 00
 0.813967 1  18F159F3x       Rx   d 8 00 00 00 00 00 00 00 00
 0.814858 1  18F15AF3x       Rx   d 8 00 00 00 00 00 00 00 00
 0.815708 1  18F15BF3x       Rx   d 7 00 00 00 00 00 00 00
 0.816604 1  18F15CF3x       Rx   d 8 00 00 00 00 00 00 00 00
 0.817483 1  18F15DF3x       Rx   d 8 00 00 00 00 00 00 00 00
 0.818349 1  18F15EF3x       Rx   d 8 00 00 00 00 00 00 00 00
 0.822824 1  CFF21CAx        Rx   d 8 02 00 80 0C 36 33 00 10
 0.823501 1  18F100D0x       Rx   d 8 0C FF FF FF FF FF FF FF
 0.826357 1  18FF2112x       Rx   d 8 01 00 00 00 00 00 00 00
 0.835150 1  CFF21CAx        Rx   d 8 02 00 80 0C 36 33 00 10
 0.847179 1  CFF21CAx        Rx   d 8 02 00 80 0C 36 33 00 10
 0.847718 1  18F100D0x       Rx   d 8 0C FF FF FF FF FF FF FF
 0.859547 1  CFF21CAx        Rx   d 8 02 00 80 0C 36 33 00 10
 0.871077 1  CFF21CAx        Rx   d 8 02 00 80 0C 36 33 00 10
 0.871661 1  18F100D0x       Rx   d 8 0C FF FF FF FF FF FF FF
 0.883343 1  CFF21CAx        Rx   d 8 02 00 80 0C 36 33 00 10
 0.915301 1  CFF21CAx        Rx   d 8 02 00 80 0C 36 33 00 10
 0.915491 1  18F100D0x       Rx   d 8 0C FF FF FF FF FF FF FF
 0.915666 1  18F100F3x       Rx   d 8 03 31 7D 18 EB FA 14 00
 0.915914 1  18F102F3x       Rx   d 8 0F FB 0F F2 10 0C 00 09
 0.916114 1  18F106F3x       Rx   d 8 45 E0 FC FF FF FF FF FF
 0.916291 1  18F107F3x       Rx   d 8 38 A4 27 10 01 70 00 00
 0.916463 1  CFF21CAx        Rx   d 8 02 00 80 0C 36 33 00 10
 0.916630 1  18F108F3x       Rx   d 8 00 00 00 00 00 00 00 00
 0.916796 1  18F155F3x       Rx   d 8 31 31 31 31 31 32 31 00
 0.916969 1  18F156F3x       Rx   d 8 00 00 00 00 00 00 00 00
 0.917133 1  18F157F3x       Rx   d 8 00 00 00 00 00 00 00 00
 0.917304 1  18F158F3x       Rx   d 8 00 00 00 00 00 00 00 00
 0.917470 1  18F159F3x       Rx   d 8 00 00 00 00 00 00 00 00
 0.917634 1  18F15AF3x       Rx   d 8 00 00 00 00 00 00 00 00
 0.917794 1  18F15BF3x       Rx   d 7 00 00 00 00 00 00 00
 0.917960 1  18F15CF3x       Rx   d 8 00 00 00 00 00 00 00 00
 0.918123 1  18F15DF3x       Rx   d 8 00 00 00 00 00 00 00 00
 0.918285 1  18F15EF3x       Rx   d 8 00 00 00 00 00 00 00 00
 0.919341 1  CFF21CAx        Rx   d 8 01 00 80 0C 36 33 00 10
 0.923270 1  18F100D0x       Rx   d 8 0C FF FF FF FF FF FF FF
 0.923925 1  18FF2112x       Rx   d 8 01 00 00 00 00 00 00 00
 0.931399 1  CFF21CAx        Rx   d 8 01 00 80 0C 36 33 00 10
 0.943814 1  CFF21CAx        Rx   d 8 01 00 80 0C 36 33 00 10
 0.947772 1  18F100D0x       Rx   d 8 0C FF FF FF FF FF FF FF
 0.955348 1  CFF21CAx        Rx   d 8 02 00 80 0C 36 33 00 10
 0.967582 1  CFF21CAx        Rx   d 8 02 00 80 0C 36 33 00 10
 0.971750 1  18F100D0x       Rx   d 8 0C FF FF FF FF FF FF FF
 0.979454 1  CFF21CAx        Rx   d 8 02 00 80 0C 36 33 00 10
 0.991916 1  CFF21CAx        Rx   d 8 02 00 80 0C 36 33 00 10
 0.999665 1  18F104F3x       Rx   d 8 32 31 06 01 01 FF FF FF
 1.000033 1  18F100D0x       Rx   d 8 0C FF FF FF FF FF FF FF
 1.000563 1  18F113F3x       Rx   d 8 0F F5 0F F4 0F F5 0F F5
 1.001724 1  18F114F3x       Rx   d 8 0F F4 0F F3 0F F6 0F F6
 1.002463 1  18F115F3x       Rx   d 8 0F F3 0F F3 0F F4 0F F2
 1.003523 1  18F116F3x       Rx   d 8 0F F8 0F F6 0F F8 0F FB
 1.003888 1  CFF21CAx        Rx   d 8 02 00 80 0C 36 33 00 10
 1.004686 1  18F100F3x       Rx   d 8 03 31 7D 18 EB FA 14 00
 1.005440 1  18F102F3x       Rx   d 8 0F FB 0F F2 10 0C 00 09
 1.006922 1  18F106F3x       Rx   d 8 45 E0 FC FF FF FF FF FF
 1.008307 1  18F107F3x       Rx   d 8 38 A4 27 10 01 70 00 00
 1.010059 1  18F108F3x       Rx   d 8 00 00 00 00 00 00 00 00
 1.011357 1  18F117F3x       Rx   d 8 0F F5 0F F6 0F F9 0F F9
 1.012281 1  18F118F3x       Rx   d 8 00 00 00 00 00 00 00 00
 1.013145 1  18F119F3x       Rx   d 8 00 00 00 00 00 00 00 00
 1.014053 1  18F11AF3x       Rx   d 8 00 00 00 00 00 00 00 00
 1.015152 1  18F11BF3x       Rx   d 8 00 00 00 00 00 00 00 00
 1.015642 1  CFF21CAx        Rx   d 8 02 00 80 0C 36 33 00 10
 1.016268 1  18F11CF3x       Rx   d 8 00 00 00 00 00 00 00 00
 1.017367 1  18F11DF3x       Rx   d 8 00 00 00 00 00 00 00 00
 1.018312 1  18F11EF3x       Rx   d 8 00 00 00 00 00 00 00 00
 1.019194 1  18F11FF3x       Rx   d 8 00 00 00 00 00 00 00 00
 1.020240 1  18F120F3x       Rx   d 8 00 00 00 00 00 00 00 00
 1.020944 1  18FF2112x       Rx   d 8 01 00 00 00 00 00 00 00
 1.021493 1  18F121F3x       Rx   d 8 00 00 00 00 00 00 00 00
 1.022528 1  18F122F3x       Rx   d 8 00 00 00 00 00 00 00 00
 1.023495 1  18F123F3x       Rx   d 8 00 00 00 00 00 00 00 00
 1.023854 1  18F100D0x       Rx   d 8 0C FF FF FF FF FF FF FF
 1.024675 1  18F124F3x       Rx   d 8 00 00 00 00 00 00 00 00
 1.025517 1  18F125F3x       Rx   d 8 00 00 00 00 00 00 00 00
 1.026480 1  18F126F3x       Rx   d 8 00 00 00 00 00 00 00 00
 1.027173 1  18F127F3x       Rx   d 8 00 00 00 00 00 00 00 00
 1.027733 1  CFF21CAx        Rx   d 8 02 00 80 0C 36 33 00 10
 1.028199 1  18F128F3x       Rx   d 8 00 00 00 00 00 00 00 00
 1.029131 1  18F129F3x       Rx   d 8 00 00 00 00 00 00 00 00
 1.031147 1  18F12AF3x       Rx   d 8 00 00 00 00 00 00 00 00
 1.031408 1  18F12BF3x       Rx   d 8 00 00 00 00 00 00 00 00
 1.031952 1  18F12CF3x       Rx   d 8 00 00 00 00 00 00 00 00
 1.033058 1  18F12DF3x       Rx   d 8 00 00 00 00 00 00 00 00
 1.033782 1  18F12EF3x       Rx   d 8 00 00 00 00 00 00 00 00
 1.034917 1  18F12FF3x       Rx   d 8 00 00 00 00 00 00 00 00
 1.035935 1  18F130F3x       Rx   d 8 00 00 00 00 00 00 00 00
 1.036806 1  18F131F3x       Rx   d 8 00 00 00 00 00 00 00 00
 1.037666 1  18F132F3x       Rx   d 8 00 00 00 00 00 00 00 00
 1.038529 1  18F133F3x       Rx   d 8 00 00 00 00 00 00 00 00
 1.039445 1  18F134F3x       Rx   d 8 00 00 00 00 00 00 00 00
 1.039727 1  CFF21CAx        Rx   d 8 02 00 80 0C 36 33 00 10
 1.040573 1  18F135F3x       Rx   d 8 00 00 00 00 00 00 00 00
 1.041436 1  18F136F3x       Rx   d 8 00 00 00 00 00 00 00 00
 1.042340 1  18F137F3x       Rx   d 8 00 00 00 00 00 00 00 00
 1.043117 1  18F138F3x       Rx   d 8 00 00 00 00 00 00 00 00
 1.044024 1  18F139F3x       Rx   d 8 00 00 00 00 00 00 00 00
 1.044842 1  18F13AF3x       Rx   d 8 00 00 00 00 00 00 00 00
 1.045756 1  18F13BF3x       Rx   d 8 00 00 00 00 00 00 00 00
 1.046814 1  18F13CF3x       Rx   d 8 00 00 00 00 00 00 00 00
 1.047684 1  18F155F3x       Rx   d 8 31 31 31 31 31 32 31 00
 1.048029 1  18F100D0x       Rx   d 8 0C FF FF FF FF FF FF FF
 1.048852 1  18F156F3x       Rx   d 8 00 00 00 00 00 00 00 00
 1.049750 1  18F157F3x       Rx   d 8 00 00 00 00 00 00 00 00
 1.051026 1  18F158F3x       Rx   d 8 00 00 00 00 00 00 00 00
 1.051918 1  18F159F3x       Rx   d 8 00 00 00 00 00 00 00 00
 1.052204 1  CFF21CAx        Rx   d 8 02 00 80 0C 36 33 00 10
 1.053059 1  18F15AF3x       Rx   d 8 00 00 00 00 00 00 00 00
 1.053865 1  18F15BF3x       Rx   d 7 00 00 00 00 00 00 00
 1.054770 1  18F15CF3x       Rx   d 8 00 00 00 00 00 00 00 00
 1.055644 1  18F15DF3x       Rx   d 8 00 00 00 00 00 00 00 00
 1.056655 1  18F15EF3x       Rx   d 8 00 00 00 00 00 00 00 00
 1.063813 1  CFF21CAx        Rx   d 8 02 00 80 0C 36 33 00 10
 1.072245 1  18F100D0x       Rx   d 8 0C FF FF FF FF FF FF FF
 1.076223 1  CFF21CAx        Rx   d 8 03 00 80 0C 36 33 00 10
 1.088365 1  CFF21CAx        Rx   d 8 03 00 80 0C 36 33 00 10
 1.092385 1  18F100D0x       Rx   d 8 0C FF FF FF FF FF FF FF
 1.100416 1  CFF21CAx        Rx   d 8 03 00 80 0C 36 33 00 10
 1.104385 1  18F100F3x       Rx   d 8 03 31 7D 18 EB FA 14 00
 1.104951 1  18F102F3x       Rx   d 8 0F FB 0F F2 10 0C 00 09
