date Sat May 16 13:42:31.467 2026
base hex  timestamps absolute
internal events logged
Begin Triggerblock Sat May 16 13:42:31.472 2026
 0.000000 Start of measurement
 0.000000 1  1806E5F4x       Rx   d 8 00 00 00 00 01 FF FF FF
 0.048496 1  1806E5F4x       Rx   d 8 00 00 00 00 01 FF FF FF
 0.055523 1  18F100F3x       Rx   d 8 03 31 7D 00 EB FA 14 00
 0.056580 1  18F102F3x       Rx   d 8 0F FB 0F F4 10 05 00 07
 0.057780 1  18F106F3x       Rx   d 8 80 C4 FC FF FF FF FF FF
 0.058889 1  18F107F3x       Rx   d 8 27 10 27 10 00 00 00 00
 0.061475 1  18F108F3x       Rx   d 8 00 00 00 00 00 01 00 BB
 0.062072 1  18F155F3x       Rx   d 8 31 31 31 31 31 32 31 00
 0.062619 1  18F156F3x       Rx   d 8 00 00 00 00 00 00 00 00
 0.063840 1  18F157F3x       Rx   d 8 00 00 00 00 00 00 00 00
 0.064805 1  18F158F3x       Rx   d 8 00 00 00 00 00 00 00 00
 0.065589 1  18F159F3x       Rx   d 8 00 00 00 00 00 00 00 00
 0.066590 1  18F15AF3x       Rx   d 8 00 00 00 00 00 00 00 00
 0.067260 1  18F15BF3x       Rx   d 7 00 00 00 00 00 00 00
 0.068005 1  18F15CF3x       Rx   d 8 00 00 00 00 00 00 00 00
 0.069207 1  18F15DF3x       Rx   d 8 00 00 00 00 00 00 00 00
 0.070226 1  18F15EF3x       Rx   d 8 00 00 00 00 00 00 00 00
 0.084963 1  18FF2112x       Rx   d 8 01 00 00 00 00 00 00 00
 0.098721 1  1806E5F4x       Rx   d 8 00 00 00 00 01 FF FF FF
 0.148974 1  1806E5F4x       Rx   d 8 00 00 00 00 01 FF FF FF
 0.155791 1  18F100F3x       Rx   d 8 03 31 7D 00 EB FA 14 00
 0.156650 1  18F102F3x       Rx   d 8 0F FB 0F F4 10 05 00 07
 0.157778 1  18F106F3x       Rx   d 8 80 C4 FC FF FF FF FF FF
 0.159706 1  18F107F3x       Rx   d 8 27 10 27 10 00 00 00 00
 0.160691 1  18F108F3x       Rx   d 8 00 00 00 00 00 01 00 BB
 0.161473 1  18F155F3x       Rx   d 8 31 31 31 31 31 32 31 00
 0.163237 1  18F156F3x       Rx   d 8 00 00 00 00 00 00 00 00
 0.163911 1  18F157F3x       Rx   d 8 00 00 00 00 00 00 00 00
 0.164710 1  18F158F3x       Rx   d 8 00 00 00 00 00 00 00 00
 0.165294 1  18F159F3x       Rx   d 8 00 00 00 00 00 00 00 00
 0.166662 1  18F15AF3x       Rx   d 8 00 00 00 00 00 00 00 00
 0.167402 1  18F15BF3x       Rx   d 7 00 00 00 00 00 00 00
 0.168043 1  18F15CF3x       Rx   d 8 00 00 00 00 00 00 00 00
 0.169156 1  18F15DF3x       Rx   d 8 00 00 00 00 00 00 00 00
 0.170006 1  18F15EF3x       Rx   d 8 00 00 00 00 00 00 00 00
 0.182028 1  18FF2112x       Rx   d 8 01 00 00 00 00 00 00 00
 0.220012 1  1806E5F4x       Rx   d 8 00 00 00 00 01 FF FF FF
 0.254573 1  1806E5F4x       Rx   d 8 00 00 00 00 01 FF FF FF
 0.255653 1  18F100F3x       Rx   d 8 03 31 7D 00 EB FA 14 00
 0.256568 1  18F102F3x       Rx   d 8 0F FB 0F F4 10 05 00 07
 0.257679 1  18F106F3x       Rx   d 8 80 C4 FC FF FF FF FF FF
 0.258873 1  18F107F3x       Rx   d 8 27 10 27 10 00 00 00 00
 0.260671 1  18F108F3x       Rx   d 8 00 00 00 00 00 01 00 BB
 0.261797 1  18F155F3x       Rx   d 8 31 31 31 31 31 32 31 00
 0.262948 1  18F156F3x       Rx   d 8 00 00 00 00 00 00 00 00
 0.263518 1  18F157F3x       Rx   d 8 00 00 00 00 00 00 00 00
 0.264584 1  18F158F3x       Rx   d 8 00 00 00 00 00 00 00 00
 0.265343 1  18F159F3x       Rx   d 8 00 00 00 00 00 00 00 00
 0.266400 1  18F15AF3x       Rx   d 8 00 00 00 00 00 00 00 00
 0.267354 1  18F15BF3x       Rx   d 7 00 00 00 00 00 00 00
 0.268139 1  18F15CF3x       Rx   d 8 00 00 00 00 00 00 00 00
 0.268796 1  18F15DF3x       Rx   d 8 00 00 00 00 00 00 00 00
 0.269873 1  18F15EF3x       Rx   d 8 00 00 00 00 00 00 00 00
 0.279230 1  18FF2112x       Rx   d 8 01 00 00 00 00 00 00 00
 0.298348 1  1806E5F4x       Rx   d 8 00 00 00 00 01 FF FF FF
 0.348388 1  1806E5F4x       Rx   d 8 00 00 00 00 01 FF FF FF
 0.355501 1  18F100F3x       Rx   d 8 03 31 7D 00 EB FA 14 00
 0.356437 1  18F102F3x       Rx   d 8 0F FB 0F F4 10 05 00 07
 0.357834 1  18F106F3x       Rx   d 8 80 C4 FC FF FF FF FF FF
 0.358956 1  18F107F3x       Rx   d 8 27 10 27 10 00 00 00 00
 0.360710 1  18F108F3x       Rx   d 8 00 00 00 00 00 01 00 BB
 0.361542 1  18F155F3x       Rx   d 8 31 31 31 31 31 32 31 00
 0.362862 1  18F156F3x       Rx   d 8 00 00 00 00 00 00 00 00
 0.363607 1  18F157F3x       Rx   d 8 00 00 00 00 00 00 00 00
 0.364600 1  18F158F3x       Rx   d 8 00 00 00 00 00 00 00 00
 0.365365 1  18F159F3x       Rx   d 8 00 00 00 00 00 00 00 00
 0.366283 1  18F15AF3x       Rx   d 8 00 00 00 00 00 00 00 00
 0.367146 1  18F15BF3x       Rx   d 7 00 00 00 00 00 00 00
 0.368009 1  18F15CF3x       Rx   d 8 00 00 00 00 00 00 00 00
 0.368937 1  18F15DF3x       Rx   d 8 00 00 00 00 00 00 00 00
 0.369765 1  18F15EF3x       Rx   d 8 00 00 00 00 00 00 00 00
 0.376491 1  18FF2112x       Rx   d 8 01 00 00 00 00 00 00 00
 0.398411 1  1806E5F4x       Rx   d 8 00 00 00 00 01 FF FF FF
 0.448445 1  1806E5F4x       Rx   d 8 00 00 00 00 01 FF FF FF
 0.455560 1  18F100F3x       Rx   d 8 03 31 7D 00 EB FA 14 00
 0.456360 1  18F102F3x       Rx   d 8 0F FB 0F F4 10 05 00 07
 0.457654 1  18F106F3x       Rx   d 8 80 C4 FC FF FF FF FF FF
 0.478515 1  18F107F3x       Rx   d 8 27 10 27 10 00 00 00 00
 0.478927 1  18F108F3x       Rx   d 8 00 00 00 00 00 01 00 BB
 0.479118 1  18F155F3x       Rx   d 8 31 31 31 31 31 32 31 00
 0.479299 1  18F156F3x       Rx   d 8 00 00 00 00 00 00 00 00
 0.479471 1  18F157F3x       Rx   d 8 00 00 00 00 00 00 00 00
 0.479645 1  18F158F3x       Rx   d 8 00 00 00 00 00 00 00 00
 0.479814 1  18F159F3x       Rx   d 8 00 00 00 00 00 00 00 00
 0.479984 1  18F15AF3x       Rx   d 8 00 00 00 00 00 00 00 00
 0.480145 1  18F15BF3x       Rx   d 7 00 00 00 00 00 00 00
 0.480317 1  18F15CF3x       Rx   d 8 00 00 00 00 00 00 00 00
 0.480492 1  18F15DF3x       Rx   d 8 00 00 00 00 00 00 00 00
 0.480780 1  18F15EF3x       Rx   d 8 00 00 00 00 00 00 00 00
 0.480972 1  18FF2112x       Rx   d 8 01 00 00 00 00 00 00 00
 0.498530 1  1806E5F4x       Rx   d 8 00 00 00 00 01 FF FF FF
 0.548601 1  1806E5F4x       Rx   d 8 00 00 00 00 01 FF FF FF
 0.555941 1  18F100F3x       Rx   d 8 03 31 7D 00 EB FA 14 00
 0.556701 1  18F102F3x       Rx   d 8 0F FB 0F F4 10 05 00 07
 0.557903 1  18F106F3x       Rx   d 8 80 C4 FC FF FF FF FF FF
 0.558991 1  18F107F3x       Rx   d 8 27 10 27 10 00 00 00 00
 0.560883 1  18F108F3x       Rx   d 8 00 00 00 00 00 01 00 BB
 0.561716 1  18F155F3x       Rx   d 8 31 31 31 31 31 32 31 00
 0.562808 1  18F156F3x       Rx   d 8 00 00 00 00 00 00 00 00
 0.563621 1  18F157F3x       Rx   d 8 00 00 00 00 00 00 00 00
 0.564555 1  18F158F3x       Rx   d 8 00 00 00 00 00 00 00 00
 0.565445 1  18F159F3x       Rx   d 8 00 00 00 00 00 00 00 00
 0.566317 1  18F15AF3x       Rx   d 8 00 00 00 00 00 00 00 00
 0.567212 1  18F15BF3x       Rx   d 7 00 00 00 00 00 00 00
 0.568046 1  18F15CF3x       Rx   d 8 00 00 00 00 00 00 00 00
 0.568894 1  18F15DF3x       Rx   d 8 00 00 00 00 00 00 00 00
 0.569866 1  18F15EF3x       Rx   d 8 00 00 00 00 00 00 00 00
 0.571122 1  18FF2112x       Rx   d 8 01 00 00 00 00 00 00 00
 0.598560 1  1806E5F4x       Rx   d 8 00 00 00 00 01 FF FF FF
 0.648484 1  18F104F3x       Rx   d 8 32 31 06 01 01 FF FF FF
 0.649103 1  18F113F3x       Rx   d 8 0F F5 0F F6 0F F6 0F F6
 0.650129 1  18F114F3x       Rx   d 8 0F F4 0F F4 0F F7 0F F7
 0.651175 1  18F115F3x       Rx   d 8 0F F4 0F F4 0F F5 0F F4
 0.651989 1  18F116F3x       Rx   d 8 0F F8 0F F7 0F F9 0F FB
 0.652924 1  18F117F3x       Rx   d 8 0F F6 0F F7 0F FB 0F F9
 0.653875 1  18F118F3x       Rx   d 8 00 00 00 00 00 00 00 00
 0.654774 1  18F119F3x       Rx   d 8 00 00 00 00 00 00 00 00
 0.655801 1  18F11AF3x       Rx   d 8 00 00 00 00 00 00 00 00
 0.656856 1  18F100F3x       Rx   d 8 03 31 7D 00 EB FA 14 00
 0.657855 1  18F102F3x       Rx   d 8 0F FB 0F F4 10 05 00 07
 0.659165 1  18F106F3x       Rx   d 8 80 C4 FC FF FF FF FF FF
 0.660545 1  18F107F3x       Rx   d 8 27 10 27 10 00 00 00 00
 0.663440 1  18F108F3x       Rx   d 8 00 00 00 00 00 01 00 BB
 0.663745 1  18F11BF3x       Rx   d 8 00 00 00 00 00 00 00 00
 0.664012 1  18F11CF3x       Rx   d 8 00 00 00 00 00 00 00 00
 0.664888 1  18F11DF3x       Rx   d 8 00 00 00 00 00 00 00 00
 0.665814 1  18F11EF3x       Rx   d 8 00 00 00 00 00 00 00 00
 0.666948 1  18F11FF3x       Rx   d 8 00 00 00 00 00 00 00 00
 0.667826 1  18F120F3x       Rx   d 8 00 00 00 00 00 00 00 00
 0.668589 1  18FF2112x       Rx   d 8 01 00 00 00 00 00 00 00
 0.668926 1  18F121F3x       Rx   d 8 00 00 00 00 00 00 00 00
 0.670197 1  18F122F3x       Rx   d 8 00 00 00 00 00 00 00 00
 0.670878 1  18F123F3x       Rx   d 8 00 00 00 00 00 00 00 00
 0.671964 1  18F124F3x       Rx   d 8 00 00 00 00 00 00 00 00
 0.672326 1  1806E5F4x       Rx   d 8 00 00 00 00 01 FF FF FF
 0.673151 1  18F125F3x       Rx   d 8 00 00 00 00 00 00 00 00
 0.674096 1  18F126F3x       Rx   d 8 00 00 00 00 00 00 00 00
 0.674931 1  18F127F3x       Rx   d 8 00 00 00 00 00 00 00 00
 0.675871 1  18F128F3x       Rx   d 8 00 00 00 00 00 00 00 00
 0.676742 1  18F129F3x       Rx   d 8 00 00 00 00 00 00 00 00
 0.677731 1  18F12AF3x       Rx   d 8 00 00 00 00 00 00 00 00
 0.678585 1  18F12BF3x       Rx   d 8 00 00 00 00 00 00 00 00
 0.679574 1  18F12CF3x       Rx   d 8 00 00 00 00 00 00 00 00
 0.680506 1  18F12DF3x       Rx   d 8 00 00 00 00 00 00 00 00
 0.706670 1  18F12EF3x       Rx   d 8 00 00 00 00 00 00 00 00
 0.706871 1  18F12FF3x       Rx   d 8 00 00 00 00 00 00 00 00
 0.707054 1  18F130F3x       Rx   d 8 00 00 00 00 00 00 00 00
 0.707229 1  18F131F3x       Rx   d 8 00 00 00 00 00 00 00 00
 0.707404 1  18F132F3x       Rx   d 8 00 00 00 00 00 00 00 00
 0.707626 1  18F133F3x       Rx   d 8 00 00 00 00 00 00 00 00
 0.707808 1  18F134F3x       Rx   d 8 00 00 00 00 00 00 00 00
 0.707979 1  18F135F3x       Rx   d 8 00 00 00 00 00 00 00 00
 0.708147 1  18F136F3x       Rx   d 8 00 00 00 00 00 00 00 00
 0.708315 1  18F137F3x       Rx   d 8 00 00 00 00 00 00 00 00
 0.708482 1  18F138F3x       Rx   d 8 00 00 00 00 00 00 00 00
 0.708649 1  18F139F3x       Rx   d 8 00 00 00 00 00 00 00 00
 0.708817 1  18F13AF3x       Rx   d 8 00 00 00 00 00 00 00 00
 0.708984 1  18F13BF3x       Rx   d 8 00 00 00 00 00 00 00 00
 0.709150 1  18F13CF3x       Rx   d 8 00 00 00 00 00 00 00 00
 0.709316 1  18F155F3x       Rx   d 8 31 31 31 31 31 32 31 00
 0.709487 1  18F156F3x       Rx   d 8 00 00 00 00 00 00 00 00
 0.709653 1  18F157F3x       Rx   d 8 00 00 00 00 00 00 00 00
 0.709816 1  18F158F3x       Rx   d 8 00 00 00 00 00 00 00 00
 0.709981 1  18F159F3x       Rx   d 8 00 00 00 00 00 00 00 00
 0.710144 1  18F15AF3x       Rx   d 8 00 00 00 00 00 00 00 00
 0.710298 1  18F15BF3x       Rx   d 7 00 00 00 00 00 00 00
 0.710463 1  18F15CF3x       Rx   d 8 00 00 00 00 00 00 00 00
 0.710628 1  18F15DF3x       Rx   d 8 00 00 00 00 00 00 00 00
 0.710793 1  18F15EF3x       Rx   d 8 00 00 00 00 00 00 00 00
 0.720548 1  1806E5F4x       Rx   d 8 00 00 00 00 01 FF FF FF
 0.755662 1  18F100F3x       Rx   d 8 03 31 7D 00 EB FA 14 00
 0.756522 1  18F102F3x       Rx   d 8 0F FB 0F F4 10 05 00 07
 0.757889 1  18F106F3x       Rx   d 8 80 C4 FC FF FF FF FF FF
 0.759048 1  18F107F3x       Rx   d 8 27 10 27 10 00 00 00 00
 0.760845 1  18F108F3x       Rx   d 8 00 00 00 00 00 01 00 BB
 0.761612 1  18F155F3x       Rx   d 8 31 31 31 31 31 32 31 00
 0.762728 1  18F156F3x       Rx   d 8 00 00 00 00 00 00 00 00
 0.763578 1  18F157F3x       Rx   d 8 00 00 00 00 00 00 00 00
 0.764539 1  18F158F3x       Rx   d 8 00 00 00 00 00 00 00 00
 0.765447 1  18F159F3x       Rx   d 8 00 00 00 00 00 00 00 00
 0.766026 1  18FF2112x       Rx   d 8 01 00 00 00 00 00 00 00
 0.766601 1  18F15AF3x       Rx   d 8 00 00 00 00 00 00 00 00
 0.767448 1  18F15BF3x       Rx   d 7 00 00 00 00 00 00 00
 0.768396 1  18F15CF3x       Rx   d 8 00 00 00 00 00 00 00 00
 0.769274 1  18F15DF3x       Rx   d 8 00 00 00 00 00 00 00 00
 0.770048 1  18F15EF3x       Rx   d 8 00 00 00 00 00 00 00 00
 0.770601 1  1806E5F4x       Rx   d 8 00 00 00 00 01 FF FF FF
 0.820962 1  1806E5F4x       Rx   d 8 00 00 00 00 01 FF FF FF
 0.855964 1  18F100F3x       Rx   d 8 03 31 7D 00 EB FA 14 00
 0.856815 1  18F102F3x       Rx   d 8 0F FB 0F F4 10 05 00 07
 0.858124 1  18F106F3x       Rx   d 8 80 C4 FC FF FF FF FF FF
 0.859361 1  18F107F3x       Rx   d 8 27 10 27 10 00 00 00 00
 0.860907 1  18F108F3x       Rx   d 8 00 00 00 00 00 01 00 BB
 0.861743 1  18F155F3x       Rx   d 8 31 31 31 31 31 32 31 00
 0.862877 1  18F156F3x       Rx   d 8 00 00 00 00 00 00 00 00
 0.864561 1  18FF2112x       Rx   d 8 01 00 00 00 00 00 00 00
 0.864816 1  18F157F3x       Rx   d 8 00 00 00 00 00 00 00 00
 0.865060 1  18F158F3x       Rx   d 8 00 00 00 00 00 00 00 00
 0.865700 1  18F159F3x       Rx   d 8 00 00 00 00 00 00 00 00
 0.866733 1  18F15AF3x       Rx   d 8 00 00 00 00 00 00 00 00
 0.867608 1  18F15BF3x       Rx   d 7 00 00 00 00 00 00 00
 0.868522 1  18F15CF3x       Rx   d 8 00 00 00 00 00 00 00 00
 0.869357 1  18F15DF3x       Rx   d 8 00 00 00 00 00 00 00 00
 0.870039 1  18F15EF3x       Rx   d 8 00 00 00 00 00 00 00 00
 0.870701 1  1806E5F4x       Rx   d 8 00 00 00 00 01 FF FF FF
 0.938760 1  1806E5F4x       Rx   d 8 00 00 00 00 01 FF FF FF
 0.955799 1  18F100F3x       Rx   d 8 03 31 7D 00 EB FA 14 00
 0.956603 1  18F102F3x       Rx   d 8 0F FB 0F F4 10 05 00 07
 0.957937 1  18F106F3x       Rx   d 8 80 C4 FC FF FF FF FF FF
 0.959035 1  18F107F3x       Rx   d 8 27 10 27 10 00 00 00 00
 0.960201 1  18FF2112x       Rx   d 8 01 00 00 00 00 00 00 00
 0.960865 1  18F108F3x       Rx   d 8 00 00 00 00 00 01 00 BB
 0.961666 1  18F155F3x       Rx   d 8 31 31 31 31 31 32 31 00
 0.962737 1  18F156F3x       Rx   d 8 00 00 00 00 00 00 00 00
 0.963589 1  18F157F3x       Rx   d 8 00 00 00 00 00 00 00 00
 0.964549 1  18F158F3x       Rx   d 8 00 00 00 00 00 00 00 00
 0.965416 1  18F159F3x       Rx   d 8 00 00 00 00 00 00 00 00
 0.966341 1  18F15AF3x       Rx   d 8 00 00 00 00 00 00 00 00
 0.967207 1  18F15BF3x       Rx   d 7 00 00 00 00 00 00 00
 0.968056 1  18F15CF3x       Rx   d 8 00 00 00 00 00 00 00 00
 0.968868 1  18F15DF3x       Rx   d 8 00 00 00 00 00 00 00 00
 0.969833 1  18F15EF3x       Rx   d 8 00 00 00 00 00 00 00 00
 0.974333 1  1806E5F4x       Rx   d 8 00 00 00 00 01 FF FF FF
 1.043010 1  1806E5F4x       Rx   d 8 00 00 00 00 01 FF FF FF
 1.055830 1  18F100F3x       Rx   d 8 03 31 7D 00 EB FA 14 00
 1.056700 1  18F102F3x       Rx   d 8 0F FB 0F F4 10 05 00 07
 1.057723 1  18FF2112x       Rx   d 8 01 00 00 00 00 00 00 00
 1.058013 1  18F106F3x       Rx   d 8 80 C4 FC FF FF FF FF FF
 1.059587 1  18F107F3x       Rx   d 8 27 10 27 10 00 00 00 00
 1.061185 1  18F108F3x       Rx   d 8 00 00 00 00 00 01 00 BB
 1.062036 1  18F155F3x       Rx   d 8 31 31 31 31 31 32 31 00
 1.062940 1  18F156F3x       Rx   d 8 00 00 00 00 00 00 00 00
 1.063781 1  18F157F3x       Rx   d 8 00 00 00 00 00 00 00 00
 1.064606 1  18F158F3x       Rx   d 8 00 00 00 00 00 00 00 00
 1.065542 1  18F159F3x       Rx   d 8 00 00 00 00 00 00 00 00
 1.066458 1  18F15AF3x       Rx   d 8 00 00 00 00 00 00 00 00
 1.068674 1  18F15BF3x       Rx   d 7 00 00 00 00 00 00 00
 1.068925 1  18F15CF3x       Rx   d 8 00 00 00 00 00 00 00 00
 1.069163 1  18F15DF3x       Rx   d 8 00 00 00 00 00 00 00 00
 1.069951 1  18F15EF3x       Rx   d 8 00 00 00 00 00 00 00 00
 1.092973 1  1806E5F4x       Rx   d 8 00 00 00 00 01 FF FF FF
 1.144099 1  1806E5F4x       Rx   d 8 00 00 00 00 01 FF FF FF
 1.171628 1  18FF2112x       Rx   d 8 01 00 00 00 00 00 00 00
 1.171876 1  18F100F3x       Rx   d 8 03 31 7D 00 EB FA 14 00
 1.172090 1  18F102F3x       Rx   d 8 0F FB 0F F4 10 05 00 07
 1.172305 1  18F106F3x       Rx   d 8 80 C4 FC FF FF FF FF FF
 1.172621 1  18F107F3x       Rx   d 8 27 10 27 10 00 00 00 00
 1.172837 1  18F108F3x       Rx   d 8 00 00 00 00 00 01 00 BB
 1.173037 1  18F155F3x       Rx   d 8 31 31 31 31 31 32 31 00
 1.173237 1  18F156F3x       Rx   d 8 00 00 00 00 00 00 00 00
 1.173429 1  18F157F3x       Rx   d 8 00 00 00 00 00 00 00 00
 1.173616 1  18F158F3x       Rx   d 8 00 00 00 00 00 00 00 00
 1.173815 1  18F159F3x       Rx   d 8 00 00 00 00 00 00 00 00
 1.173996 1  18F15AF3x       Rx   d 8 00 00 00 00 00 00 00 00
 1.174165 1  18F15BF3x       Rx   d 7 00 00 00 00 00 00 00
 1.174353 1  18F15CF3x       Rx   d 8 00 00 00 00 00 00 00 00
 1.174537 1  18F15DF3x       Rx   d 8 00 00 00 00 00 00 00 00
 1.174721 1  18F15EF3x       Rx   d 8 00 00 00 00 00 00 00 00
 1.193938 1  1806E5F4x       Rx   d 8 00 00 00 00 01 FF FF FF
 1.243733 1  1806E5F4x       Rx   d 8 00 00 00 00 01 FF FF FF
 1.252204 1  18FF2112x       Rx   d 8 01 00 00 00 00 00 00 00
 1.255960 1  18F100F3x       Rx   d 8 03 31 7D 00 EB FA 14 00
 1.256635 1  18F102F3x       Rx   d 8 0F FB 0F F4 10 05 00 07
 1.258118 1  18F106F3x       Rx   d 8 80 C4 FC FF FF FF FF FF
 1.259385 1  18F107F3x       Rx   d 8 27 10 27 10 00 00 00 00
 1.261105 1  18F108F3x       Rx   d 8 00 00 00 00 00 01 00 BB
 1.261754 1  18F155F3x       Rx   d 8 31 31 31 31 31 32 31 00
 1.262889 1  18F156F3x       Rx   d 8 00 00 00 00 00 00 00 00
 1.263636 1  18F157F3x       Rx   d 8 00 00 00 00 00 00 00 00
 1.264540 1  18F158F3x       Rx   d 8 00 00 00 00 00 00 00 00
 1.265447 1  18F159F3x       Rx   d 8 00 00 00 00 00 00 00 00
 1.266353 1  18F15AF3x       Rx   d 8 00 00 00 00 00 00 00 00
 1.267319 1  18F15BF3x       Rx   d 7 00 00 00 00 00 00 00
 1.268141 1  18F15CF3x       Rx   d 8 00 00 00 00 00 00 00 00
 1.268962 1  18F15DF3x       Rx   d 8 00 00 00 00 00 00 00 00
 1.269833 1  18F15EF3x       Rx   d 8 00 00 00 00 00 00 00 00
 1.293867 1  1806E5F4x       Rx   d 8 00 00 00 00 01 FF FF FF
 1.343978 1  1806E5F4x       Rx   d 8 00 00 00 00 01 FF FF FF
 1.349466 1  18FF2112x       Rx   d 8 01 00 00 00 00 00 00 00
 1.355664 1  18F100F3x       Rx   d 8 03 31 7D 00 EB FA 14 00
 1.356528 1  18F102F3x       Rx   d 8 0F FB 0F F4 10 05 00 07
 1.357879 1  18F106F3x       Rx   d 8 80 C4 FC FF FF FF FF FF
 1.359022 1  18F107F3x       Rx   d 8 27 10 27 10 00 00 00 00
 1.360814 1  18F108F3x       Rx   d 8 00 00 00 00 00 01 00 BB
 1.361638 1  18F155F3x       Rx   d 8 31 31 31 31 31 32 31 00
 1.362734 1  18F156F3x       Rx   d 8 00 00 00 00 00 00 00 00
 1.363597 1  18F157F3x       Rx   d 8 00 00 00 00 00 00 00 00
 1.364489 1  18F158F3x       Rx   d 8 00 00 00 00 00 00 00 00
 1.365387 1  18F159F3x       Rx   d 8 00 00 00 00 00 00 00 00
 1.366300 1  18F15AF3x       Rx   d 8 00 00 00 00 00 00 00 00
 1.367198 1  18F15BF3x       Rx   d 7 00 00 00 00 00 00 00
 1.368105 1  18F15CF3x       Rx   d 8 00 00 00 00 00 00 00 00
 1.369013 1  18F15DF3x       Rx   d 8 00 00 00 00 00 00 00 00
 1.369757 1  18F15EF3x       Rx   d 8 00 00 00 00 00 00 00 00
 1.400107 1  1806E5F4x       Rx   d 8 00 00 00 00 01 FF FF FF
 1.443545 1  1806E5F4x       Rx   d 8 00 00 00 00 01 FF FF FF
 1.446472 1  18FF2112x       Rx   d 8 01 00 00 00 00 00 00 00
 1.455685 1  18F100F3x       Rx   d 8 03 31 7D 00 EB FA 14 00
 1.456543 1  18F102F3x       Rx   d 8 0F FB 0F F4 10 05 00 07
 1.457890 1  18F106F3x       Rx   d 8 80 C4 FC FF FF FF FF FF
 1.459119 1  18F107F3x       Rx   d 8 27 10 27 10 00 00 00 00
 1.460889 1  18F108F3x       Rx   d 8 00 00 00 00 00 01 00 BB
 1.461782 1  18F155F3x       Rx   d 8 31 31 31 31 31 32 31 00
 1.462866 1  18F156F3x       Rx   d 8 00 00 00 00 00 00 00 00
 1.463730 1  18F157F3x       Rx   d 8 00 00 00 00 00 00 00 00
 1.464646 1  18F158F3x       Rx   d 8 00 00 00 00 00 00 00 00
 1.465470 1  18F159F3x       Rx   d 8 00 00 00 00 00 00 00 00
 1.466363 1  18F15AF3x       Rx   d 8 00 00 00 00 00 00 00 00
 1.467204 1  18F15BF3x       Rx   d 7 00 00 00 00 00 00 00
 1.468080 1  18F15CF3x       Rx   d 8 00 00 00 00 00 00 00 00
 1.469009 1  18F15DF3x       Rx   d 8 00 00 00 00 00 00 00 00
 1.469813 1  18F15EF3x       Rx   d 8 00 00 00 00 00 00 00 00
 1.497894 1  1806E5F4x       Rx   d 8 00 00 00 00 01 FF FF FF
 1.544188 1  18FF2112x       Rx   d 8 01 00 00 00 00 00 00 00
 1.547931 1  1806E5F4x       Rx   d 8 00 00 00 00 01 FF FF FF
 1.555948 1  18F100F3x       Rx   d 8 03 31 7D 00 EB FA 14 00
 1.556836 1  18F102F3x       Rx   d 8 0F FB 0F F4 10 05 00 07
 1.558138 1  18F106F3x       Rx   d 8 80 C4 FC FF FF FF FF FF
 1.559378 1  18F107F3x       Rx   d 8 27 10 27 10 00 00 00 00
 1.561118 1  18F108F3x       Rx   d 8 00 00 00 00 00 01 00 BB
 1.561749 1  18F155F3x       Rx   d 8 31 31 31 31 31 32 31 00
 1.562865 1  18F156F3x       Rx   d 8 00 00 00 00 00 00 00 00
 1.563712 1  18F157F3x       Rx   d 8 00 00 00 00 00 00 00 00
 1.564551 1  18F158F3x       Rx   d 8 00 00 00 00 00 00 00 00
 1.565438 1  18F159F3x       Rx   d 8 00 00 00 00 00 00 00 00
 1.566617 1  18F15AF3x       Rx   d 8 00 00 00 00 00 00 00 00
 1.567524 1  18F15BF3x       Rx   d 7 00 00 00 00 00 00 00
 1.568305 1  18F15CF3x       Rx   d 8 00 00 00 00 00 00 00 00
 1.569169 1  18F15DF3x       Rx   d 8 00 00 00 00 00 00 00 00
 1.570090 1  18F15EF3x       Rx   d 8 00 00 00 00 00 00 00 00
 1.597726 1  1806E5F4x       Rx   d 8 00 00 00 00 01 FF FF FF
 1.641503 1  18FF2112x       Rx   d 8 01 00 00 00 00 00 00 00
 1.648572 1  18F104F3x       Rx   d 8 32 31 06 01 01 FF FF FF
 1.649346 1  18F113F3x       Rx   d 8 0F F6 0F F6 0F F6 0F F6
 1.650380 1  18F114F3x       Rx   d 8 0F F4 0F F4 0F F7 0F F7
 1.651173 1  18F115F3x       Rx   d 8 0F F4 0F F4 0F F4 0F F4
 1.652321 1  18F116F3x       Rx   d 8 0F F8 0F F6 0F F9 0F FB
 1.653048 1  18F117F3x       Rx   d 8 0F F6 0F F7 0F FB 0F F9
 1.654000 1  18F118F3x       Rx   d 8 00 00 00 00 00 00 00 00
 1.654902 1  18F119F3x       Rx   d 8 00 00 00 00 00 00 00 00
 1.656027 1  18F11AF3x       Rx   d 8 00 00 00 00 00 00 00 00
 1.656861 1  18F100F3x       Rx   d 8 03 31 7D 00 EB FA 14 00
 1.658011 1  18F102F3x       Rx   d 8 0F FB 0F F4 10 05 00 07
 1.659382 1  18F106F3x       Rx   d 8 80 C4 FC FF FF FF FF FF
 1.660717 1  18F107F3x       Rx   d 8 27 10 27 10 00 00 00 00
 1.662345 1  18F108F3x       Rx   d 8 00 00 00 00 00 01 00 BB
 1.663037 1  18F11BF3x       Rx   d 8 00 00 00 00 00 00 00 00
 1.663980 1  18F11CF3x       Rx   d 8 00 00 00 00 00 00 00 00
 1.664884 1  18F11DF3x       Rx   d 8 00 00 00 00 00 00 00 00
 1.665868 1  18F11EF3x       Rx   d 8 00 00 00 00 00 00 00 00
 1.666634 1  18F11FF3x       Rx   d 8 00 00 00 00 00 00 00 00
 1.667601 1  18F120F3x       Rx   d 8 00 00 00 00 00 00 00 00
 1.668564 1  18F121F3x       Rx   d 8 00 00 00 00 00 00 00 00
 1.669531 1  18F122F3x       Rx   d 8 00 00 00 00 00 00 00 00
 1.670482 1  18F123F3x       Rx   d 8 00 00 00 00 00 00 00 00
 1.671508 1  18F124F3x       Rx   d 8 00 00 00 00 00 00 00 00
 1.672729 1  18F125F3x       Rx   d 8 00 00 00 00 00 00 00 00
 1.673635 1  18F126F3x       Rx   d 8 00 00 00 00 00 00 00 00
 1.674557 1  18F127F3x       Rx   d 8 00 00 00 00 00 00 00 00
 1.675507 1  18F128F3x       Rx   d 8 00 00 00 00 00 00 00 00
 1.676490 1  18F129F3x       Rx   d 8 00 00 00 00 00 00 00 00
 1.678597 1  18F12AF3x       Rx   d 8 00 00 00 00 00 00 00 00
 1.678844 1  18F12BF3x       Rx   d 8 00 00 00 00 00 00 00 00
 1.679364 1  18F12CF3x       Rx   d 8 00 00 00 00 00 00 00 00
 1.680300 1  18F12DF3x       Rx   d 8 00 00 00 00 00 00 00 00
 1.681325 1  18F12EF3x       Rx   d 8 00 00 00 00 00 00 00 00
 1.682478 1  18F12FF3x       Rx   d 8 00 00 00 00 00 00 00 00
 1.683095 1  1806E5F4x       Rx   d 8 00 00 00 00 01 FF FF FF
 1.683644 1  18F130F3x       Rx   d 8 00 00 00 00 00 00 00 00
 1.684556 1  18F131F3x       Rx   d 8 00 00 00 00 00 00 00 00
 1.685517 1  18F132F3x       Rx   d 8 00 00 00 00 00 00 00 00
 1.686406 1  18F133F3x       Rx   d 8 00 00 00 00 00 00 00 00
 1.687313 1  18F134F3x       Rx   d 8 00 00 00 00 00 00 00 00
 1.688276 1  18F135F3x       Rx   d 8 00 00 00 00 00 00 00 00
 1.689045 1  18F136F3x       Rx   d 8 00 00 00 00 00 00 00 00
 1.690048 1  18F137F3x       Rx   d 8 00 00 00 00 00 00 00 00
 1.690910 1  18F138F3x       Rx   d 8 00 00 00 00 00 00 00 00
 1.691791 1  18F139F3x       Rx   d 8 00 00 00 00 00 00 00 00
 1.692793 1  18F13AF3x       Rx   d 8 00 00 00 00 00 00 00 00
 1.693609 1  18F13BF3x       Rx   d 8 00 00 00 00 00 00 00 00
 1.694464 1  18F13CF3x       Rx   d 8 00 00 00 00 00 00 00 00
 1.695327 1  18F155F3x       Rx   d 8 31 31 31 31 31 32 31 00
 1.696257 1  18F156F3x       Rx   d 8 00 00 00 00 00 00 00 00
 1.697266 1  18F157F3x       Rx   d 8 00 00 00 00 00 00 00 00
 1.698116 1  18F158F3x       Rx   d 8 00 00 00 00 00 00 00 00
 1.698980 1  18F159F3x       Rx   d 8 00 00 00 00 00 00 00 00
 1.699883 1  18F15AF3x       Rx   d 8 00 00 00 00 00 00 00 00
 1.700746 1  18F15BF3x       Rx   d 7 00 00 00 00 00 00 00
 1.701587 1  18F15CF3x       Rx   d 8 00 00 00 00 00 00 00 00
 1.702797 1  18F15DF3x       Rx   d 8 00 00 00 00 00 00 00 00
 1.703548 1  18F15EF3x       Rx   d 8 00 00 00 00 00 00 00 00
 1.732971 1  1806E5F4x       Rx   d 8 00 00 00 00 01 FF FF FF
 1.738538 1  18FF2112x       Rx   d 8 01 00 00 00 00 00 00 00
 1.755926 1  18F100F3x       Rx   d 8 03 31 7D 00 EB FA 14 00
 1.756818 1  18F102F3x       Rx   d 8 0F FB 0F F4 10 05 00 07
 1.758113 1  18F106F3x       Rx   d 8 80 C4 FC FF FF FF FF FF
 1.759194 1  18F107F3x       Rx   d 8 27 10 27 10 00 00 00 00
 1.761013 1  18F108F3x       Rx   d 8 00 00 00 00 00 01 00 BB
 1.761765 1  18F155F3x       Rx   d 8 31 31 31 31 31 32 31 00
 1.762856 1  18F156F3x       Rx   d 8 00 00 00 00 00 00 00 00
 1.763676 1  18F157F3x       Rx   d 8 00 00 00 00 00 00 00 00
