date Sun May 17 16:10:01.728 2026
base hex  timestamps absolute
internal events logged
Begin Triggerblock Sun May 17 16:10:01.746 2026
 0.000000 Start of measurement
 0.000000 1  CFF21CAx        Rx   d 8 02 00 80 0C 3F 3D 00 10
 0.000306 1  18F100D0x       Rx   d 8 0C FF FF FF FF FF FF FF
 0.000537 1  CFF21CAx        Rx   d 8 02 00 80 0C 3F 3D 00 10
 0.004815 1  CFF21CAx        Rx   d 8 02 00 80 0C 3F 3D 00 10
 0.008561 1  18FF2112x       Rx   d 8 01 00 00 00 00 00 00 00
 0.013653 1  18F100D0x       Rx   d 8 0C FF FF FF FF FF FF FF
 0.017086 1  CFF21CAx        Rx   d 8 02 00 80 0C 3F 3D 00 10
 0.028657 1  18F100F3x       Rx   d 8 03 27 7D D8 E3 FA 14 00
 0.029284 1  CFF21CAx        Rx   d 8 02 00 80 0C 3F 3D 00 10
 0.029837 1  18F102F3x       Rx   d 8 0F C9 0F C1 10 09 00 08
 0.031038 1  18F106F3x       Rx   d 8 45 E0 FC FF FF FF FF FF
 0.032363 1  18F107F3x       Rx   d 8 38 A4 27 10 01 6B 00 00
 0.034150 1  18F108F3x       Rx   d 8 00 00 00 00 00 00 00 00
 0.034928 1  18F155F3x       Rx   d 8 35 33 33 33 33 36 35 00
 0.035884 1  18F156F3x       Rx   d 8 00 00 00 00 00 00 00 00
 0.036701 1  18F157F3x       Rx   d 8 00 00 00 00 00 00 00 00
 0.037278 1  18F100D0x       Rx   d 8 0C FF FF FF FF FF FF FF
 0.037854 1  18F158F3x       Rx   d 8 00 00 00 00 00 00 00 00
 0.038700 1  18F159F3x       Rx   d 8 00 00 00 00 00 00 00 00
 0.039770 1  18F15AF3x       Rx   d 8 00 00 00 00 00 00 00 00
 0.040469 1  18F15BF3x       Rx   d 7 00 00 00 00 00 00 00
 0.041068 1  CFF21CAx        Rx   d 8 02 00 80 0C 3F 3D 00 10
 0.041655 1  18F15CF3x       Rx   d 8 00 00 00 00 00 00 00 00
 0.042501 1  18F15DF3x       Rx   d 8 00 00 00 00 00 00 00 00
 0.043434 1  18F15EF3x       Rx   d 8 00 00 00 00 00 00 00 00
 0.052993 1  CFF21CAx        Rx   d 8 02 00 80 0C 3F 3D 00 10
 0.061184 1  18F100D0x       Rx   d 8 0C FF FF FF FF FF FF FF
 0.065312 1  CFF21CAx        Rx   d 8 02 00 80 0C 3F 3D 00 10
 0.077859 1  CFF21CAx        Rx   d 8 02 00 80 0C 3F 3D 00 10
 0.085425 1  18F100D0x       Rx   d 8 0C FF FF FF FF FF FF FF
 0.089204 1  CFF21CAx        Rx   d 8 02 00 80 0C 3F 3D 00 10
 0.101388 1  CFF21CAx        Rx   d 8 02 00 80 0C 3F 3D 00 10
 0.106275 1  18FF2112x       Rx   d 8 01 00 00 00 00 00 00 00
 0.109736 1  18F100D0x       Rx   d 8 0C FF FF FF FF FF FF FF
 0.113562 1  CFF21CAx        Rx   d 8 02 00 80 0C 3F 3D 00 10
 0.125392 1  CFF21CAx        Rx   d 8 02 00 80 0C 3F 3D 00 10
 0.128955 1  18F100F3x       Rx   d 8 03 27 7D D8 E3 FA 14 00
 0.129903 1  18F102F3x       Rx   d 8 0F C9 0F C1 10 09 00 08
 0.131165 1  18F106F3x       Rx   d 8 45 E0 FC FF FF FF FF FF
 0.132602 1  18F107F3x       Rx   d 8 38 A4 27 10 01 6B 00 00
 0.134337 1  18F108F3x       Rx   d 8 00 00 00 00 00 00 00 00
 0.135189 1  18F155F3x       Rx   d 8 35 33 33 33 33 36 35 00
 0.136090 1  18F156F3x       Rx   d 8 00 00 00 00 00 00 00 00
 0.136983 1  18F157F3x       Rx   d 8 00 00 00 00 00 00 00 00
 0.137327 1  CFF21CAx        Rx   d 8 02 00 80 0C 3F 3D 00 10
 0.138095 1  18F100D0x       Rx   d 8 0C FF FF FF FF FF FF FF
 0.138604 1  18F158F3x       Rx   d 8 00 00 00 00 00 00 00 00
 0.139867 1  18F159F3x       Rx   d 8 00 00 00 00 00 00 00 00
 0.140831 1  18F15AF3x       Rx   d 8 00 00 00 00 00 00 00 00
 0.141503 1  18F15BF3x       Rx   d 7 00 00 00 00 00 00 00
 0.142573 1  18F15CF3x       Rx   d 8 00 00 00 00 00 00 00 00
 0.143466 1  18F15DF3x       Rx   d 8 00 00 00 00 00 00 00 00
 0.144213 1  18F15EF3x       Rx   d 8 00 00 00 00 00 00 00 00
 0.149603 1  CFF21CAx        Rx   d 8 02 00 80 0C 3F 3D 00 10
 0.161633 1  CFF21CAx        Rx   d 8 02 00 80 0C 3F 3D 00 10
 0.162001 1  18F100D0x       Rx   d 8 0C FF FF FF FF FF FF FF
 0.173756 1  CFF21CAx        Rx   d 8 02 00 80 0C 3F 3D 00 10
 0.186001 1  CFF21CAx        Rx   d 8 02 00 80 0C 3F 3D 00 10
 0.186421 1  18F100D0x       Rx   d 8 0C FF FF FF FF FF FF FF
 0.197775 1  CFF21CAx        Rx   d 8 02 00 80 0C 3F 3D 00 10
 0.219848 1  18FF2112x       Rx   d 8 01 00 00 00 00 00 00 00
 0.220073 1  CFF21CAx        Rx   d 8 03 00 80 0C 3F 3D 00 10
 0.220280 1  18F100D0x       Rx   d 8 0C FF FF FF FF FF FF FF
 0.221565 1  CFF21CAx        Rx   d 8 03 00 80 0C 3F 3D 00 10
 0.228850 1  18F100F3x       Rx   d 8 03 27 7D D8 E3 FA 14 00
 0.229998 1  18F102F3x       Rx   d 8 0F C9 0F C1 10 09 00 08
 0.231085 1  18F106F3x       Rx   d 8 45 E0 FC FF FF FF FF FF
 0.232378 1  18F107F3x       Rx   d 8 38 A4 27 10 01 6B 00 00
 0.233994 1  CFF21CAx        Rx   d 8 03 00 80 0C 3F 3D 00 10
 0.234346 1  18F100D0x       Rx   d 8 0C FF FF FF FF FF FF FF
 0.235134 1  18F108F3x       Rx   d 8 00 00 00 00 00 00 00 00
 0.235951 1  18F155F3x       Rx   d 8 35 33 33 33 33 36 35 00
 0.236874 1  18F156F3x       Rx   d 8 00 00 00 00 00 00 00 00
 0.237701 1  18F157F3x       Rx   d 8 00 00 00 00 00 00 00 00
 0.238805 1  18F158F3x       Rx   d 8 00 00 00 00 00 00 00 00
 0.240125 1  18F159F3x       Rx   d 8 00 00 00 00 00 00 00 00
 0.240949 1  18F15AF3x       Rx   d 8 00 00 00 00 00 00 00 00
 0.241827 1  18F15BF3x       Rx   d 7 00 00 00 00 00 00 00
 0.242737 1  18F15CF3x       Rx   d 8 00 00 00 00 00 00 00 00
 0.243668 1  18F15DF3x       Rx   d 8 00 00 00 00 00 00 00 00
 0.244517 1  18F15EF3x       Rx   d 8 00 00 00 00 00 00 00 00
 0.245918 1  CFF21CAx        Rx   d 8 02 00 80 0C 3F 3D 00 10
 0.257775 1  CFF21CAx        Rx   d 8 02 00 80 0C 3F 3D 00 10
 0.258409 1  18F100D0x       Rx   d 8 0C FF FF FF FF FF FF FF
 0.269856 1  CFF21CAx        Rx   d 8 02 00 80 0C 3F 3D 00 10
 0.281976 1  CFF21CAx        Rx   d 8 02 00 80 0C 3F 3D 00 10
 0.285956 1  18F100D0x       Rx   d 8 0C FF FF FF FF FF FF FF
 0.294177 1  CFF21CAx        Rx   d 8 02 00 80 0C 3F 3D 00 10
 0.300634 1  18FF2112x       Rx   d 8 01 00 00 00 00 00 00 00
 0.306271 1  CFF21CAx        Rx   d 8 02 00 80 0C 3F 3D 00 10
 0.310329 1  18F100D0x       Rx   d 8 0C FF FF FF FF FF FF FF
 0.318207 1  CFF21CAx        Rx   d 8 02 00 80 0C 3F 3D 00 10
 0.328722 1  18F100F3x       Rx   d 8 03 27 7D DA E3 FA 14 00
 0.330156 1  18F102F3x       Rx   d 8 0F C9 0F C1 10 09 00 08
 0.330525 1  CFF21CAx        Rx   d 8 02 00 80 0C 3F 3D 00 10
 0.331204 1  18F106F3x       Rx   d 8 45 E0 FC FF FF FF FF FF
 0.332599 1  18F107F3x       Rx   d 8 38 A4 27 10 01 6B 00 00
 0.334371 1  18F108F3x       Rx   d 8 00 00 00 00 00 00 00 00
 0.334723 1  18F100D0x       Rx   d 8 0C FF FF FF FF FF FF FF
 0.335345 1  18F155F3x       Rx   d 8 35 33 33 33 33 36 35 00
 0.336089 1  18F156F3x       Rx   d 8 00 00 00 00 00 00 00 00
 0.336960 1  18F157F3x       Rx   d 8 00 00 00 00 00 00 00 00
 0.338020 1  18F158F3x       Rx   d 8 00 00 00 00 00 00 00 00
 0.338895 1  18F159F3x       Rx   d 8 00 00 00 00 00 00 00 00
 0.340007 1  18F15AF3x       Rx   d 8 00 00 00 00 00 00 00 00
 0.340665 1  18F15BF3x       Rx   d 7 00 00 00 00 00 00 00
 0.341522 1  18F15CF3x       Rx   d 8 00 00 00 00 00 00 00 00
 0.342139 1  CFF21CAx        Rx   d 8 02 00 80 0C 3F 3D 00 10
 0.342659 1  18F15DF3x       Rx   d 8 00 00 00 00 00 00 00 00
 0.343585 1  18F15EF3x       Rx   d 8 00 00 00 00 00 00 00 00
 0.354276 1  CFF21CAx        Rx   d 8 02 00 80 0C 3F 3D 00 10
 0.358400 1  18F100D0x       Rx   d 8 0C FF FF FF FF FF FF FF
 0.366520 1  CFF21CAx        Rx   d 8 02 00 80 0C 3F 3D 00 10
 0.378532 1  CFF21CAx        Rx   d 8 02 00 80 0C 3F 3D 00 10
 0.386872 1  18F100D0x       Rx   d 8 0C FF FF FF FF FF FF FF
 0.389270 1  18F104F3x       Rx   d 8 36 33 06 02 03 FF FF FF
 0.390193 1  18F113F3x       Rx   d 8 0F C4 0F C4 0F C4 0F C5
 0.390721 1  CFF21CAx        Rx   d 8 02 00 80 0C 3F 3D 00 10
 0.391278 1  18F114F3x       Rx   d 8 0F C2 0F C2 0F C5 0F C4
 0.392234 1  18F115F3x       Rx   d 8 0F C1 0F C2 0F C2 0F C1
 0.393193 1  18F116F3x       Rx   d 8 0F C7 0F C5 0F C7 0F C9
 0.394009 1  18F117F3x       Rx   d 8 0F C4 0F C5 0F C9 0F C8
 0.394965 1  18F118F3x       Rx   d 8 00 00 00 00 00 00 00 00
 0.395927 1  18F119F3x       Rx   d 8 00 00 00 00 00 00 00 00
 0.396935 1  18F11AF3x       Rx   d 8 00 00 00 00 00 00 00 00
 0.397627 1  18FF2112x       Rx   d 8 01 00 00 00 00 00 00 00
 0.398222 1  18F11BF3x       Rx   d 8 00 00 00 00 00 00 00 00
 0.399329 1  18F11CF3x       Rx   d 8 00 00 00 00 00 00 00 00
 0.400158 1  18F11DF3x       Rx   d 8 00 00 00 00 00 00 00 00
 0.401093 1  18F11EF3x       Rx   d 8 00 00 00 00 00 00 00 00
 0.401936 1  18F11FF3x       Rx   d 8 00 00 00 00 00 00 00 00
 0.402434 1  CFF21CAx        Rx   d 8 02 00 80 0C 3F 3D 00 10
 0.403017 1  18F120F3x       Rx   d 8 00 00 00 00 00 00 00 00
 0.405223 1  18F121F3x       Rx   d 8 00 00 00 00 00 00 00 00
 0.405481 1  18F122F3x       Rx   d 8 00 00 00 00 00 00 00 00
 0.405720 1  18F123F3x       Rx   d 8 00 00 00 00 00 00 00 00
 0.406547 1  18F100D0x       Rx   d 8 0C FF FF FF FF FF FF FF
 0.406927 1  18F124F3x       Rx   d 8 00 00 00 00 00 00 00 00
 0.408010 1  18F125F3x       Rx   d 8 00 00 00 00 00 00 00 00
 0.408915 1  18F126F3x       Rx   d 8 00 00 00 00 00 00 00 00
 0.409981 1  18F127F3x       Rx   d 8 00 00 00 00 00 00 00 00
 0.410898 1  18F128F3x       Rx   d 8 00 00 00 00 00 00 00 00
 0.411824 1  18F129F3x       Rx   d 8 00 00 00 00 00 00 00 00
 0.412730 1  18F12AF3x       Rx   d 8 00 00 00 00 00 00 00 00
 0.413517 1  18F12BF3x       Rx   d 8 00 00 00 00 00 00 00 00
 0.414464 1  18F12CF3x       Rx   d 8 00 00 00 00 00 00 00 00
 0.415028 1  CFF21CAx        Rx   d 8 02 00 80 0C 3F 3D 00 10
 0.415631 1  18F12DF3x       Rx   d 8 00 00 00 00 00 00 00 00
 0.416731 1  18F12EF3x       Rx   d 8 00 00 00 00 00 00 00 00
 0.417583 1  18F12FF3x       Rx   d 8 00 00 00 00 00 00 00 00
 0.418568 1  18F130F3x       Rx   d 8 00 00 00 00 00 00 00 00
 0.419315 1  18F131F3x       Rx   d 8 00 00 00 00 00 00 00 00
 0.420028 1  18F132F3x       Rx   d 8 00 00 00 00 00 00 00 00
 0.420875 1  18F133F3x       Rx   d 8 00 00 00 00 00 00 00 00
 0.445294 1  18F134F3x       Rx   d 8 00 00 00 00 00 00 00 00
 0.445478 1  18F135F3x       Rx   d 8 00 00 00 00 00 00 00 00
 0.445651 1  18F136F3x       Rx   d 8 00 00 00 00 00 00 00 00
 0.445822 1  18F137F3x       Rx   d 8 00 00 00 00 00 00 00 00
 0.446072 1  18F138F3x       Rx   d 8 00 00 00 00 00 00 00 00
 0.446257 1  18F139F3x       Rx   d 8 00 00 00 00 00 00 00 00
 0.446431 1  CFF21CAx        Rx   d 8 02 00 80 0C 3F 3D 00 10
 0.446603 1  18F13AF3x       Rx   d 8 00 00 00 00 00 00 00 00
 0.446773 1  18FECACAx       Rx   d 8 00 00 00 00 00 00 FF FF
 0.446945 1  18F13BF3x       Rx   d 8 00 00 00 00 00 00 00 00
 0.447113 1  18F100F3x       Rx   d 8 03 27 7D DA E3 FA 14 00
 0.447290 1  18F102F3x       Rx   d 8 0F C9 0F C1 10 09 00 08
 0.447468 1  18F106F3x       Rx   d 8 45 E0 FC FF FF FF FF FF
 0.447641 1  18F107F3x       Rx   d 8 38 A4 27 10 01 6B 00 00
 0.447810 1  18F100D0x       Rx   d 8 0C FF FF FF FF FF FF FF
 0.447976 1  18F108F3x       Rx   d 8 00 00 00 00 00 00 00 00
 0.448150 1  18F13CF3x       Rx   d 8 00 00 00 00 00 00 00 00
 0.448318 1  18F155F3x       Rx   d 8 35 33 33 33 33 36 35 00
 0.448489 1  18F156F3x       Rx   d 8 00 00 00 00 00 00 00 00
 0.448655 1  CFF21CAx        Rx   d 8 02 00 80 0C 3F 3D 00 10
 0.448821 1  18F157F3x       Rx   d 8 00 00 00 00 00 00 00 00
 0.448998 1  18F158F3x       Rx   d 8 00 00 00 00 00 00 00 00
 0.449159 1  18F159F3x       Rx   d 8 00 00 00 00 00 00 00 00
 0.449319 1  18F15AF3x       Rx   d 8 00 00 00 00 00 00 00 00
 0.449469 1  18F15BF3x       Rx   d 7 00 00 00 00 00 00 00
 0.449630 1  18F15CF3x       Rx   d 8 00 00 00 00 00 00 00 00
 0.449790 1  18F15DF3x       Rx   d 8 00 00 00 00 00 00 00 00
 0.449951 1  18F15EF3x       Rx   d 8 00 00 00 00 00 00 00 00
 0.450630 1  CFF21CAx        Rx   d 8 02 00 80 0C 3F 3D 00 10
 0.462844 1  CFF21CAx        Rx   d 8 02 00 80 0C 3F 3D 00 10
 0.463199 1  18F100D0x       Rx   d 8 0C FF FF FF FF FF FF FF
 0.475028 1  CFF21CAx        Rx   d 8 02 00 80 0C 3F 3D 00 10
 0.483300 1  18F100D0x       Rx   d 8 0C FF FF FF FF FF FF FF
 0.486674 1  CFF21CAx        Rx   d 8 02 00 80 0C 3F 3D 00 10
 0.494805 1  18FF2112x       Rx   d 8 01 00 00 00 00 00 00 00
 0.498820 1  CFF21CAx        Rx   d 8 03 00 80 0C 3F 3D 00 10
 0.510757 1  CFF21CAx        Rx   d 8 03 00 80 0C 3F 3D 00 10
 0.511313 1  18F100D0x       Rx   d 8 0C FF FF FF FF FF FF FF
 0.522864 1  CFF21CAx        Rx   d 8 02 00 80 0C 3F 3D 00 10
 0.528746 1  18F100F3x       Rx   d 8 03 27 7D D9 E3 FA 14 00
 0.529840 1  18F102F3x       Rx   d 8 0F C9 0F C1 10 09 00 08
 0.531069 1  18F106F3x       Rx   d 8 45 E0 FC FF FF FF FF FF
 0.532334 1  18F107F3x       Rx   d 8 38 A4 27 10 01 6B 00 00
 0.534205 1  18F108F3x       Rx   d 8 00 00 00 00 00 00 00 00
 0.535093 1  CFF21CAx        Rx   d 8 02 00 80 0C 3F 3D 00 10
 0.535597 1  18F100D0x       Rx   d 8 0C FF FF FF FF FF FF FF
 0.536065 1  18F155F3x       Rx   d 8 35 33 33 33 33 36 35 00
 0.537169 1  18F156F3x       Rx   d 8 00 00 00 00 00 00 00 00
 0.537938 1  18F157F3x       Rx   d 8 00 00 00 00 00 00 00 00
 0.538940 1  18F158F3x       Rx   d 8 00 00 00 00 00 00 00 00
 0.540125 1  18F159F3x       Rx   d 8 00 00 00 00 00 00 00 00
 0.540732 1  18F15AF3x       Rx   d 8 00 00 00 00 00 00 00 00
 0.541614 1  18F15BF3x       Rx   d 7 00 00 00 00 00 00 00
 0.542574 1  18F15CF3x       Rx   d 8 00 00 00 00 00 00 00 00
 0.543539 1  18F15DF3x       Rx   d 8 00 00 00 00 00 00 00 00
 0.544341 1  18F15EF3x       Rx   d 8 00 00 00 00 00 00 00 00
 0.547554 1  CFF21CAx        Rx   d 8 02 00 80 0C 3F 3D 00 10
 0.559280 1  CFF21CAx        Rx   d 8 03 00 80 0C 3F 3D 00 10
 0.559633 1  18F100D0x       Rx   d 8 0C FF FF FF FF FF FF FF
 0.571296 1  CFF21CAx        Rx   d 8 03 00 80 0C 3F 3D 00 10
 0.583557 1  CFF21CAx        Rx   d 8 03 00 80 0C 3F 3D 00 10
 0.584189 1  18F100D0x       Rx   d 8 0C FF FF FF FF FF FF FF
 0.592233 1  18FF2112x       Rx   d 8 01 00 00 00 00 00 00 00
 0.595280 1  CFF21CAx        Rx   d 8 03 00 80 0C 3F 3D 00 10
 0.607154 1  CFF21CAx        Rx   d 8 03 00 80 0C 3F 3D 00 10
 0.607649 1  18F100D0x       Rx   d 8 0C FF FF FF FF FF FF FF
 0.619149 1  CFF21CAx        Rx   d 8 03 00 80 0C 3F 3D 00 10
 0.628688 1  18F100F3x       Rx   d 8 03 27 7D D9 E3 FA 14 00
 0.629657 1  18F102F3x       Rx   d 8 0F C9 0F C1 10 09 00 08
 0.630907 1  18F106F3x       Rx   d 8 45 E0 FC FF FF FF FF FF
 0.631477 1  CFF21CAx        Rx   d 8 03 00 80 0C 3F 3D 00 10
 0.632201 1  18F107F3x       Rx   d 8 38 A4 27 10 01 6B 00 00
 0.633988 1  18F108F3x       Rx   d 8 00 00 00 00 00 00 00 00
 0.634850 1  18F155F3x       Rx   d 8 35 33 33 33 33 36 35 00
 0.635621 1  18F100D0x       Rx   d 8 0C FF FF FF FF FF FF FF
 0.636201 1  18F156F3x       Rx   d 8 00 00 00 00 00 00 00 00
 0.637120 1  18F157F3x       Rx   d 8 00 00 00 00 00 00 00 00
 0.637945 1  18F158F3x       Rx   d 8 00 00 00 00 00 00 00 00
 0.638858 1  18F159F3x       Rx   d 8 00 00 00 00 00 00 00 00
 0.639705 1  18F15AF3x       Rx   d 8 00 00 00 00 00 00 00 00
 0.640515 1  18F15BF3x       Rx   d 7 00 00 00 00 00 00 00
 0.641446 1  18F15CF3x       Rx   d 8 00 00 00 00 00 00 00 00
 0.642403 1  18F15DF3x       Rx   d 8 00 00 00 00 00 00 00 00
 0.643257 1  18F15EF3x       Rx   d 8 00 00 00 00 00 00 00 00
 0.643785 1  CFF21CAx        Rx   d 8 03 00 80 0C 3F 3D 00 10
 0.666117 1  CFF21CAx        Rx   d 8 03 00 80 0C 3F 3D 00 10
 0.666371 1  18F100D0x       Rx   d 8 0C FF FF FF FF FF FF FF
 0.667524 1  CFF21CAx        Rx   d 8 03 00 80 0C 3F 3D 00 10
 0.679660 1  CFF21CAx        Rx   d 8 03 00 80 0C 3F 3D 00 10
 0.684074 1  18F100D0x       Rx   d 8 0C FF FF FF FF FF FF FF
 0.689402 1  18FF2112x       Rx   d 8 01 00 00 00 00 00 00 00
 0.691753 1  CFF21CAx        Rx   d 8 03 00 80 0C 3F 3D 00 10
 0.703641 1  CFF21CAx        Rx   d 8 03 00 80 0C 3F 3D 00 10
 0.707593 1  18F100D0x       Rx   d 8 0C FF FF FF FF FF FF FF
 0.715977 1  CFF21CAx        Rx   d 8 03 00 80 0C 3F 3D 00 10
 0.727644 1  CFF21CAx        Rx   d 8 03 00 80 0C 3F 3D 00 10
 0.728663 1  18F100F3x       Rx   d 8 03 27 7D D9 E3 FA 14 00
 0.729774 1  18F102F3x       Rx   d 8 0F C9 0F C1 10 09 00 08
 0.731012 1  18F106F3x       Rx   d 8 45 E0 FC FF FF FF FF FF
 0.732082 1  18F100D0x       Rx   d 8 0C FF FF FF FF FF FF FF
 0.732658 1  18F107F3x       Rx   d 8 38 A4 27 10 01 6B 00 00
 0.734519 1  18F108F3x       Rx   d 8 00 00 00 00 00 00 00 00
 0.735404 1  18F155F3x       Rx   d 8 35 33 33 33 33 36 35 00
 0.736321 1  18F156F3x       Rx   d 8 00 00 00 00 00 00 00 00
 0.737508 1  18F157F3x       Rx   d 8 00 00 00 00 00 00 00 00
 0.738366 1  18F158F3x       Rx   d 8 00 00 00 00 00 00 00 00
 0.739047 1  18F159F3x       Rx   d 8 00 00 00 00 00 00 00 00
 0.740158 1  18F15AF3x       Rx   d 8 00 00 00 00 00 00 00 00
 0.740587 1  CFF21CAx        Rx   d 8 03 00 80 0C 3F 3D 00 10
 0.741095 1  18F15BF3x       Rx   d 7 00 00 00 00 00 00 00
 0.742118 1  18F15CF3x       Rx   d 8 00 00 00 00 00 00 00 00
 0.742980 1  18F15DF3x       Rx   d 8 00 00 00 00 00 00 00 00
 0.743852 1  18F15EF3x       Rx   d 8 00 00 00 00 00 00 00 00
 0.752052 1  CFF21CAx        Rx   d 8 03 00 80 0C 3F 3D 00 10
 0.760074 1  18F100D0x       Rx   d 8 0C FF FF FF FF FF FF FF
 0.764162 1  CFF21CAx        Rx   d 8 03 00 80 0C 3F 3D 00 10
 0.775924 1  CFF21CAx        Rx   d 8 03 00 80 0C 3F 3D 00 10
 0.784265 1  18F100D0x       Rx   d 8 0C FF FF FF FF FF FF FF
 0.786796 1  18FF2112x       Rx   d 8 01 00 00 00 00 00 00 00
 0.787977 1  CFF21CAx        Rx   d 8 03 00 80 0C 3F 3D 00 10
 0.800451 1  CFF21CAx        Rx   d 8 03 00 80 0C 3F 3D 00 10
 0.808321 1  18F100D0x       Rx   d 8 0C FF FF FF FF FF FF FF
 0.813310 1  CFF21CAx        Rx   d 8 03 00 80 0C 3F 3D 00 10
 0.824143 1  CFF21CAx        Rx   d 8 03 00 80 0C 3F 3D 00 10
 0.829105 1  18F100F3x       Rx   d 8 03 27 7D D9 E3 FA 14 00
 0.829845 1  18F102F3x       Rx   d 8 0F C9 0F C1 10 09 00 08
 0.831333 1  18F106F3x       Rx   d 8 45 E0 FC FF FF FF FF FF
 0.832402 1  18F100D0x       Rx   d 8 0C FF FF FF FF FF FF FF
 0.832746 1  18F107F3x       Rx   d 8 38 A4 27 10 01 6B 00 00
 0.834629 1  18F108F3x       Rx   d 8 00 00 00 00 00 00 00 00
 0.835686 1  18F155F3x       Rx   d 8 35 33 33 33 33 36 35 00
 0.836402 1  18F156F3x       Rx   d 8 00 00 00 00 00 00 00 00
 0.837055 1  CFF21CAx        Rx   d 8 03 00 80 0C 3F 3D 00 10
 0.837581 1  18F157F3x       Rx   d 8 00 00 00 00 00 00 00 00
 0.838695 1  18F158F3x       Rx   d 8 00 00 00 00 00 00 00 00
 0.839959 1  18F159F3x       Rx   d 8 00 00 00 00 00 00 00 00
 0.840640 1  18F15AF3x       Rx   d 8 00 00 00 00 00 00 00 00
 0.841669 1  18F15BF3x       Rx   d 7 00 00 00 00 00 00 00
 0.842317 1  18F15CF3x       Rx   d 8 00 00 00 00 00 00 00 00
 0.843356 1  18F15DF3x       Rx   d 8 00 00 00 00 00 00 00 00
 0.844123 1  18F15EF3x       Rx   d 8 00 00 00 00 00 00 00 00
 0.848489 1  CFF21CAx        Rx   d 8 02 00 80 0C 3F 3D 00 10
 0.856193 1  18F100D0x       Rx   d 8 0C FF FF FF FF FF FF FF
 0.860541 1  CFF21CAx        Rx   d 8 02 00 80 0C 3F 3D 00 10
 0.891911 1  CFF21CAx        Rx   d 8 02 00 80 0C 3F 3D 00 10
 0.892143 1  18F100D0x       Rx   d 8 0C FF FF FF FF FF FF FF
 0.892333 1  18FF2112x       Rx   d 8 01 00 00 00 00 00 00 00
 0.892577 1  CFF21CAx        Rx   d 8 01 00 80 0C 3F 3D 00 10
 0.896437 1  CFF21CAx        Rx   d 8 01 00 80 0C 3F 3D 00 10
 0.909242 1  CFF21CAx        Rx   d 8 01 00 80 0C 3F 3D 00 10
 0.909606 1  18F100D0x       Rx   d 8 0C FF FF FF FF FF FF FF
 0.920565 1  CFF21CAx        Rx   d 8 02 00 80 0C 3F 3D 00 10
 0.928514 1  18F100D0x       Rx   d 8 0C FF FF FF FF FF FF FF
 0.928999 1  18F100F3x       Rx   d 8 03 27 7D D9 E3 FA 14 00
 0.929854 1  18F102F3x       Rx   d 8 0F C9 0F C1 10 09 00 08
 0.931098 1  18F106F3x       Rx   d 8 45 E0 FC FF FF FF FF FF
 0.932341 1  18F107F3x       Rx   d 8 38 A4 27 10 01 6B 00 00
 0.932942 1  CFF21CAx        Rx   d 8 02 00 80 0C 3F 3D 00 10
 0.934124 1  18F108F3x       Rx   d 8 00 00 00 00 00 00 00 00
 0.934990 1  18F155F3x       Rx   d 8 35 33 33 33 33 36 35 00
 0.935880 1  18F156F3x       Rx   d 8 00 00 00 00 00 00 00 00
 0.936739 1  18F157F3x       Rx   d 8 00 00 00 00 00 00 00 00
 0.937691 1  18F158F3x       Rx   d 8 00 00 00 00 00 00 00 00
 0.938611 1  18F159F3x       Rx   d 8 00 00 00 00 00 00 00 00
 0.939787 1  18F15AF3x       Rx   d 8 00 00 00 00 00 00 00 00
 0.940607 1  18F15BF3x       Rx   d 7 00 00 00 00 00 00 00
 0.941497 1  18F15CF3x       Rx   d 8 00 00 00 00 00 00 00 00
 0.942391 1  18F15DF3x       Rx   d 8 00 00 00 00 00 00 00 00
 0.943301 1  18F15EF3x       Rx   d 8 00 00 00 00 00 00 00 00
 0.944648 1  CFF21CAx        Rx   d 8 02 00 80 0C 3F 3D 00 10
 0.948795 1  18F100D0x       Rx   d 8 0C FF FF FF FF FF FF FF
 0.956656 1  CFF21CAx        Rx   d 8 02 00 80 0C 3F 3D 00 10
 0.968795 1  CFF21CAx        Rx   d 8 02 00 80 0C 3F 3D 00 10
 0.973354 1  18F100D0x       Rx   d 8 0C FF FF FF FF FF FF FF
 0.980781 1  CFF21CAx        Rx   d 8 03 00 80 0C 3F 3D 00 10
 0.981383 1  18FF2112x       Rx   d 8 01 00 00 00 00 00 00 00
 0.992789 1  CFF21CAx        Rx   d 8 03 00 80 0C 3F 3D 00 10
 0.996771 1  18F100D0x       Rx   d 8 0C FF FF FF FF FF FF FF
 1.005622 1  CFF21CAx        Rx   d 8 02 00 80 0C 3F 3D 00 10
 1.017047 1  CFF21CAx        Rx   d 8 02 00 80 0C 3F 3D 00 10
 1.025035 1  18F100D0x       Rx   d 8 0C FF FF FF FF FF FF FF
 1.028983 1  18F100F3x       Rx   d 8 03 27 7D D8 E3 FA 14 00
 1.029382 1  CFF21CAx        Rx   d 8 02 00 80 0C 3F 3D 00 10
 1.029854 1  18F102F3x       Rx   d 8 0F C9 0F C1 10 09 00 08
 1.031351 1  18F106F3x       Rx   d 8 45 E0 FC FF FF FF FF FF
 1.032463 1  18F107F3x       Rx   d 8 38 A4 27 10 01 6B 00 00
 1.034248 1  18F108F3x       Rx   d 8 00 00 00 00 00 00 00 00
 1.035329 1  18F155F3x       Rx   d 8 35 33 33 33 33 36 35 00
 1.035936 1  18F156F3x       Rx   d 8 00 00 00 00 00 00 00 00
 1.037022 1  18F157F3x       Rx   d 8 00 00 00 00 00 00 00 00
 1.037726 1  18F158F3x       Rx   d 8 00 00 00 00 00 00 00 00
 1.038799 1  18F159F3x       Rx   d 8 00 00 00 00 00 00 00 00
 1.040000 1  18F15AF3x       Rx   d 8 00 00 00 00 00 00 00 00
 1.040742 1  18F15BF3x       Rx   d 7 00 00 00 00 00 00 00
 1.041205 1  CFF21CAx        Rx   d 8 02 00 80 0C 3F 3D 00 10
 1.041943 1  18F15CF3x       Rx   d 8 00 00 00 00 00 00 00 00
 1.042707 1  18F15DF3x       Rx   d 8 00 00 00 00 00 00 00 00
 1.043649 1  18F15EF3x       Rx   d 8 00 00 00 00 00 00 00 00
 1.049191 1  18F100D0x       Rx   d 8 0C FF FF FF FF FF FF FF
 1.053314 1  CFF21CAx        Rx   d 8 02 00 80 0C 3F 3D 00 10
 1.065334 1  CFF21CAx        Rx   d 8 02 00 80 0C 3F 3D 00 10
 1.073393 1  18F100D0x       Rx   d 8 0C FF FF FF FF FF FF FF
 1.077355 1  CFF21CAx        Rx   d 8 02 00 80 0C 3F 3D 00 10
 1.078620 1  18FF2112x       Rx   d 8 01 00 00 00 00 00 00 00
 1.089207 1  CFF21CAx        Rx   d 8 02 00 80 0C 3F 3D 00 10
 1.122424 1  18F100D0x       Rx   d 8 0C FF FF FF FF FF FF FF
 1.122652 1  CFF21CAx        Rx   d 8 02 00 80 0C 3F 3D 00 10
 1.122855 1  CFF21CAx        Rx   d 8 02 00 80 0C 3F 3D 00 10
 1.123061 1  18F100D0x       Rx   d 8 0C FF FF FF FF FF FF FF
 1.125429 1  CFF21CAx        Rx   d 8 02 00 80 0C 3F 3D 00 10
 1.128886 1  18F100F3x       Rx   d 8 03 27 7D D8 E3 FA 14 00
 1.129763 1  18F102F3x       Rx   d 8 0F C9 0F C1 10 09 00 08
 1.131235 1  18F106F3x       Rx   d 8 45 E0 FC FF FF FF FF FF
 1.132553 1  18F107F3x       Rx   d 8 38 A4 27 10 01 6B 00 00
 1.134201 1  18F108F3x       Rx   d 8 00 00 00 00 00 00 00 00
 1.135152 1  18F155F3x       Rx   d 8 35 33 33 33 33 36 35 00
 1.135875 1  18F156F3x       Rx   d 8 00 00 00 00 00 00 00 00
 1.136785 1  18F157F3x       Rx   d 8 00 00 00 00 00 00 00 00
 1.137503 1  CFF21CAx        Rx   d 8 02 00 80 0C 3F 3D 00 10
 1.137841 1  18F158F3x       Rx   d 8 00 00 00 00 00 00 00 00
 1.138771 1  18F159F3x       Rx   d 8 00 00 00 00 00 00 00 00
 1.139757 1  18F15AF3x       Rx   d 8 00 00 00 00 00 00 00 00
 1.140623 1  18F15BF3x       Rx   d 7 00 00 00 00 00 00 00
 1.141502 1  18F15CF3x       Rx   d 8 00 00 00 00 00 00 00 00
 1.142518 1  18F15DF3x       Rx   d 8 00 00 00 00 00 00 00 00
 1.143447 1  18F15EF3x       Rx   d 8 00 00 00 00 00 00 00 00
 1.149464 1  CFF21CAx        Rx   d 8 02 00 80 0C 3F 3D 00 10
 1.149999 1  18F100D0x       Rx   d 8 0C FF FF FF FF FF FF FF
 1.161340 1  CFF21CAx        Rx   d 8 02 00 80 0C 3F 3D 00 10
 1.173468 1  CFF21CAx        Rx   d 8 03 00 80 0C 3F 3D 00 10
 1.173945 1  18F100D0x       Rx   d 8 0C FF FF FF FF FF FF FF
 1.175757 1  18FF2112x       Rx   d 8 01 00 00 00 00 00 00 00
 1.185606 1  CFF21CAx        Rx   d 8 03 00 80 0C 3F 3D 00 10
 1.197724 1  CFF21CAx        Rx   d 8 03 00 80 0C 3F 3D 00 10
 1.198203 1  18F100D0x       Rx   d 8 0C FF FF FF FF FF FF FF
 1.209897 1  CFF21CAx        Rx   d 8 03 00 80 0C 3F 3D 00 10
 1.221728 1  CFF21CAx        Rx   d 8 03 00 80 0C 3F 3D 00 10
 1.222266 1  18F100D0x       Rx   d 8 0C FF FF FF FF FF FF FF
 1.229040 1  18F100F3x       Rx   d 8 03 27 7D D8 E3 FA 14 00
 1.229865 1  18F102F3x       Rx   d 8 0F C9 0F C1 10 09 00 08
 1.231312 1  18F106F3x       Rx   d 8 45 E0 FC FF FF FF FF FF
 1.232585 1  18F107F3x       Rx   d 8 38 A4 27 10 01 6B 00 00
 1.234025 1  CFF21CAx        Rx   d 8 03 00 80 0C 3F 3D 00 10
 1.234379 1  18F108F3x       Rx   d 8 00 00 00 00 00 00 00 00
 1.235212 1  18F155F3x       Rx   d 8 35 33 33 33 33 36 35 00
 1.236187 1  18F156F3x       Rx   d 8 00 00 00 00 00 00 00 00
 1.237063 1  18F157F3x       Rx   d 8 00 00 00 00 00 00 00 00
 1.237972 1  18F158F3x       Rx   d 8 00 00 00 00 00 00 00 00
 1.238846 1  18F159F3x       Rx   d 8 00 00 00 00 00 00 00 00
 1.240074 1  18F15AF3x       Rx   d 8 00 00 00 00 00 00 00 00
 1.240781 1  18F15BF3x       Rx   d 7 00 00 00 00 00 00 00
 1.241628 1  18F15CF3x       Rx   d 8 00 00 00 00 00 00 00 00
 1.242634 1  18F15DF3x       Rx   d 8 00 00 00 00 00 00 00 00
 1.243785 1  18F15EF3x       Rx   d 8 00 00 00 00 00 00 00 00
 1.245828 1  CFF21CAx        Rx   d 8 03 00 80 0C 3F 3D 00 10
 1.246375 1  18F100D0x       Rx   d 8 0C FF FF FF FF FF FF FF
 1.257950 1  CFF21CAx        Rx   d 8 03 00 80 0C 3F 3D 00 10
 1.270286 1  CFF21CAx        Rx   d 8 03 00 80 0C 3F 3D 00 10
 1.270813 1  18F100D0x       Rx   d 8 0C FF FF FF FF FF FF FF
 1.273489 1  18FF2112x       Rx   d 8 01 00 00 00 00 00 00 00
 1.282279 1  CFF21CAx        Rx   d 8 03 00 80 0C 3F 3D 00 10
 1.294046 1  CFF21CAx        Rx   d 8 03 00 80 0C 3F 3D 00 10
 1.298181 1  18F100D0x       Rx   d 8 0C FF FF FF FF FF FF FF
 1.306306 1  CFF21CAx        Rx   d 8 03 00 80 0C 3F 3D 00 10
 1.318474 1  CFF21CAx        Rx   d 8 03 00 80 0C 3F 3D 00 10
 1.322146 1  18F100D0x       Rx   d 8 0C FF FF FF FF FF FF FF
 1.355292 1  18F100F3x       Rx   d 8 03 27 7D DA E3 FA 14 00
 1.355567 1  18F102F3x       Rx   d 8 0F C9 0F C1 10 09 00 08
 1.355788 1  CFF21CAx        Rx   d 8 03 00 80 0C 3F 3D 00 10
 1.355991 1  18F106F3x       Rx   d 8 45 E0 FC FF FF FF FF FF
 1.356240 1  18F107F3x       Rx   d 8 38 A4 27 10 01 6B 00 00
 1.356449 1  18F108F3x       Rx   d 8 00 00 00 00 00 00 00 00
 1.356644 1  18F155F3x       Rx   d 8 35 33 33 33 33 36 35 00
 1.356840 1  18F156F3x       Rx   d 8 00 00 00 00 00 00 00 00
 1.357071 1  18F157F3x       Rx   d 8 00 00 00 00 00 00 00 00
 1.357282 1  18F158F3x       Rx   d 8 00 00 00 00 00 00 00 00
 1.357478 1  18F159F3x       Rx   d 8 00 00 00 00 00 00 00 00
 1.357671 1  18F15AF3x       Rx   d 8 00 00 00 00 00 00 00 00
 1.357849 1  18F15BF3x       Rx   d 7 00 00 00 00 00 00 00
 1.358047 1  18F15CF3x       Rx   d 8 00 00 00 00 00 00 00 00
 1.358230 1  CFF21CAx        Rx   d 8 03 00 80 0C 3F 3D 00 10
 1.358415 1  18F15DF3x       Rx   d 8 00 00 00 00 00 00 00 00
 1.358596 1  18F15EF3x       Rx   d 8 00 00 00 00 00 00 00 00
 1.358785 1  18F100D0x       Rx   d 8 0C FF FF FF FF FF FF FF
 1.358978 1  CFF21CAx        Rx   d 8 03 00 80 0C 3F 3D 00 10
 1.366360 1  CFF21CAx        Rx   d 8 04 00 80 0C 3F 3D 00 10
 1.370553 1  18F100D0x       Rx   d 8 0C FF FF FF FF FF FF FF
 1.370905 1  18FF2112x       Rx   d 8 01 00 00 00 00 00 00 00
 1.378655 1  CFF21CAx        Rx   d 8 04 00 80 0C 3F 3D 00 10
 1.389254 1  18F104F3x       Rx   d 8 36 33 06 02 03 FF FF FF
 1.390041 1  18F113F3x       Rx   d 8 0F C4 0F C3 0F C3 0F C4
 1.390621 1  CFF21CAx        Rx   d 8 04 00 80 0C 3F 3D 00 10
 1.391185 1  18F114F3x       Rx   d 8 0F C2 0F C2 0F C4 0F C3
 1.392097 1  18F115F3x       Rx   d 8 0F C1 0F C1 0F C1 0F C1
 1.392994 1  18F116F3x       Rx   d 8 0F C6 0F C4 0F C6 0F C9
 1.393878 1  18F117F3x       Rx   d 8 0F C4 0F C4 0F C8 0F C7
 1.394459 1  18F100D0x       Rx   d 8 0C FF FF FF FF FF FF FF
 1.395036 1  18F118F3x       Rx   d 8 00 00 00 00 00 00 00 00
 1.395916 1  18F119F3x       Rx   d 8 00 00 00 00 00 00 00 00
 1.396856 1  18F11AF3x       Rx   d 8 00 00 00 00 00 00 00 00
 1.397764 1  18F11BF3x       Rx   d 8 00 00 00 00 00 00 00 00
 1.398681 1  18F11CF3x       Rx   d 8 00 00 00 00 00 00 00 00
 1.399783 1  18F11DF3x       Rx   d 8 00 00 00 00 00 00 00 00
 1.400753 1  18F11EF3x       Rx   d 8 00 00 00 00 00 00 00 00
 1.401614 1  18F11FF3x       Rx   d 8 00 00 00 00 00 00 00 00
 1.402396 1  CFF21CAx        Rx   d 8 03 00 80 0C 3F 3D 00 10
 1.402921 1  18F120F3x       Rx   d 8 00 00 00 00 00 00 00 00
 1.403826 1  18F121F3x       Rx   d 8 00 00 00 00 00 00 00 00
 1.404708 1  18F122F3x       Rx   d 8 00 00 00 00 00 00 00 00
 1.405614 1  18F123F3x       Rx   d 8 00 00 00 00 00 00 00 00
 1.406551 1  18F124F3x       Rx   d 8 00 00 00 00 00 00 00 00
 1.407561 1  18F125F3x       Rx   d 8 00 00 00 00 00 00 00 00
 1.408504 1  18F126F3x       Rx   d 8 00 00 00 00 00 00 00 00
 1.409783 1  18F127F3x       Rx   d 8 00 00 00 00 00 00 00 00
 1.410628 1  18F128F3x       Rx   d 8 00 00 00 00 00 00 00 00
 1.411656 1  18F129F3x       Rx   d 8 00 00 00 00 00 00 00 00
 1.412516 1  18F12AF3x       Rx   d 8 00 00 00 00 00 00 00 00
 1.413443 1  18F12BF3x       Rx   d 8 00 00 00 00 00 00 00 00
 1.414289 1  CFF21CAx        Rx   d 8 03 00 80 0C 3F 3D 00 10
 1.414898 1  18F12CF3x       Rx   d 8 00 00 00 00 00 00 00 00
 1.415735 1  18F12DF3x       Rx   d 8 00 00 00 00 00 00 00 00
 1.416626 1  18F12EF3x       Rx   d 8 00 00 00 00 00 00 00 00
 1.417530 1  18F12FF3x       Rx   d 8 00 00 00 00 00 00 00 00
 1.418373 1  18F100D0x       Rx   d 8 0C FF FF FF FF FF FF FF
 1.418871 1  18F130F3x       Rx   d 8 00 00 00 00 00 00 00 00
 1.419747 1  18F131F3x       Rx   d 8 00 00 00 00 00 00 00 00
 1.420620 1  18F132F3x       Rx   d 8 00 00 00 00 00 00 00 00
 1.421425 1  18F133F3x       Rx   d 8 00 00 00 00 00 00 00 00
 1.423206 1  18F134F3x       Rx   d 8 00 00 00 00 00 00 00 00
 1.423395 1  18F135F3x       Rx   d 8 00 00 00 00 00 00 00 00
 1.424149 1  18F136F3x       Rx   d 8 00 00 00 00 00 00 00 00
 1.425027 1  18F137F3x       Rx   d 8 00 00 00 00 00 00 00 00
 1.425876 1  18F138F3x       Rx   d 8 00 00 00 00 00 00 00 00
 1.426482 1  CFF21CAx        Rx   d 8 03 00 80 0C 3F 3D 00 10
 1.427016 1  18F139F3x       Rx   d 8 00 00 00 00 00 00 00 00
 1.427845 1  18F13AF3x       Rx   d 8 00 00 00 00 00 00 00 00
 1.428698 1  18F100F3x       Rx   d 8 03 27 7D DA E3 FA 14 00
 1.429659 1  18F102F3x       Rx   d 8 0F C9 0F C1 10 09 00 08
 1.430943 1  18F106F3x       Rx   d 8 45 E0 FC FF FF FF FF FF
 1.432190 1  18F107F3x       Rx   d 8 38 A4 27 10 01 6B 00 00
 1.434017 1  18F108F3x       Rx   d 8 00 00 00 00 00 00 00 00
 1.434896 1  18F13BF3x       Rx   d 8 00 00 00 00 00 00 00 00
 1.435939 1  18F13CF3x       Rx   d 8 00 00 00 00 00 00 00 00
 1.436974 1  18F155F3x       Rx   d 8 35 33 33 33 33 36 35 00
 1.437597 1  18F156F3x       Rx   d 8 00 00 00 00 00 00 00 00
 1.438494 1  CFF21CAx        Rx   d 8 03 00 80 0C 3F 3D 00 10
 1.439124 1  18F157F3x       Rx   d 8 00 00 00 00 00 00 00 00
 1.439648 1  18FECACAx       Rx   d 8 00 00 00 00 00 00 FF FF
 1.440232 1  18F158F3x       Rx   d 8 00 00 00 00 00 00 00 00
 1.441096 1  18F159F3x       Rx   d 8 00 00 00 00 00 00 00 00
 1.441962 1  18F15AF3x       Rx   d 8 00 00 00 00 00 00 00 00
 1.442800 1  18F15BF3x       Rx   d 7 00 00 00 00 00 00 00
 1.443606 1  18F15CF3x       Rx   d 8 00 00 00 00 00 00 00 00
 1.444611 1  18F15DF3x       Rx   d 8 00 00 00 00 00 00 00 00
 1.445417 1  18F15EF3x       Rx   d 8 00 00 00 00 00 00 00 00
 1.446647 1  18F100D0x       Rx   d 8 0C FF FF FF FF FF FF FF
 1.450847 1  CFF21CAx        Rx   d 8 03 00 80 0C 3F 3D 00 10
 1.462885 1  CFF21CAx        Rx   d 8 03 00 80 0C 3F 3D 00 10
 1.467706 1  18FF2112x       Rx   d 8 01 00 00 00 00 00 00 00
 1.474785 1  CFF21CAx        Rx   d 8 03 00 80 0C 3F 3D 00 10
 1.475318 1  18F100D0x       Rx   d 8 0C FF FF FF FF FF FF FF
 1.486800 1  CFF21CAx        Rx   d 8 03 00 80 0C 3F 3D 00 10
 1.498877 1  CFF21CAx        Rx   d 8 03 00 80 0C 3F 3D 00 10
 1.499406 1  18F100D0x       Rx   d 8 0C FF FF FF FF FF FF FF
 1.510890 1  CFF21CAx        Rx   d 8 03 00 80 0C 3F 3D 00 10
 1.522894 1  CFF21CAx        Rx   d 8 02 00 80 0C 3F 3D 00 10
 1.523488 1  18F100D0x       Rx   d 8 0C FF FF FF FF FF FF FF
 1.529028 1  18F100F3x       Rx   d 8 03 27 7D D9 E3 FA 14 00
 1.530169 1  18F102F3x       Rx   d 8 0F C9 0F C1 10 09 00 08
 1.531175 1  18F106F3x       Rx   d 8 45 E0 FC FF FF FF FF FF
 1.532625 1  18F107F3x       Rx   d 8 38 A4 27 10 01 6B 00 00
 1.534383 1  18F108F3x       Rx   d 8 00 00 00 00 00 00 00 00
 1.534994 1  CFF21CAx        Rx   d 8 02 00 80 0C 3F 3D 00 10
 1.535572 1  18F155F3x       Rx   d 8 35 33 33 33 33 36 35 00
 1.536548 1  18F156F3x       Rx   d 8 00 00 00 00 00 00 00 00
 1.537554 1  18F157F3x       Rx   d 8 00 00 00 00 00 00 00 00
 1.538312 1  18F158F3x       Rx   d 8 00 00 00 00 00 00 00 00
 1.539112 1  18F159F3x       Rx   d 8 00 00 00 00 00 00 00 00
 1.540161 1  18F15AF3x       Rx   d 8 00 00 00 00 00 00 00 00
 1.541011 1  18F15BF3x       Rx   d 7 00 00 00 00 00 00 00
 1.541798 1  18F15CF3x       Rx   d 8 00 00 00 00 00 00 00 00
 1.542745 1  18F15DF3x       Rx   d 8 00 00 00 00 00 00 00 00
 1.543617 1  18F15EF3x       Rx   d 8 00 00 00 00 00 00 00 00
 1.547034 1  CFF21CAx        Rx   d 8 02 00 80 0C 3F 3D 00 10
 1.547625 1  18F100D0x       Rx   d 8 0C FF FF FF FF FF FF FF
 1.559289 1  CFF21CAx        Rx   d 8 03 00 80 0C 3F 3D 00 10
 1.586772 1  18FF2112x       Rx   d 8 01 00 00 00 00 00 00 00
 1.586972 1  CFF21CAx        Rx   d 8 03 00 80 0C 3F 3D 00 10
 1.587161 1  18F100D0x       Rx   d 8 0C FF FF FF FF FF FF FF
 1.587391 1  CFF21CAx        Rx   d 8 03 00 80 0C 3F 3D 00 10
 1.595151 1  CFF21CAx        Rx   d 8 03 00 80 0C 3F 3D 00 10
 1.595791 1  18F100D0x       Rx   d 8 0C FF FF FF FF FF FF FF
 1.607465 1  CFF21CAx        Rx   d 8 03 00 80 0C 3F 3D 00 10
 1.619413 1  CFF21CAx        Rx   d 8 03 00 80 0C 3F 3D 00 10
 1.619913 1  18F100D0x       Rx   d 8 0C FF FF FF FF FF FF FF
 1.628612 1  18F100F3x       Rx   d 8 03 27 7D D9 E3 FA 14 00
 1.629718 1  18F102F3x       Rx   d 8 0F C9 0F C0 10 0C 00 09
 1.630965 1  18F106F3x       Rx   d 8 45 E0 FC FF FF FF FF FF
 1.631516 1  CFF21CAx        Rx   d 8 03 00 80 0C 3F 3D 00 10
 1.632288 1  18F107F3x       Rx   d 8 38 A4 27 10 01 6B 00 00
 1.634097 1  18F108F3x       Rx   d 8 00 00 00 00 00 00 00 00
 1.634903 1  18F155F3x       Rx   d 8 35 33 33 33 33 36 35 00
 1.635827 1  18F156F3x       Rx   d 8 00 00 00 00 00 00 00 00
 1.636701 1  18F157F3x       Rx   d 8 00 00 00 00 00 00 00 00
 1.637538 1  18F158F3x       Rx   d 8 00 00 00 00 00 00 00 00
 1.638487 1  18F159F3x       Rx   d 8 00 00 00 00 00 00 00 00
 1.639689 1  18F15AF3x       Rx   d 8 00 00 00 00 00 00 00 00
 1.640420 1  18F15BF3x       Rx   d 7 00 00 00 00 00 00 00
 1.641353 1  18F15CF3x       Rx   d 8 00 00 00 00 00 00 00 00
 1.642259 1  18F15DF3x       Rx   d 8 00 00 00 00 00 00 00 00
 1.643119 1  18F15EF3x       Rx   d 8 00 00 00 00 00 00 00 00
 1.643689 1  CFF21CAx        Rx   d 8 03 00 80 0C 3F 3D 00 10
 1.644242 1  18F100D0x       Rx   d 8 0C FF FF FF FF FF FF FF
 1.655340 1  CFF21CAx        Rx   d 8 02 00 80 0C 3F 3D 00 10
 1.662148 1  18FF2112x       Rx   d 8 01 00 00 00 00 00 00 00
 1.667800 1  CFF21CAx        Rx   d 8 02 00 80 0C 3F 3D 00 10
 1.672079 1  18F100D0x       Rx   d 8 0C FF FF FF FF FF FF FF
 1.679995 1  CFF21CAx        Rx   d 8 02 00 80 0C 3F 3D 00 10
 1.691862 1  CFF21CAx        Rx   d 8 02 00 80 0C 3F 3D 00 10
 1.695866 1  18F100D0x       Rx   d 8 0C FF FF FF FF FF FF FF
 1.704001 1  CFF21CAx        Rx   d 8 02 00 80 0C 3F 3D 00 10
 1.715922 1  CFF21CAx        Rx   d 8 02 00 80 0C 3F 3D 00 10
 1.719880 1  18F100D0x       Rx   d 8 0C FF FF FF FF FF FF FF
 1.727842 1  CFF21CAx        Rx   d 8 03 00 80 0C 3F 3D 00 10
 1.729060 1  18F100F3x       Rx   d 8 03 27 7D D9 E3 FA 14 00
 1.730098 1  18F102F3x       Rx   d 8 0F C9 0F C0 10 0C 00 09
 1.731085 1  18F106F3x       Rx   d 8 45 E0 FC FF FF FF FF FF
 1.732587 1  18F107F3x       Rx   d 8 38 A4 27 10 01 6B 00 00
 1.734226 1  18F108F3x       Rx   d 8 00 00 00 00 00 00 00 00
 1.735319 1  18F155F3x       Rx   d 8 35 33 33 33 33 36 35 00
 1.736030 1  18F156F3x       Rx   d 8 00 00 00 00 00 00 00 00
 1.737100 1  18F157F3x       Rx   d 8 00 00 00 00 00 00 00 00
 1.738047 1  18F158F3x       Rx   d 8 00 00 00 00 00 00 00 00
 1.738712 1  18F159F3x       Rx   d 8 00 00 00 00 00 00 00 00
 1.740162 1  18F15AF3x       Rx   d 8 00 00 00 00 00 00 00 00
 1.740525 1  CFF21CAx        Rx   d 8 03 00 80 0C 3F 3D 00 10
 1.741135 1  18F15BF3x       Rx   d 7 00 00 00 00 00 00 00
 1.741915 1  18F15CF3x       Rx   d 8 00 00 00 00 00 00 00 00
 1.742882 1  18F15DF3x       Rx   d 8 00 00 00 00 00 00 00 00
 1.743895 1  18F15EF3x       Rx   d 8 00 00 00 00 00 00 00 00
 1.744267 1  18F100D0x       Rx   d 8 0C FF FF FF FF FF FF FF
 1.752003 1  CFF21CAx        Rx   d 8 03 00 80 0C 3F 3D 00 10
 1.759823 1  18FF2112x       Rx   d 8 01 00 00 00 00 00 00 00
 1.764436 1  CFF21CAx        Rx   d 8 03 00 80 0C 3F 3D 00 10
 1.768001 1  18F100D0x       Rx   d 8 0C FF FF FF FF FF FF FF
 1.776162 1  CFF21CAx        Rx   d 8 03 00 80 0C 3F 3D 00 10
 1.788070 1  CFF21CAx        Rx   d 8 03 00 80 0C 3F 3D 00 10
 1.818577 1  18F100D0x       Rx   d 8 0C FF FF FF FF FF FF FF
 1.818795 1  CFF21CAx        Rx   d 8 03 00 80 0C 3F 3D 00 10
 1.819006 1  CFF21CAx        Rx   d 8 03 00 80 0C 3F 3D 00 10
 1.819976 1  18F100D0x       Rx   d 8 0C FF FF FF FF FF FF FF
 1.824071 1  CFF21CAx        Rx   d 8 03 00 80 0C 3F 3D 00 10
 1.829371 1  18F100F3x       Rx   d 8 03 27 7D D9 E3 FA 14 00
 1.829805 1  18F102F3x       Rx   d 8 0F C9 0F C0 10 0C 00 09
 1.831322 1  18F106F3x       Rx   d 8 45 E0 FC FF FF FF FF FF
 1.832436 1  18F107F3x       Rx   d 8 38 A4 27 10 01 6B 00 00
 1.834207 1  18F108F3x       Rx   d 8 00 00 00 00 00 00 00 00
 1.835235 1  18F155F3x       Rx   d 8 35 33 33 33 33 36 35 00
 1.835952 1  18F156F3x       Rx   d 8 00 00 00 00 00 00 00 00
 1.836640 1  CFF21CAx        Rx   d 8 03 00 80 0C 3F 3D 00 10
 1.837236 1  18F157F3x       Rx   d 8 00 00 00 00 00 00 00 00
 1.838282 1  18F158F3x       Rx   d 8 00 00 00 00 00 00 00 00
 1.839030 1  18F159F3x       Rx   d 8 00 00 00 00 00 00 00 00
 1.839996 1  18F15AF3x       Rx   d 8 00 00 00 00 00 00 00 00
 1.840740 1  18F15BF3x       Rx   d 7 00 00 00 00 00 00 00
 1.841760 1  18F15CF3x       Rx   d 8 00 00 00 00 00 00 00 00
 1.842590 1  18F15DF3x       Rx   d 8 00 00 00 00 00 00 00 00
 1.843521 1  18F15EF3x       Rx   d 8 00 00 00 00 00 00 00 00
 1.844321 1  18F100D0x       Rx   d 8 0C FF FF FF FF FF FF FF
 1.848304 1  CFF21CAx        Rx   d 8 03 00 80 0C 3F 3D 00 10
 1.856856 1  18FF2112x       Rx   d 8 01 00 00 00 00 00 00 00
 1.860170 1  CFF21CAx        Rx   d 8 03 00 80 0C 3F 3D 00 10
 1.868410 1  18F100D0x       Rx   d 8 0C FF FF FF FF FF FF FF
 1.872190 1  CFF21CAx        Rx   d 8 03 00 80 0C 3F 3D 00 10
 1.884397 1  CFF21CAx        Rx   d 8 03 00 80 0C 3F 3D 00 10
 1.893025 1  18F100D0x       Rx   d 8 0C FF FF FF FF FF FF FF
 1.896465 1  CFF21CAx        Rx   d 8 03 00 80 0C 3F 3D 00 10
 1.908713 1  CFF21CAx        Rx   d 8 03 00 80 0C 3F 3D 00 10
 1.920685 1  CFF21CAx        Rx   d 8 03 00 80 0C 3F 3D 00 10
 1.921039 1  18F100D0x       Rx   d 8 0C FF FF FF FF FF FF FF
 1.929011 1  18F100F3x       Rx   d 8 03 27 7D D9 E3 FA 14 00
 1.930144 1  18F102F3x       Rx   d 8 0F C9 0F C0 10 0C 00 09
 1.931378 1  18F106F3x       Rx   d 8 45 E0 FC FF FF FF FF FF
 1.932636 1  18F107F3x       Rx   d 8 38 A4 27 10 01 6B 00 00
 1.933002 1  CFF21CAx        Rx   d 8 03 00 80 0C 3F 3D 00 10
 1.934363 1  18F108F3x       Rx   d 8 00 00 00 00 00 00 00 00
 1.935220 1  18F155F3x       Rx   d 8 35 33 33 33 33 36 35 00
 1.936038 1  18F156F3x       Rx   d 8 00 00 00 00 00 00 00 00
 1.936877 1  18F157F3x       Rx   d 8 00 00 00 00 00 00 00 00
 1.937810 1  18F158F3x       Rx   d 8 00 00 00 00 00 00 00 00
 1.938707 1  18F159F3x       Rx   d 8 00 00 00 00 00 00 00 00
 1.940032 1  18F15AF3x       Rx   d 8 00 00 00 00 00 00 00 00
 1.940734 1  18F15BF3x       Rx   d 7 00 00 00 00 00 00 00
 1.941729 1  18F15CF3x       Rx   d 8 00 00 00 00 00 00 00 00
 1.942475 1  18F15DF3x       Rx   d 8 00 00 00 00 00 00 00 00
 1.943515 1  18F15EF3x       Rx   d 8 00 00 00 00 00 00 00 00
 1.944718 1  CFF21CAx        Rx   d 8 04 00 80 0C 3F 3D 00 10
 1.945139 1  18F100D0x       Rx   d 8 0C FF FF FF FF FF FF FF
 1.954066 1  18FF2112x       Rx   d 8 01 00 00 00 00 00 00 00
 1.957164 1  CFF21CAx        Rx   d 8 04 00 80 0C 3F 3D 00 10
 1.968933 1  CFF21CAx        Rx   d 8 04 00 80 0C 3F 3D 00 10
 1.969282 1  18F100D0x       Rx   d 8 0C FF FF FF FF FF FF FF
 1.981028 1  CFF21CAx        Rx   d 8 03 00 80 0C 3F 3D 00 10
 1.992969 1  CFF21CAx        Rx   d 8 03 00 80 0C 3F 3D 00 10
 1.993321 1  18F100D0x       Rx   d 8 0C FF FF FF FF FF FF FF
 2.005111 1  CFF21CAx        Rx   d 8 03 00 80 0C 3F 3D 00 10
 2.017306 1  CFF21CAx        Rx   d 8 02 00 80 0C 3F 3D 00 10
 2.017840 1  18F100D0x       Rx   d 8 0C FF FF FF FF FF FF FF
 2.048014 1  18F100F3x       Rx   d 8 03 27 7D D8 E3 FA 14 00
 2.048237 1  CFF21CAx        Rx   d 8 02 00 80 0C 3F 3D 00 10
 2.048436 1  18F102F3x       Rx   d 8 0F C9 0F C0 10 0C 00 09
 2.048639 1  18F106F3x       Rx   d 8 45 E0 FC FF FF FF FF FF
 2.048968 1  18F107F3x       Rx   d 8 38 A4 27 10 01 6B 00 00
 2.049179 1  18F108F3x       Rx   d 8 00 00 00 00 00 00 00 00
 2.049373 1  18F155F3x       Rx   d 8 35 33 33 33 33 36 35 00
 2.049566 1  18F156F3x       Rx   d 8 00 00 00 00 00 00 00 00
 2.049753 1  18F157F3x       Rx   d 8 00 00 00 00 00 00 00 00
 2.049950 1  18F158F3x       Rx   d 8 00 00 00 00 00 00 00 00
 2.050130 1  18F159F3x       Rx   d 8 00 00 00 00 00 00 00 00
 2.050351 1  18F15AF3x       Rx   d 8 00 00 00 00 00 00 00 00
 2.050544 1  18F15BF3x       Rx   d 7 00 00 00 00 00 00 00
 2.050732 1  CFF21CAx        Rx   d 8 03 00 80 0C 3F 3D 00 10
 2.050947 1  18F15CF3x       Rx   d 8 00 00 00 00 00 00 00 00
 2.051125 1  18F15DF3x       Rx   d 8 00 00 00 00 00 00 00 00
 2.051301 1  18F15EF3x       Rx   d 8 00 00 00 00 00 00 00 00
 2.051477 1  18F100D0x       Rx   d 8 0C FF FF FF FF FF FF FF
 2.051651 1  18FF2112x       Rx   d 8 01 00 00 00 00 00 00 00
 2.052993 1  CFF21CAx        Rx   d 8 03 00 80 0C 3F 3D 00 10
 2.065215 1  CFF21CAx        Rx   d 8 02 00 80 0C 3F 3D 00 10
 2.069173 1  18F100D0x       Rx   d 8 0C FF FF FF FF FF FF FF
 2.077340 1  CFF21CAx        Rx   d 8 02 00 80 0C 3F 3D 00 10
 2.089091 1  CFF21CAx        Rx   d 8 02 00 80 0C 3F 3D 00 10
 2.093173 1  18F100D0x       Rx   d 8 0C FF FF FF FF FF FF FF
 2.101289 1  CFF21CAx        Rx   d 8 02 00 80 0C 3F 3D 00 10
 2.113283 1  CFF21CAx        Rx   d 8 02 00 80 0C 3F 3D 00 10
 2.117594 1  18F100D0x       Rx   d 8 0C FF FF FF FF FF FF FF
 2.125758 1  CFF21CAx        Rx   d 8 02 00 80 0C 3F 3D 00 10
 2.128860 1  18F100F3x       Rx   d 8 03 27 7D D8 E3 FA 14 00
 2.130088 1  18F102F3x       Rx   d 8 0F C9 0F C0 10 0C 00 09
 2.131107 1  18F106F3x       Rx   d 8 45 E0 FC FF FF FF FF FF
 2.132666 1  18F107F3x       Rx   d 8 38 A4 27 10 01 6B 00 00
 2.134382 1  18F108F3x       Rx   d 8 00 00 00 00 00 00 00 00
 2.135143 1  18F155F3x       Rx   d 8 35 33 33 33 33 36 35 00
 2.135919 1  18F156F3x       Rx   d 8 00 00 00 00 00 00 00 00
 2.136928 1  18F157F3x       Rx   d 8 00 00 00 00 00 00 00 00
 2.137349 1  CFF21CAx        Rx   d 8 02 00 80 0C 3F 3D 00 10
 2.138035 1  18F158F3x       Rx   d 8 00 00 00 00 00 00 00 00
 2.139024 1  18F159F3x       Rx   d 8 00 00 00 00 00 00 00 00
 2.139979 1  18F15AF3x       Rx   d 8 00 00 00 00 00 00 00 00
 2.140800 1  18F15BF3x       Rx   d 7 00 00 00 00 00 00 00
 2.141368 1  18F100D0x       Rx   d 8 0C FF FF FF FF FF FF FF
 2.142013 1  18F15CF3x       Rx   d 8 00 00 00 00 00 00 00 00
 2.142841 1  18F15DF3x       Rx   d 8 00 00 00 00 00 00 00 00
 2.143774 1  18F15EF3x       Rx   d 8 00 00 00 00 00 00 00 00
 2.148757 1  18FF2112x       Rx   d 8 01 00 00 00 00 00 00 00
 2.149584 1  CFF21CAx        Rx   d 8 02 00 80 0C 3F 3D 00 10
 2.161591 1  CFF21CAx        Rx   d 8 02 00 80 0C 3F 3D 00 10
 2.165684 1  18F100D0x       Rx   d 8 0C FF FF FF FF FF FF FF
 2.173830 1  CFF21CAx        Rx   d 8 02 00 80 0C 3F 3D 00 10
 2.185947 1  CFF21CAx        Rx   d 8 02 00 80 0C 3F 3D 00 10
 2.193830 1  18F100D0x       Rx   d 8 0C FF FF FF FF FF FF FF
 2.197792 1  CFF21CAx        Rx   d 8 02 00 80 0C 3F 3D 00 10
 2.209923 1  CFF21CAx        Rx   d 8 02 00 80 0C 3F 3D 00 10
 2.217923 1  18F100D0x       Rx   d 8 0C FF FF FF FF FF FF FF
 2.221761 1  CFF21CAx        Rx   d 8 02 00 80 0C 3F 3D 00 10
 2.228900 1  18F100F3x       Rx   d 8 03 27 7D D8 E3 FA 14 00
 2.230063 1  18F102F3x       Rx   d 8 0F C9 0F C0 10 0C 00 09
 2.231334 1  18F106F3x       Rx   d 8 45 E0 FC FF FF FF FF FF
 2.232399 1  18F107F3x       Rx   d 8 38 A4 27 10 01 6B 00 00
 2.233855 1  CFF21CAx        Rx   d 8 02 00 80 0C 3F 3D 00 10
 2.234409 1  18F108F3x       Rx   d 8 00 00 00 00 00 00 00 00
 2.235395 1  18F155F3x       Rx   d 8 35 33 33 33 33 36 35 00
 2.236083 1  18F156F3x       Rx   d 8 00 00 00 00 00 00 00 00
 2.237172 1  18F157F3x       Rx   d 8 00 00 00 00 00 00 00 00
 2.237915 1  18F158F3x       Rx   d 8 00 00 00 00 00 00 00 00
 2.238909 1  18F159F3x       Rx   d 8 00 00 00 00 00 00 00 00
 2.240103 1  18F15AF3x       Rx   d 8 00 00 00 00 00 00 00 00
 2.240707 1  18F15BF3x       Rx   d 7 00 00 00 00 00 00 00
 2.241911 1  18F15CF3x       Rx   d 8 00 00 00 00 00 00 00 00
 2.242344 1  18F100D0x       Rx   d 8 0C FF FF FF FF FF FF FF
 2.242794 1  18F15DF3x       Rx   d 8 00 00 00 00 00 00 00 00
 2.243882 1  18F15EF3x       Rx   d 8 00 00 00 00 00 00 00 00
 2.245888 1  18FF2112x       Rx   d 8 01 00 00 00 00 00 00 00
 2.246367 1  CFF21CAx        Rx   d 8 02 00 80 0C 3F 3D 00 10
 2.280409 1  CFF21CAx        Rx   d 8 02 00 80 0C 3F 3D 00 10
 2.280611 1  18F100D0x       Rx   d 8 0C FF FF FF FF FF FF FF
 2.280867 1  CFF21CAx        Rx   d 8 02 00 80 0C 3F 3D 00 10
 2.281847 1  CFF21CAx        Rx   d 8 02 00 80 0C 3F 3D 00 10
 2.290019 1  18F100D0x       Rx   d 8 0C FF FF FF FF FF FF FF
 2.294054 1  CFF21CAx        Rx   d 8 02 00 80 0C 3F 3D 00 10
 2.306218 1  CFF21CAx        Rx   d 8 02 00 80 0C 3F 3D 00 10
 2.314528 1  18F100D0x       Rx   d 8 0C FF FF FF FF FF FF FF
 2.318005 1  CFF21CAx        Rx   d 8 02 00 80 0C 3F 3D 00 10
 2.328726 1  18F100F3x       Rx   d 8 03 27 7D D9 E3 FA 14 00
 2.329782 1  18F102F3x       Rx   d 8 0F C9 0F C0 10 0C 00 09
 2.330352 1  CFF21CAx        Rx   d 8 02 00 80 0C 3F 3D 00 10
 2.331006 1  18F106F3x       Rx   d 8 45 E0 FC FF FF FF FF FF
 2.332314 1  18F107F3x       Rx   d 8 38 A4 27 10 01 6B 00 00
 2.334147 1  18F108F3x       Rx   d 8 00 00 00 00 00 00 00 00
 2.335182 1  18F155F3x       Rx   d 8 35 33 33 33 33 36 35 00
 2.335857 1  18F156F3x       Rx   d 8 00 00 00 00 00 00 00 00
 2.336669 1  18F157F3x       Rx   d 8 00 00 00 00 00 00 00 00
 2.337550 1  18F158F3x       Rx   d 8 00 00 00 00 00 00 00 00
 2.338107 1  18F100D0x       Rx   d 8 0C FF FF FF FF FF FF FF
 2.338709 1  18F159F3x       Rx   d 8 00 00 00 00 00 00 00 00
 2.339732 1  18F15AF3x       Rx   d 8 00 00 00 00 00 00 00 00
 2.340544 1  18F15BF3x       Rx   d 7 00 00 00 00 00 00 00
 2.341466 1  18F15CF3x       Rx   d 8 00 00 00 00 00 00 00 00
 2.342020 1  CFF21CAx        Rx   d 8 02 00 80 0C 3F 3D 00 10
 2.342608 1  18F15DF3x       Rx   d 8 00 00 00 00 00 00 00 00
 2.343184 1  18FF2112x       Rx   d 8 01 00 00 00 00 00 00 00
 2.343746 1  18F15EF3x       Rx   d 8 00 00 00 00 00 00 00 00
 2.354226 1  CFF21CAx        Rx   d 8 02 00 80 0C 3F 3D 00 10
 2.366307 1  CFF21CAx        Rx   d 8 02 00 80 0C 3F 3D 00 10
 2.366895 1  18F100D0x       Rx   d 8 0C FF FF FF FF FF FF FF
 2.378682 1  CFF21CAx        Rx   d 8 02 00 80 0C 3F 3D 00 10
 2.389298 1  18F104F3x       Rx   d 8 36 33 06 02 03 FF FF FF
 2.390184 1  18F113F3x       Rx   d 8 0F C4 0F C3 0F C2 0F C4
 2.390708 1  CFF21CAx        Rx   d 8 02 00 80 0C 3F 3D 00 10
 2.391334 1  18F100D0x       Rx   d 8 0C FF FF FF FF FF FF FF
 2.391913 1  18F114F3x       Rx   d 8 0F C2 0F C1 0F C4 0F C3
 2.392942 1  18F115F3x       Rx   d 8 0F C1 0F C1 0F C1 0F C0
 2.393747 1  18F116F3x       Rx   d 8 0F C6 0F C4 0F C6 0F C9
 2.394802 1  18F117F3x       Rx   d 8 0F C4 0F C4 0F C7 0F C7
 2.395715 1  18F118F3x       Rx   d 8 00 00 00 00 00 00 00 00
 2.396648 1  18F119F3x       Rx   d 8 00 00 00 00 00 00 00 00
 2.397556 1  18F11AF3x       Rx   d 8 00 00 00 00 00 00 00 00
 2.398742 1  18F11BF3x       Rx   d 8 00 00 00 00 00 00 00 00
 2.399906 1  18F11CF3x       Rx   d 8 00 00 00 00 00 00 00 00
 2.400732 1  18F11DF3x       Rx   d 8 00 00 00 00 00 00 00 00
 2.401813 1  18F11EF3x       Rx   d 8 00 00 00 00 00 00 00 00
 2.402599 1  CFF21CAx        Rx   d 8 02 00 80 0C 3F 3D 00 10
 2.403033 1  18F11FF3x       Rx   d 8 00 00 00 00 00 00 00 00
 2.404137 1  18F120F3x       Rx   d 8 00 00 00 00 00 00 00 00
 2.404809 1  18F121F3x       Rx   d 8 00 00 00 00 00 00 00 00
 2.405905 1  18F122F3x       Rx   d 8 00 00 00 00 00 00 00 00
 2.406904 1  18F123F3x       Rx   d 8 00 00 00 00 00 00 00 00
 2.407737 1  18F124F3x       Rx   d 8 00 00 00 00 00 00 00 00
 2.408567 1  18F125F3x       Rx   d 8 00 00 00 00 00 00 00 00
 2.409966 1  18F126F3x       Rx   d 8 00 00 00 00 00 00 00 00
 2.410921 1  18F127F3x       Rx   d 8 00 00 00 00 00 00 00 00
 2.411817 1  18F128F3x       Rx   d 8 00 00 00 00 00 00 00 00
 2.412725 1  18F129F3x       Rx   d 8 00 00 00 00 00 00 00 00
 2.413552 1  18F12AF3x       Rx   d 8 00 00 00 00 00 00 00 00
 2.414641 1  CFF21CAx        Rx   d 8 02 00 80 0C 3F 3D 00 10
 2.414995 1  18F100D0x       Rx   d 8 0C FF FF FF FF FF FF FF
 2.415682 1  18F12BF3x       Rx   d 8 00 00 00 00 00 00 00 00
 2.416583 1  18F12CF3x       Rx   d 8 00 00 00 00 00 00 00 00
 2.417740 1  18F12DF3x       Rx   d 8 00 00 00 00 00 00 00 00
 2.418644 1  18F12EF3x       Rx   d 8 00 00 00 00 00 00 00 00
