date Sun May 17 16:45:55.575 2026
base hex  timestamps absolute
internal events logged
Begin Triggerblock Sun May 17 16:45:55.578 2026
 0.000000 Start of measurement
 0.000000 1  CFF21CAx        Rx   d 8 02 00 80 0C 4C 46 00 20
 0.015865 1  18F100D0x       Rx   d 8 0C FF FF FF FF FF FF FF
 0.016780 1  CFF21CAx        Rx   d 8 02 00 80 0C 4C 46 00 20
 0.020992 1  CFF21CAx        Rx   d 8 03 00 80 0C 4C 46 00 20
 0.033220 1  CFF21CAx        Rx   d 8 03 00 80 0C 4C 46 00 20
 0.033716 1  18F100D0x       Rx   d 8 0C FF FF FF FF FF FF FF
 0.045284 1  CFF21CAx        Rx   d 8 03 00 80 0C 4C 46 00 20
 0.049411 1  18F100F3x       Rx   d 8 03 13 7D 10 CA FA 14 00
 0.050201 1  18F102F3x       Rx   d 8 0F 62 0F 5B 10 0A 00 07
 0.051251 1  18FF2112x       Rx   d 8 01 00 00 00 00 00 00 00
 0.051793 1  18F106F3x       Rx   d 8 45 E0 FC FF FF FF FF FF
 0.053191 1  18F107F3x       Rx   d 8 38 A4 2B 2A 01 62 00 53
 0.054928 1  18F108F3x       Rx   d 8 00 00 00 00 00 00 00 00
 0.055821 1  18F155F3x       Rx   d 8 36 35 35 35 35 38 37 00
 0.056780 1  18F156F3x       Rx   d 8 00 00 00 00 00 00 00 00
 0.057701 1  CFF21CAx        Rx   d 8 02 00 80 0C 4C 46 00 20
 0.058198 1  18F100D0x       Rx   d 8 0C FF FF FF FF FF FF FF
 0.058796 1  18F157F3x       Rx   d 8 00 00 00 00 00 00 00 00
 0.059745 1  18F158F3x       Rx   d 8 00 00 00 00 00 00 00 00
 0.060537 1  18F159F3x       Rx   d 8 00 00 00 00 00 00 00 00
 0.061506 1  18F15AF3x       Rx   d 8 00 00 00 00 00 00 00 00
 0.062245 1  18F15BF3x       Rx   d 7 00 00 00 00 00 00 00
 0.063153 1  18F15CF3x       Rx   d 8 00 00 00 00 00 00 00 00
 0.064113 1  18F15DF3x       Rx   d 8 00 00 00 00 00 00 00 00
 0.065045 1  18F15EF3x       Rx   d 8 00 00 00 00 00 00 00 00
 0.069315 1  CFF21CAx        Rx   d 8 02 00 80 0C 4C 46 00 20
 0.082368 1  CFF21CAx        Rx   d 8 02 00 80 0C 4C 46 00 20
 0.085758 1  18F100D0x       Rx   d 8 0C FF FF FF FF FF FF FF
 0.093880 1  CFF21CAx        Rx   d 8 02 00 80 0C 4C 46 00 20
 0.105532 1  CFF21CAx        Rx   d 8 02 00 80 0C 4C 46 00 20
 0.109443 1  18F100D0x       Rx   d 8 0C FF FF FF FF FF FF FF
 0.117427 1  CFF21CAx        Rx   d 8 02 00 80 0C 4C 46 00 20
 0.129477 1  CFF21CAx        Rx   d 8 02 00 80 0C 4C 46 00 20
 0.133480 1  18F100D0x       Rx   d 8 0C FF FF FF FF FF FF FF
 0.141467 1  CFF21CAx        Rx   d 8 02 00 80 0C 4C 46 00 20
 0.148550 1  18FF2112x       Rx   d 8 01 00 00 00 00 00 00 00
 0.149300 1  18F100F3x       Rx   d 8 03 13 7D 10 CA FA 14 00
 0.150159 1  18F102F3x       Rx   d 8 0F 62 0F 5B 10 0A 00 07
 0.151459 1  18F106F3x       Rx   d 8 45 E0 FC FF FF FF FF FF
 0.152702 1  18F107F3x       Rx   d 8 38 A4 2B 2A 01 62 00 53
 0.153968 1  CFF21CAx        Rx   d 8 03 00 80 0C 4C 46 00 20
 0.154555 1  18F108F3x       Rx   d 8 00 00 00 00 00 00 00 00
 0.155402 1  18F155F3x       Rx   d 8 36 35 35 35 35 38 37 00
 0.156307 1  18F156F3x       Rx   d 8 00 00 00 00 00 00 00 00
 0.157227 1  18F157F3x       Rx   d 8 00 00 00 00 00 00 00 00
 0.158393 1  18F158F3x       Rx   d 8 00 00 00 00 00 00 00 00
 0.159265 1  18F159F3x       Rx   d 8 00 00 00 00 00 00 00 00
 0.160223 1  18F15AF3x       Rx   d 8 00 00 00 00 00 00 00 00
 0.161085 1  18F15BF3x       Rx   d 7 00 00 00 00 00 00 00
 0.161722 1  18F100D0x       Rx   d 8 0C FF FF FF FF FF FF FF
 0.162257 1  18F15CF3x       Rx   d 8 00 00 00 00 00 00 00 00
 0.163248 1  18F104F3x       Rx   d 8 38 35 06 02 03 FF FF FF
 0.163838 1  18F113F3x       Rx   d 8 0F 5E 0F 5D 0F 5E 0F 5E
 0.164704 1  18F114F3x       Rx   d 8 0F 5C 0F 5C 0F 60 0F 5E
 0.165539 1  CFF21CAx        Rx   d 8 03 00 80 0C 4C 46 00 20
 0.166087 1  18F115F3x       Rx   d 8 0F 5C 0F 5B 0F 5C 0F 5C
 0.166997 1  18F116F3x       Rx   d 8 0F 60 0F 5D 0F 60 0F 62
 0.168260 1  18F117F3x       Rx   d 8 0F 5E 0F 60 0F 62 0F 61
 0.169177 1  18F118F3x       Rx   d 8 00 00 00 00 00 00 00 00
 0.170147 1  18F119F3x       Rx   d 8 00 00 00 00 00 00 00 00
 0.171090 1  18F11AF3x       Rx   d 8 00 00 00 00 00 00 00 00
 0.172113 1  18F11BF3x       Rx   d 8 00 00 00 00 00 00 00 00
 0.173036 1  18F11CF3x       Rx   d 8 00 00 00 00 00 00 00 00
 0.173981 1  18F11DF3x       Rx   d 8 00 00 00 00 00 00 00 00
 0.174927 1  18F11EF3x       Rx   d 8 00 00 00 00 00 00 00 00
 0.175906 1  18F11FF3x       Rx   d 8 00 00 00 00 00 00 00 00
 0.176806 1  18F120F3x       Rx   d 8 00 00 00 00 00 00 00 00
 0.177663 1  CFF21CAx        Rx   d 8 03 00 80 0C 4C 46 00 20
 0.178199 1  18F121F3x       Rx   d 8 00 00 00 00 00 00 00 00
 0.179133 1  18F122F3x       Rx   d 8 00 00 00 00 00 00 00 00
 0.180075 1  18F123F3x       Rx   d 8 00 00 00 00 00 00 00 00
 0.180996 1  18F124F3x       Rx   d 8 00 00 00 00 00 00 00 00
 0.181977 1  18F125F3x       Rx   d 8 00 00 00 00 00 00 00 00
 0.182911 1  18F126F3x       Rx   d 8 00 00 00 00 00 00 00 00
 0.183783 1  18F127F3x       Rx   d 8 00 00 00 00 00 00 00 00
 0.184674 1  18F128F3x       Rx   d 8 00 00 00 00 00 00 00 00
 0.185618 1  18F129F3x       Rx   d 8 00 00 00 00 00 00 00 00
 0.186150 1  18F100D0x       Rx   d 8 0C FF FF FF FF FF FF FF
 0.186706 1  18F12AF3x       Rx   d 8 00 00 00 00 00 00 00 00
 0.187679 1  18F12BF3x       Rx   d 8 00 00 00 00 00 00 00 00
 0.188538 1  18F12CF3x       Rx   d 8 00 00 00 00 00 00 00 00
 0.189373 1  18F12DF3x       Rx   d 8 00 00 00 00 00 00 00 00
 0.189955 1  CFF21CAx        Rx   d 8 03 00 80 0C 4C 46 00 20
 0.190483 1  18F12EF3x       Rx   d 8 00 00 00 00 00 00 00 00
 0.191437 1  18F12FF3x       Rx   d 8 00 00 00 00 00 00 00 00
 0.192307 1  18F130F3x       Rx   d 8 00 00 00 00 00 00 00 00
 0.193221 1  18F131F3x       Rx   d 8 00 00 00 00 00 00 00 00
 0.194125 1  18F132F3x       Rx   d 8 00 00 00 00 00 00 00 00
 0.195030 1  18F133F3x       Rx   d 8 00 00 00 00 00 00 00 00
 0.195946 1  18F134F3x       Rx   d 8 00 00 00 00 00 00 00 00
 0.196779 1  18F135F3x       Rx   d 8 00 00 00 00 00 00 00 00
 0.197711 1  18F136F3x       Rx   d 8 00 00 00 00 00 00 00 00
 0.198522 1  18F137F3x       Rx   d 8 00 00 00 00 00 00 00 00
 0.199335 1  18F138F3x       Rx   d 8 00 00 00 00 00 00 00 00
 0.200216 1  18F139F3x       Rx   d 8 00 00 00 00 00 00 00 00
 0.201094 1  18F13AF3x       Rx   d 8 00 00 00 00 00 00 00 00
 0.201736 1  CFF21CAx        Rx   d 8 03 00 80 0C 4C 46 00 20
 0.202304 1  18F13BF3x       Rx   d 8 00 00 00 00 00 00 00 00
 0.203182 1  18F13CF3x       Rx   d 8 00 00 00 00 00 00 00 00
 0.204040 1  18F15DF3x       Rx   d 8 00 00 00 00 00 00 00 00
 0.204944 1  18F15EF3x       Rx   d 8 00 00 00 00 00 00 00 00
 0.213732 1  CFF21CAx        Rx   d 8 03 00 80 0C 4C 46 00 20
 0.214293 1  18F100D0x       Rx   d 8 0C FF FF FF FF FF FF FF
 0.228074 1  CFF21CAx        Rx   d 8 03 00 80 0C 4C 46 00 20
 0.237907 1  CFF21CAx        Rx   d 8 03 00 80 0C 4C 46 00 20
 0.238462 1  18F100D0x       Rx   d 8 0C FF FF FF FF FF FF FF
 0.246019 1  18FF2112x       Rx   d 8 01 00 00 00 00 00 00 00
 0.249708 1  18F100F3x       Rx   d 8 03 13 7D 10 CA FA 14 00
 0.250483 1  18F102F3x       Rx   d 8 0F 62 0F 5B 10 0A 00 07
 0.250934 1  CFF21CAx        Rx   d 8 02 00 80 0C 4C 46 00 20
 0.251652 1  18F106F3x       Rx   d 8 45 E0 FC FF FF FF FF FF
 0.253150 1  18F107F3x       Rx   d 8 38 A4 2B 2A 01 62 00 53
 0.254860 1  18F108F3x       Rx   d 8 00 00 00 00 00 00 00 00
 0.255771 1  18F155F3x       Rx   d 8 36 35 35 35 35 38 37 00
 0.256548 1  18F156F3x       Rx   d 8 00 00 00 00 00 00 00 00
 0.257538 1  18F157F3x       Rx   d 8 00 00 00 00 00 00 00 00
 0.258806 1  18F158F3x       Rx   d 8 00 00 00 00 00 00 00 00
 0.259543 1  18F159F3x       Rx   d 8 00 00 00 00 00 00 00 00
 0.260529 1  18F15AF3x       Rx   d 8 00 00 00 00 00 00 00 00
 0.261442 1  18F15BF3x       Rx   d 7 00 00 00 00 00 00 00
 0.262222 1  18F15CF3x       Rx   d 8 00 00 00 00 00 00 00 00
 0.262692 1  CFF21CAx        Rx   d 8 02 00 80 0C 4C 46 00 20
 0.263291 1  18F15DF3x       Rx   d 8 00 00 00 00 00 00 00 00
 0.264159 1  18F15EF3x       Rx   d 8 00 00 00 00 00 00 00 00
 0.266080 1  18F100D0x       Rx   d 8 0C FF FF FF FF FF FF FF
 0.274060 1  CFF21CAx        Rx   d 8 02 00 80 0C 4C 46 00 20
 0.286077 1  CFF21CAx        Rx   d 8 03 00 80 0C 4C 46 00 20
 0.290051 1  18F100D0x       Rx   d 8 0C FF FF FF FF FF FF FF
 0.298091 1  CFF21CAx        Rx   d 8 03 00 80 0C 4C 46 00 20
 0.310402 1  CFF21CAx        Rx   d 8 03 00 80 0C 4C 46 00 20
 0.318370 1  18F100D0x       Rx   d 8 0C FF FF FF FF FF FF FF
 0.322412 1  CFF21CAx        Rx   d 8 03 00 80 0C 4C 46 00 20
 0.334319 1  CFF21CAx        Rx   d 8 03 00 80 0C 4C 46 00 20
 0.342437 1  18F100D0x       Rx   d 8 0C FF FF FF FF FF FF FF
 0.343297 1  18FF2112x       Rx   d 8 01 00 00 00 00 00 00 00
 0.346515 1  CFF21CAx        Rx   d 8 03 00 80 0C 4C 46 00 20
 0.349525 1  18F100F3x       Rx   d 8 03 13 7D 10 CA FA 14 00
 0.350465 1  18F102F3x       Rx   d 8 0F 62 0F 5B 10 0A 00 07
 0.351649 1  18F106F3x       Rx   d 8 45 E0 FC FF FF FF FF FF
 0.352911 1  18F107F3x       Rx   d 8 38 A4 2B 2A 01 62 00 53
 0.354676 1  18F108F3x       Rx   d 8 00 00 00 00 00 00 00 00
 0.355583 1  18F155F3x       Rx   d 8 36 35 35 35 35 38 37 00
 0.356351 1  18F156F3x       Rx   d 8 00 00 00 00 00 00 00 00
 0.357296 1  18F157F3x       Rx   d 8 00 00 00 00 00 00 00 00
 0.358545 1  CFF21CAx        Rx   d 8 03 00 80 0C 4C 46 00 20
 0.359054 1  18F158F3x       Rx   d 8 00 00 00 00 00 00 00 00
 0.359966 1  18F159F3x       Rx   d 8 00 00 00 00 00 00 00 00
 0.360904 1  18F15AF3x       Rx   d 8 00 00 00 00 00 00 00 00
 0.361709 1  18F15BF3x       Rx   d 7 00 00 00 00 00 00 00
 0.362560 1  18F15CF3x       Rx   d 8 00 00 00 00 00 00 00 00
 0.363370 1  18F15DF3x       Rx   d 8 00 00 00 00 00 00 00 00
 0.364271 1  18F15EF3x       Rx   d 8 00 00 00 00 00 00 00 00
 0.366445 1  18F100D0x       Rx   d 8 0C FF FF FF FF FF FF FF
 0.370549 1  CFF21CAx        Rx   d 8 03 00 80 0C 4C 46 00 20
 0.382649 1  CFF21CAx        Rx   d 8 03 00 80 0C 4C 46 00 20
 0.394691 1  CFF21CAx        Rx   d 8 03 00 80 0C 4C 46 00 20
 0.395249 1  18F100D0x       Rx   d 8 0C FF FF FF FF FF FF FF
 0.406706 1  CFF21CAx        Rx   d 8 03 00 80 0C 4C 46 00 20
 0.418805 1  CFF21CAx        Rx   d 8 03 00 80 0C 4C 46 00 20
 0.422851 1  18F100D0x       Rx   d 8 0C FF FF FF FF FF FF FF
 0.454338 1  CFF21CAx        Rx   d 8 03 00 80 0C 4C 46 00 20
 0.454541 1  18FF2112x       Rx   d 8 01 00 00 00 00 00 00 00
 0.454714 1  CFF21CAx        Rx   d 8 02 00 80 0C 4C 46 00 20
 0.454889 1  18F100D0x       Rx   d 8 0C FF FF FF FF FF FF FF
 0.455055 1  18F100F3x       Rx   d 8 03 13 7D 10 CA FA 14 00
 0.455231 1  18F102F3x       Rx   d 8 0F 62 0F 5B 10 0A 00 07
 0.455448 1  18F106F3x       Rx   d 8 45 E0 FC FF FF FF FF FF
 0.455697 1  18F107F3x       Rx   d 8 38 A4 2B 2A 01 62 00 53
 0.455882 1  18F108F3x       Rx   d 8 00 00 00 00 00 00 00 00
 0.456051 1  CFF21CAx        Rx   d 8 02 00 80 0C 4C 46 00 20
 0.456216 1  18F155F3x       Rx   d 8 36 35 35 35 35 38 37 00
 0.456529 1  18F156F3x       Rx   d 8 00 00 00 00 00 00 00 00
 0.457398 1  18F157F3x       Rx   d 8 00 00 00 00 00 00 00 00
 0.458422 1  18F158F3x       Rx   d 8 00 00 00 00 00 00 00 00
 0.459316 1  18F159F3x       Rx   d 8 00 00 00 00 00 00 00 00
 0.460215 1  18F15AF3x       Rx   d 8 00 00 00 00 00 00 00 00
 0.461160 1  18F15BF3x       Rx   d 7 00 00 00 00 00 00 00
 0.462073 1  18F15CF3x       Rx   d 8 00 00 00 00 00 00 00 00
 0.462926 1  18F15DF3x       Rx   d 8 00 00 00 00 00 00 00 00
 0.463724 1  18F15EF3x       Rx   d 8 00 00 00 00 00 00 00 00
 0.466833 1  CFF21CAx        Rx   d 8 02 00 80 0C 4C 46 00 20
 0.470995 1  18F100D0x       Rx   d 8 0C FF FF FF FF FF FF FF
 0.479200 1  CFF21CAx        Rx   d 8 02 00 80 0C 4C 46 00 20
 0.491024 1  CFF21CAx        Rx   d 8 02 00 80 0C 4C 46 00 20
 0.494939 1  18F100D0x       Rx   d 8 0C FF FF FF FF FF FF FF
 0.503034 1  CFF21CAx        Rx   d 8 02 00 80 0C 4C 46 00 20
 0.515174 1  CFF21CAx        Rx   d 8 02 00 80 0C 4C 46 00 20
 0.515732 1  18F100D0x       Rx   d 8 0C FF FF FF FF FF FF FF
 0.527303 1  CFF21CAx        Rx   d 8 02 00 80 0C 4C 46 00 20
 0.537870 1  18FF2112x       Rx   d 8 01 00 00 00 00 00 00 00
 0.539263 1  CFF21CAx        Rx   d 8 02 00 80 0C 4C 46 00 20
 0.543271 1  18F100D0x       Rx   d 8 0C FF FF FF FF FF FF FF
 0.549578 1  18F100F3x       Rx   d 8 03 13 7D 10 CA FA 14 00
 0.550379 1  18F102F3x       Rx   d 8 0F 62 0F 5B 10 0A 00 07
 0.551687 1  18F106F3x       Rx   d 8 45 E0 FC FF FF FF FF FF
 0.552286 1  CFF21CAx        Rx   d 8 02 00 80 0C 4C 46 00 20
 0.552930 1  18F107F3x       Rx   d 8 38 A4 2B 2A 01 62 00 53
 0.554711 1  18F108F3x       Rx   d 8 00 00 00 00 00 00 00 00
 0.555633 1  18F155F3x       Rx   d 8 36 35 35 35 35 38 37 00
 0.556524 1  18F156F3x       Rx   d 8 00 00 00 00 00 00 00 00
 0.557434 1  18F157F3x       Rx   d 8 00 00 00 00 00 00 00 00
 0.558631 1  18F158F3x       Rx   d 8 00 00 00 00 00 00 00 00
 0.559495 1  18F159F3x       Rx   d 8 00 00 00 00 00 00 00 00
 0.560468 1  18F15AF3x       Rx   d 8 00 00 00 00 00 00 00 00
 0.561328 1  18F15BF3x       Rx   d 7 00 00 00 00 00 00 00
 0.562330 1  18F15CF3x       Rx   d 8 00 00 00 00 00 00 00 00
 0.563204 1  18F15DF3x       Rx   d 8 00 00 00 00 00 00 00 00
 0.563749 1  CFF21CAx        Rx   d 8 02 00 80 0C 4C 46 00 20
 0.564347 1  18F15EF3x       Rx   d 8 00 00 00 00 00 00 00 00
 0.567235 1  18F100D0x       Rx   d 8 0C FF FF FF FF FF FF FF
 0.575616 1  CFF21CAx        Rx   d 8 02 00 80 0C 4C 46 00 20
 0.587626 1  CFF21CAx        Rx   d 8 02 00 80 0C 4C 46 00 20
 0.591691 1  18F100D0x       Rx   d 8 0C FF FF FF FF FF FF FF
 0.599513 1  CFF21CAx        Rx   d 8 02 00 80 0C 4C 46 00 20
 0.611574 1  CFF21CAx        Rx   d 8 02 00 80 0C 4C 46 00 20
 0.619584 1  18F100D0x       Rx   d 8 0C FF FF FF FF FF FF FF
 0.623626 1  CFF21CAx        Rx   d 8 02 00 80 0C 4C 46 00 20
 0.634995 1  18FF2112x       Rx   d 8 01 00 00 00 00 00 00 00
 0.635568 1  CFF21CAx        Rx   d 8 02 00 80 0C 4C 46 00 20
 0.643698 1  18F100D0x       Rx   d 8 0C FF FF FF FF FF FF FF
 0.647746 1  CFF21CAx        Rx   d 8 02 00 80 0C 4C 46 00 20
 0.649524 1  18F100F3x       Rx   d 8 03 13 7D 10 CA FA 14 00
 0.650440 1  18F102F3x       Rx   d 8 0F 62 0F 5B 10 0A 00 07
 0.651676 1  18F106F3x       Rx   d 8 45 E0 FC FF FF FF FF FF
 0.652961 1  18F107F3x       Rx   d 8 38 A4 2B 2A 01 62 00 53
 0.654736 1  18F108F3x       Rx   d 8 00 00 00 00 00 00 00 00
 0.655549 1  18F155F3x       Rx   d 8 36 35 35 35 35 38 37 00
 0.656480 1  18F156F3x       Rx   d 8 00 00 00 00 00 00 00 00
 0.657409 1  18F157F3x       Rx   d 8 00 00 00 00 00 00 00 00
 0.658612 1  18F158F3x       Rx   d 8 00 00 00 00 00 00 00 00
 0.659477 1  18F159F3x       Rx   d 8 00 00 00 00 00 00 00 00
 0.681797 1  CFF21CAx        Rx   d 8 02 00 80 0C 4C 46 00 20
 0.681980 1  18F15AF3x       Rx   d 8 00 00 00 00 00 00 00 00
 0.682140 1  18F15BF3x       Rx   d 7 00 00 00 00 00 00 00
 0.682306 1  18F15CF3x       Rx   d 8 00 00 00 00 00 00 00 00
 0.682474 1  18F15DF3x       Rx   d 8 00 00 00 00 00 00 00 00
 0.682693 1  18F15EF3x       Rx   d 8 00 00 00 00 00 00 00 00
 0.682871 1  CFF21CAx        Rx   d 8 03 00 80 0C 4C 46 00 20
 0.683042 1  18F100D0x       Rx   d 8 0C FF FF FF FF FF FF FF
 0.683713 1  CFF21CAx        Rx   d 8 03 00 80 0C 4C 46 00 20
 0.695944 1  CFF21CAx        Rx   d 8 03 00 80 0C 4C 46 00 20
 0.696461 1  18F100D0x       Rx   d 8 0C FF FF FF FF FF FF FF
 0.708133 1  CFF21CAx        Rx   d 8 03 00 80 0C 4C 46 00 20
 0.720370 1  CFF21CAx        Rx   d 8 03 00 80 0C 4C 46 00 20
 0.720954 1  18F100D0x       Rx   d 8 0C FF FF FF FF FF FF FF
 0.731956 1  CFF21CAx        Rx   d 8 03 00 80 0C 4C 46 00 20
 0.732436 1  18FF2112x       Rx   d 8 01 00 00 00 00 00 00 00
 0.743976 1  CFF21CAx        Rx   d 8 03 00 80 0C 4C 46 00 20
 0.744519 1  18F100D0x       Rx   d 8 0C FF FF FF FF FF FF FF
 0.749503 1  18F100F3x       Rx   d 8 03 13 7D 10 CA FA 14 00
 0.750451 1  18F102F3x       Rx   d 8 0F 62 0F 5B 10 0A 00 07
 0.751745 1  18F106F3x       Rx   d 8 45 E0 FC FF FF FF FF FF
 0.752925 1  18F107F3x       Rx   d 8 38 A4 2B 2A 01 62 00 53
 0.754685 1  18F108F3x       Rx   d 8 00 00 00 00 00 00 00 00
 0.755557 1  18F155F3x       Rx   d 8 36 35 35 35 35 38 37 00
 0.756149 1  CFF21CAx        Rx   d 8 03 00 80 0C 4C 46 00 20
 0.756775 1  18F156F3x       Rx   d 8 00 00 00 00 00 00 00 00
 0.757693 1  18F157F3x       Rx   d 8 00 00 00 00 00 00 00 00
 0.758624 1  18F158F3x       Rx   d 8 00 00 00 00 00 00 00 00
 0.759497 1  18F159F3x       Rx   d 8 00 00 00 00 00 00 00 00
 0.760423 1  18F15AF3x       Rx   d 8 00 00 00 00 00 00 00 00
 0.761283 1  18F15BF3x       Rx   d 7 00 00 00 00 00 00 00
 0.762188 1  18F15CF3x       Rx   d 8 00 00 00 00 00 00 00 00
 0.763146 1  18F15DF3x       Rx   d 8 00 00 00 00 00 00 00 00
 0.763890 1  18F15EF3x       Rx   d 8 00 00 00 00 00 00 00 00
 0.768104 1  CFF21CAx        Rx   d 8 03 00 80 0C 4C 46 00 20
 0.772224 1  18F100D0x       Rx   d 8 0C FF FF FF FF FF FF FF
 0.780203 1  CFF21CAx        Rx   d 8 03 00 80 0C 4C 46 00 20
 0.792332 1  CFF21CAx        Rx   d 8 03 00 80 0C 4C 46 00 20
 0.796232 1  18F100D0x       Rx   d 8 0C FF FF FF FF FF FF FF
 0.804347 1  CFF21CAx        Rx   d 8 03 00 80 0C 4C 46 00 20
 0.816498 1  CFF21CAx        Rx   d 8 03 00 80 0C 4C 46 00 20
 0.824829 1  18F100D0x       Rx   d 8 0C FF FF FF FF FF FF FF
 0.828454 1  CFF21CAx        Rx   d 8 03 00 80 0C 4C 46 00 20
 0.829700 1  18FF2112x       Rx   d 8 01 00 00 00 00 00 00 00
 0.841116 1  CFF21CAx        Rx   d 8 03 00 80 0C 4C 46 00 20
 0.849187 1  18F100D0x       Rx   d 8 0C FF FF FF FF FF FF FF
 0.849702 1  18F100F3x       Rx   d 8 03 13 7D 10 CA FA 14 00
 0.850463 1  18F102F3x       Rx   d 8 0F 62 0F 5B 10 0A 00 07
 0.851702 1  18F106F3x       Rx   d 8 45 E0 FC FF FF FF FF FF
 0.852522 1  CFF21CAx        Rx   d 8 03 00 80 0C 4C 46 00 20
 0.853085 1  18F107F3x       Rx   d 8 38 A4 2B 2A 01 62 00 53
 0.854845 1  18F108F3x       Rx   d 8 00 00 00 00 00 00 00 00
 0.855702 1  18F155F3x       Rx   d 8 36 35 35 35 35 38 37 00
 0.856596 1  18F156F3x       Rx   d 8 00 00 00 00 00 00 00 00
 0.857525 1  18F157F3x       Rx   d 8 00 00 00 00 00 00 00 00
 0.858669 1  18F158F3x       Rx   d 8 00 00 00 00 00 00 00 00
 0.859493 1  18F159F3x       Rx   d 8 00 00 00 00 00 00 00 00
 0.860420 1  18F15AF3x       Rx   d 8 00 00 00 00 00 00 00 00
 0.861279 1  18F15BF3x       Rx   d 7 00 00 00 00 00 00 00
 0.862219 1  18F15CF3x       Rx   d 8 00 00 00 00 00 00 00 00
 0.863084 1  18F15DF3x       Rx   d 8 00 00 00 00 00 00 00 00
 0.863925 1  18F15EF3x       Rx   d 8 00 00 00 00 00 00 00 00
 0.864566 1  CFF21CAx        Rx   d 8 03 00 80 0C 4C 46 00 20
 0.872667 1  18F100D0x       Rx   d 8 0C FF FF FF FF FF FF FF
 0.876658 1  CFF21CAx        Rx   d 8 03 00 80 0C 4C 46 00 20
 0.905685 1  CFF21CAx        Rx   d 8 02 00 80 0C 4C 46 00 20
 0.905877 1  18F100D0x       Rx   d 8 0C FF FF FF FF FF FF FF
 0.906048 1  CFF21CAx        Rx   d 8 02 00 80 0C 4C 46 00 20
 0.913162 1  CFF21CAx        Rx   d 8 02 00 80 0C 4C 46 00 20
 0.924854 1  CFF21CAx        Rx   d 8 01 00 80 0C 4C 46 00 20
 0.925599 1  18F100D0x       Rx   d 8 0C FF FF FF FF FF FF FF
 0.927289 1  18FF2112x       Rx   d 8 01 00 00 00 00 00 00 00
 0.937253 1  CFF21CAx        Rx   d 8 01 00 80 0C 4C 46 00 20
 0.948758 1  CFF21CAx        Rx   d 8 01 00 80 0C 4C 46 00 20
 0.949313 1  18F100D0x       Rx   d 8 0C FF FF FF FF FF FF FF
 0.949880 1  18F100F3x       Rx   d 8 03 13 7D 10 CA FA 14 00
 0.950792 1  18F102F3x       Rx   d 8 0F 62 0F 5B 10 0A 00 07
 0.952097 1  18F106F3x       Rx   d 8 45 E0 FC FF FF FF FF FF
 0.953404 1  18F107F3x       Rx   d 8 38 A4 2B 2A 01 62 00 53
 0.955218 1  18F108F3x       Rx   d 8 00 00 00 00 00 00 00 00
 0.956045 1  18F155F3x       Rx   d 8 36 35 35 35 35 38 37 00
 0.956911 1  18F156F3x       Rx   d 8 00 00 00 00 00 00 00 00
 0.957813 1  18F157F3x       Rx   d 8 00 00 00 00 00 00 00 00
 0.958794 1  18F158F3x       Rx   d 8 00 00 00 00 00 00 00 00
 0.959620 1  18F159F3x       Rx   d 8 00 00 00 00 00 00 00 00
 0.960485 1  18F15AF3x       Rx   d 8 00 00 00 00 00 00 00 00
 0.961005 1  CFF21CAx        Rx   d 8 02 00 80 0C 4C 46 00 20
 0.961522 1  18F15BF3x       Rx   d 7 00 00 00 00 00 00 00
 0.962463 1  18F15CF3x       Rx   d 8 00 00 00 00 00 00 00 00
 0.963332 1  18F15DF3x       Rx   d 8 00 00 00 00 00 00 00 00
 0.964132 1  18F15EF3x       Rx   d 8 00 00 00 00 00 00 00 00
 0.973014 1  CFF21CAx        Rx   d 8 02 00 80 0C 4C 46 00 20
 0.977543 1  18F100D0x       Rx   d 8 0C FF FF FF FF FF FF FF
 0.985706 1  CFF21CAx        Rx   d 8 01 00 80 0C 4C 46 00 20
 0.986164 1  18FECACAx       Rx   d 8 00 00 00 00 00 00 FF FF
 0.997283 1  CFF21CAx        Rx   d 8 01 00 80 0C 4C 46 00 20
 1.001237 1  18F100D0x       Rx   d 8 0C FF FF FF FF FF FF FF
 1.009161 1  CFF21CAx        Rx   d 8 01 00 80 0C 4C 46 00 20
 1.021253 1  CFF21CAx        Rx   d 8 02 00 80 0C 4C 46 00 20
 1.024360 1  18FF2112x       Rx   d 8 01 00 00 00 00 00 00 00
 1.025263 1  18F100D0x       Rx   d 8 0C FF FF FF FF FF FF FF
 1.033628 1  CFF21CAx        Rx   d 8 02 00 80 0C 4C 46 00 20
 1.045327 1  CFF21CAx        Rx   d 8 02 00 80 0C 4C 46 00 20
 1.049569 1  18F100F3x       Rx   d 8 03 13 7D 10 CA FA 14 00
 1.050139 1  18F100D0x       Rx   d 8 0C FF FF FF FF FF FF FF
 1.050659 1  18F102F3x       Rx   d 8 0F 62 0F 5B 10 0A 00 07
 1.051928 1  18F106F3x       Rx   d 8 45 E0 FC FF FF FF FF FF
 1.053239 1  18F107F3x       Rx   d 8 38 A4 2B 2A 01 62 00 53
 1.055006 1  18F108F3x       Rx   d 8 00 00 00 00 00 00 00 00
 1.055902 1  18F155F3x       Rx   d 8 36 35 35 35 35 38 37 00
 1.056931 1  18F156F3x       Rx   d 8 00 00 00 00 00 00 00 00
 1.057728 1  18F157F3x       Rx   d 8 00 00 00 00 00 00 00 00
 1.058310 1  CFF21CAx        Rx   d 8 02 00 80 0C 4C 46 00 20
 1.058898 1  18F158F3x       Rx   d 8 00 00 00 00 00 00 00 00
 1.059753 1  18F159F3x       Rx   d 8 00 00 00 00 00 00 00 00
 1.060676 1  18F15AF3x       Rx   d 8 00 00 00 00 00 00 00 00
 1.061458 1  18F15BF3x       Rx   d 7 00 00 00 00 00 00 00
 1.062397 1  18F15CF3x       Rx   d 8 00 00 00 00 00 00 00 00
 1.063386 1  18F15DF3x       Rx   d 8 00 00 00 00 00 00 00 00
 1.064298 1  18F15EF3x       Rx   d 8 00 00 00 00 00 00 00 00
 1.069457 1  CFF21CAx        Rx   d 8 02 00 80 0C 4C 46 00 20
 1.073642 1  18F100D0x       Rx   d 8 0C FF FF FF FF FF FF FF
 1.082083 1  CFF21CAx        Rx   d 8 02 00 80 0C 4C 46 00 20
 1.093684 1  CFF21CAx        Rx   d 8 02 00 80 0C 4C 46 00 20
 1.097730 1  18F100D0x       Rx   d 8 0C FF FF FF FF FF FF FF
 1.106051 1  CFF21CAx        Rx   d 8 02 00 80 0C 4C 46 00 20
 1.132645 1  CFF21CAx        Rx   d 8 02 00 80 0C 4C 46 00 20
 1.132827 1  18FF2112x       Rx   d 8 01 00 00 00 00 00 00 00
 1.132999 1  18F100D0x       Rx   d 8 0C FF FF FF FF FF FF FF
 1.133162 1  CFF21CAx        Rx   d 8 02 00 80 0C 4C 46 00 20
 1.141738 1  CFF21CAx        Rx   d 8 02 00 80 0C 4C 46 00 20
 1.149583 1  18F100F3x       Rx   d 8 03 13 7D 10 CA FA 14 00
 1.150109 1  18F100D0x       Rx   d 8 0C FF FF FF FF FF FF FF
 1.150668 1  18F102F3x       Rx   d 8 0F 62 0F 5B 10 0A 00 07
 1.151974 1  18F106F3x       Rx   d 8 45 E0 FC FF FF FF FF FF
 1.153202 1  18F107F3x       Rx   d 8 38 A4 2B 2A 01 62 00 53
 1.154123 1  CFF21CAx        Rx   d 8 02 00 80 0C 4C 46 00 20
 1.154988 1  18F108F3x       Rx   d 8 00 00 00 00 00 00 00 00
 1.155938 1  18F155F3x       Rx   d 8 36 35 35 35 35 38 37 00
 1.156729 1  18F156F3x       Rx   d 8 00 00 00 00 00 00 00 00
 1.157732 1  18F157F3x       Rx   d 8 00 00 00 00 00 00 00 00
 1.158703 1  18F158F3x       Rx   d 8 00 00 00 00 00 00 00 00
 1.159587 1  18F159F3x       Rx   d 8 00 00 00 00 00 00 00 00
 1.160494 1  18F15AF3x       Rx   d 8 00 00 00 00 00 00 00 00
 1.161309 1  18F15BF3x       Rx   d 7 00 00 00 00 00 00 00
 1.162235 1  18F15CF3x       Rx   d 8 00 00 00 00 00 00 00 00
 1.163355 1  18F104F3x       Rx   d 8 38 35 06 02 03 FF FF FF
 1.163907 1  18F113F3x       Rx   d 8 0F 5E 0F 5D 0F 5E 0F 5E
 1.164789 1  18F114F3x       Rx   d 8 0F 5C 0F 5C 0F 60 0F 5E
 1.165586 1  18F115F3x       Rx   d 8 0F 5C 0F 5B 0F 5C 0F 5C
 1.166178 1  CFF21CAx        Rx   d 8 02 00 80 0C 4C 46 00 20
 1.166706 1  18F116F3x       Rx   d 8 0F 60 0F 5D 0F 60 0F 62
 1.167588 1  18F117F3x       Rx   d 8 0F 5E 0F 60 0F 62 0F 61
 1.168607 1  18F118F3x       Rx   d 8 00 00 00 00 00 00 00 00
 1.169536 1  18F119F3x       Rx   d 8 00 00 00 00 00 00 00 00
 1.170379 1  18F11AF3x       Rx   d 8 00 00 00 00 00 00 00 00
 1.171328 1  18F11BF3x       Rx   d 8 00 00 00 00 00 00 00 00
 1.172304 1  18F11CF3x       Rx   d 8 00 00 00 00 00 00 00 00
 1.173279 1  18F11DF3x       Rx   d 8 00 00 00 00 00 00 00 00
 1.174252 1  18F11EF3x       Rx   d 8 00 00 00 00 00 00 00 00
 1.175153 1  18F11FF3x       Rx   d 8 00 00 00 00 00 00 00 00
 1.176126 1  18F120F3x       Rx   d 8 00 00 00 00 00 00 00 00
 1.177173 1  18F121F3x       Rx   d 8 00 00 00 00 00 00 00 00
 1.178068 1  CFF21CAx        Rx   d 8 02 00 80 0C 4C 46 00 20
 1.178645 1  18F100D0x       Rx   d 8 0C FF FF FF FF FF FF FF
 1.179237 1  18F122F3x       Rx   d 8 00 00 00 00 00 00 00 00
 1.180211 1  18F123F3x       Rx   d 8 00 00 00 00 00 00 00 00
 1.181170 1  18F124F3x       Rx   d 8 00 00 00 00 00 00 00 00
 1.182076 1  18F125F3x       Rx   d 8 00 00 00 00 00 00 00 00
 1.183005 1  18F126F3x       Rx   d 8 00 00 00 00 00 00 00 00
