date Sun May 17 16:08:27.17 2026
base hex  timestamps absolute
internal events logged
Begin Triggerblock Sun May 17 16:08:27.20 2026
 0.000000 Start of measurement
 0.000000 1  CFF21CAx        Rx   d 8 02 00 80 0C 3F 3C 00 10
 0.000350 1  18F100D0x       Rx   d 8 0C FF FF FF FF FF FF FF
 0.024675 1  CFF21CAx        Rx   d 8 02 00 80 0C 3F 3C 00 10
 0.025026 1  CFF21CAx        Rx   d 8 02 00 80 0C 3F 3C 00 10
 0.026038 1  18F100D0x       Rx   d 8 0C FF FF FF FF FF FF FF
 0.042459 1  CFF21CAx        Rx   d 8 02 00 80 0C 3F 3C 00 10
 0.044846 1  CFF21CAx        Rx   d 8 02 00 80 0C 3F 3C 00 10
 0.045336 1  18F100D0x       Rx   d 8 0C FF FF FF FF FF FF FF
 0.051234 1  18F100F3x       Rx   d 8 03 29 7D 15 E3 FA 14 00
 0.052049 1  18F102F3x       Rx   d 8 0F D1 0F CA 13 0C 00 07
 0.053262 1  18F106F3x       Rx   d 8 45 E0 FC FF FF FF FF FF
 0.054501 1  18F107F3x       Rx   d 8 38 A4 27 10 01 6C 00 00
 0.056297 1  18F108F3x       Rx   d 8 00 00 00 00 00 00 00 00
 0.056900 1  CFF21CAx        Rx   d 8 03 00 80 0C 3F 3C 00 10
 0.057441 1  18F155F3x       Rx   d 8 35 33 33 33 33 36 35 00
 0.058278 1  18F156F3x       Rx   d 8 00 00 00 00 00 00 00 00
 0.059220 1  18F157F3x       Rx   d 8 00 00 00 00 00 00 00 00
 0.060127 1  18F158F3x       Rx   d 8 00 00 00 00 00 00 00 00
 0.060963 1  18F159F3x       Rx   d 8 00 00 00 00 00 00 00 00
 0.061898 1  18F15AF3x       Rx   d 8 00 00 00 00 00 00 00 00
 0.062751 1  18F15BF3x       Rx   d 7 00 00 00 00 00 00 00
 0.063611 1  18F15CF3x       Rx   d 8 00 00 00 00 00 00 00 00
 0.064503 1  18F15DF3x       Rx   d 8 00 00 00 00 00 00 00 00
 0.065355 1  18F15EF3x       Rx   d 8 00 00 00 00 00 00 00 00
 0.068457 1  CFF21CAx        Rx   d 8 03 00 80 0C 3F 3C 00 10
 0.069053 1  18F100D0x       Rx   d 8 0C FF FF FF FF FF FF FF
 0.080548 1  CFF21CAx        Rx   d 8 03 00 80 0C 3F 3C 00 10
 0.088960 1  18FF2112x       Rx   d 8 01 00 00 00 00 00 00 00
 0.092718 1  CFF21CAx        Rx   d 8 02 00 80 0C 3F 3C 00 10
 0.093157 1  18F100D0x       Rx   d 8 0C FF FF FF FF FF FF FF
 0.104626 1  CFF21CAx        Rx   d 8 02 00 80 0C 3F 3C 00 10
 0.114808 1  18F104F3x       Rx   d 8 36 33 06 02 03 FF FF FF
 0.115692 1  18F113F3x       Rx   d 8 0F CC 0F CD 0F CD 0F CD
 0.116572 1  18F114F3x       Rx   d 8 0F CC 0F CB 0F CE 0F CD
 0.117122 1  CFF21CAx        Rx   d 8 02 00 80 0C 3F 3C 00 10
 0.117688 1  18F100D0x       Rx   d 8 0C FF FF FF FF FF FF FF
 0.118200 1  18F115F3x       Rx   d 8 0F CB 0F CB 0F CB 0F CA
 0.119104 1  18F116F3x       Rx   d 8 0F CF 0F CD 0F D0 0F D0
 0.120017 1  18F117F3x       Rx   d 8 0F CC 0F CD 0F D1 0F D0
 0.120982 1  18F118F3x       Rx   d 8 00 00 00 00 00 00 00 00
 0.122079 1  18F119F3x       Rx   d 8 00 00 00 00 00 00 00 00
 0.123005 1  18F11AF3x       Rx   d 8 00 00 00 00 00 00 00 00
 0.124116 1  18F11BF3x       Rx   d 8 00 00 00 00 00 00 00 00
 0.125150 1  18F11CF3x       Rx   d 8 00 00 00 00 00 00 00 00
 0.126103 1  18F11DF3x       Rx   d 8 00 00 00 00 00 00 00 00
 0.127250 1  18F11EF3x       Rx   d 8 00 00 00 00 00 00 00 00
 0.128206 1  18F11FF3x       Rx   d 8 00 00 00 00 00 00 00 00
 0.128872 1  CFF21CAx        Rx   d 8 02 00 80 0C 3F 3C 00 10
 0.129345 1  18F120F3x       Rx   d 8 00 00 00 00 00 00 00 00
 0.130402 1  18F121F3x       Rx   d 8 00 00 00 00 00 00 00 00
 0.131268 1  18F122F3x       Rx   d 8 00 00 00 00 00 00 00 00
 0.132330 1  18F123F3x       Rx   d 8 00 00 00 00 00 00 00 00
 0.133131 1  18F124F3x       Rx   d 8 00 00 00 00 00 00 00 00
 0.134164 1  18F125F3x       Rx   d 8 00 00 00 00 00 00 00 00
 0.135392 1  18F126F3x       Rx   d 8 00 00 00 00 00 00 00 00
 0.136322 1  18F127F3x       Rx   d 8 00 00 00 00 00 00 00 00
 0.137391 1  18F128F3x       Rx   d 8 00 00 00 00 00 00 00 00
 0.138128 1  18F129F3x       Rx   d 8 00 00 00 00 00 00 00 00
 0.138948 1  18F12AF3x       Rx   d 8 00 00 00 00 00 00 00 00
 0.140170 1  18F12BF3x       Rx   d 8 00 00 00 00 00 00 00 00
 0.141073 1  18F12CF3x       Rx   d 8 00 00 00 00 00 00 00 00
 0.141344 1  CFF21CAx        Rx   d 8 02 00 80 0C 3F 3C 00 10
 0.142003 1  18F100D0x       Rx   d 8 0C FF FF FF FF FF FF FF
 0.142581 1  18F12DF3x       Rx   d 8 00 00 00 00 00 00 00 00
 0.143700 1  18F12EF3x       Rx   d 8 00 00 00 00 00 00 00 00
 0.144345 1  18F12FF3x       Rx   d 8 00 00 00 00 00 00 00 00
 0.145408 1  18F130F3x       Rx   d 8 00 00 00 00 00 00 00 00
 0.146372 1  18F131F3x       Rx   d 8 00 00 00 00 00 00 00 00
 0.147154 1  18F132F3x       Rx   d 8 00 00 00 00 00 00 00 00
 0.148111 1  18F133F3x       Rx   d 8 00 00 00 00 00 00 00 00
 0.149057 1  18F134F3x       Rx   d 8 00 00 00 00 00 00 00 00
 0.149840 1  18F135F3x       Rx   d 8 00 00 00 00 00 00 00 00
 0.150617 1  18F136F3x       Rx   d 8 00 00 00 00 00 00 00 00
 0.151468 1  18F100F3x       Rx   d 8 03 29 7D 15 E3 FA 14 00
 0.152321 1  18F102F3x       Rx   d 8 0F D1 0F CA 13 0C 00 07
 0.152906 1  CFF21CAx        Rx   d 8 02 00 80 0C 3F 3C 00 10
 0.153588 1  18F106F3x       Rx   d 8 45 E0 FC FF FF FF FF FF
 0.155364 1  18F107F3x       Rx   d 8 38 A4 27 10 01 6C 00 00
 0.157100 1  18F108F3x       Rx   d 8 00 00 00 00 00 00 00 00
 0.158107 1  18F137F3x       Rx   d 8 00 00 00 00 00 00 00 00
 0.159008 1  18F138F3x       Rx   d 8 00 00 00 00 00 00 00 00
 0.159913 1  18F139F3x       Rx   d 8 00 00 00 00 00 00 00 00
 0.160765 1  18F13AF3x       Rx   d 8 00 00 00 00 00 00 00 00
 0.161765 1  18F13BF3x       Rx   d 8 00 00 00 00 00 00 00 00
 0.162380 1  18F13CF3x       Rx   d 8 00 00 00 00 00 00 00 00
 0.163361 1  18F155F3x       Rx   d 8 35 33 33 33 33 36 35 00
 0.164219 1  18F156F3x       Rx   d 8 00 00 00 00 00 00 00 00
 0.164998 1  CFF21CAx        Rx   d 8 02 00 80 0C 3F 3C 00 10
 0.165494 1  18F157F3x       Rx   d 8 00 00 00 00 00 00 00 00
 0.166385 1  18F158F3x       Rx   d 8 00 00 00 00 00 00 00 00
 0.167231 1  18F159F3x       Rx   d 8 00 00 00 00 00 00 00 00
 0.168142 1  18F15AF3x       Rx   d 8 00 00 00 00 00 00 00 00
 0.169022 1  18F100D0x       Rx   d 8 0C FF FF FF FF FF FF FF
 0.169491 1  18F15BF3x       Rx   d 7 00 00 00 00 00 00 00
 0.170378 1  18F15CF3x       Rx   d 8 00 00 00 00 00 00 00 00
 0.171270 1  18F15DF3x       Rx   d 8 00 00 00 00 00 00 00 00
 0.172106 1  18F15EF3x       Rx   d 8 00 00 00 00 00 00 00 00
 0.177245 1  CFF21CAx        Rx   d 8 02 00 80 0C 3F 3C 00 10
 0.186242 1  18FF2112x       Rx   d 8 01 00 00 00 00 00 00 00
 0.189117 1  CFF21CAx        Rx   d 8 02 00 80 0C 3F 3C 00 10
 0.193299 1  18F100D0x       Rx   d 8 0C FF FF FF FF FF FF FF
 0.201249 1  CFF21CAx        Rx   d 8 02 00 80 0C 3F 3C 00 10
 0.213419 1  CFF21CAx        Rx   d 8 02 00 80 0C 3F 3C 00 10
 0.217435 1  18F100D0x       Rx   d 8 0C FF FF FF FF FF FF FF
 0.225293 1  CFF21CAx        Rx   d 8 02 00 80 0C 3F 3C 00 10
 0.237719 1  CFF21CAx        Rx   d 8 02 00 80 0C 3F 3C 00 10
 0.241353 1  18F100D0x       Rx   d 8 0C FF FF FF FF FF FF FF
 0.260149 1  CFF21CAx        Rx   d 8 02 00 80 0C 3F 3C 00 10
 0.260455 1  18F100F3x       Rx   d 8 03 29 7D 15 E3 FA 14 00
 0.260689 1  18F102F3x       Rx   d 8 0F D1 0F CA 13 0C 00 07
 0.260907 1  18F106F3x       Rx   d 8 45 E0 FC FF FF FF FF FF
 0.261119 1  18F107F3x       Rx   d 8 38 A4 27 10 01 6C 00 00
 0.261329 1  18F108F3x       Rx   d 8 00 00 00 00 00 00 00 00
 0.261533 1  18F155F3x       Rx   d 8 35 33 33 33 33 36 35 00
 0.261739 1  18F156F3x       Rx   d 8 00 00 00 00 00 00 00 00
 0.261941 1  18F157F3x       Rx   d 8 00 00 00 00 00 00 00 00
 0.262139 1  18F158F3x       Rx   d 8 00 00 00 00 00 00 00 00
 0.262341 1  18F159F3x       Rx   d 8 00 00 00 00 00 00 00 00
 0.262540 1  CFF21CAx        Rx   d 8 02 00 80 0C 3F 3C 00 10
 0.262742 1  18F15AF3x       Rx   d 8 00 00 00 00 00 00 00 00
 0.262932 1  18F15BF3x       Rx   d 7 00 00 00 00 00 00 00
 0.264037 1  18F15CF3x       Rx   d 8 00 00 00 00 00 00 00 00
 0.264658 1  18F15DF3x       Rx   d 8 00 00 00 00 00 00 00 00
 0.265501 1  18F100D0x       Rx   d 8 0C FF FF FF FF FF FF FF
 0.265844 1  18F15EF3x       Rx   d 8 00 00 00 00 00 00 00 00
 0.273856 1  CFF21CAx        Rx   d 8 02 00 80 0C 3F 3C 00 10
 0.283799 1  18FF2112x       Rx   d 8 01 00 00 00 00 00 00 00
 0.285425 1  CFF21CAx        Rx   d 8 02 00 80 0C 3F 3C 00 10
 0.289650 1  18F100D0x       Rx   d 8 0C FF FF FF FF FF FF FF
 0.297540 1  CFF21CAx        Rx   d 8 02 00 80 0C 3F 3C 00 10
 0.309595 1  CFF21CAx        Rx   d 8 02 00 80 0C 3F 3C 00 10
 0.313739 1  18F100D0x       Rx   d 8 0C FF FF FF FF FF FF FF
 0.321477 1  CFF21CAx        Rx   d 8 02 00 80 0C 3F 3C 00 10
 0.333554 1  CFF21CAx        Rx   d 8 02 00 80 0C 3F 3C 00 10
 0.337834 1  18F100D0x       Rx   d 8 0C FF FF FF FF FF FF FF
 0.346116 1  CFF21CAx        Rx   d 8 02 00 80 0C 3F 3C 00 10
 0.351301 1  18F100F3x       Rx   d 8 03 29 7D 15 E3 FA 14 00
 0.352137 1  18F102F3x       Rx   d 8 0F D1 0F CA 13 0C 00 07
 0.353391 1  18F106F3x       Rx   d 8 45 E0 FC FF FF FF FF FF
 0.354664 1  18F107F3x       Rx   d 8 38 A4 27 10 01 6C 00 00
 0.356481 1  18F108F3x       Rx   d 8 00 00 00 00 00 00 00 00
 0.357410 1  18F155F3x       Rx   d 8 35 33 33 33 33 36 35 00
 0.357891 1  CFF21CAx        Rx   d 8 02 00 80 0C 3F 3C 00 10
 0.358503 1  18F156F3x       Rx   d 8 00 00 00 00 00 00 00 00
 0.359596 1  18F157F3x       Rx   d 8 00 00 00 00 00 00 00 00
 0.360382 1  18F158F3x       Rx   d 8 00 00 00 00 00 00 00 00
 0.361416 1  18F159F3x       Rx   d 8 00 00 00 00 00 00 00 00
 0.361772 1  18F100D0x       Rx   d 8 0C FF FF FF FF FF FF FF
 0.362557 1  18F15AF3x       Rx   d 8 00 00 00 00 00 00 00 00
 0.363243 1  18F15BF3x       Rx   d 7 00 00 00 00 00 00 00
 0.364238 1  18F15CF3x       Rx   d 8 00 00 00 00 00 00 00 00
 0.365643 1  18F15DF3x       Rx   d 8 00 00 00 00 00 00 00 00
 0.366137 1  18F15EF3x       Rx   d 8 00 00 00 00 00 00 00 00
 0.370033 1  CFF21CAx        Rx   d 8 02 00 80 0C 3F 3C 00 10
 0.381146 1  18FF2112x       Rx   d 8 01 00 00 00 00 00 00 00
 0.382070 1  CFF21CAx        Rx   d 8 01 00 80 0C 3F 3C 00 10
 0.390034 1  18F100D0x       Rx   d 8 0C FF FF FF FF FF FF FF
 0.394094 1  CFF21CAx        Rx   d 8 01 00 80 0C 3F 3C 00 10
 0.406361 1  CFF21CAx        Rx   d 8 01 00 80 0C 3F 3C 00 10
 0.410391 1  18F100D0x       Rx   d 8 0C FF FF FF FF FF FF FF
 0.418011 1  CFF21CAx        Rx   d 8 01 00 80 0C 3F 3C 00 10
 0.430161 1  CFF21CAx        Rx   d 8 01 00 80 0C 3F 3C 00 10
 0.438520 1  18F100D0x       Rx   d 8 0C FF FF FF FF FF FF FF
 0.442469 1  CFF21CAx        Rx   d 8 02 00 80 0C 3F 3C 00 10
 0.451311 1  18F100F3x       Rx   d 8 03 29 7D 15 E3 FA 14 00
 0.452150 1  18F102F3x       Rx   d 8 0F D1 0F CA 13 0C 00 07
 0.453476 1  18F106F3x       Rx   d 8 45 E0 FC FF FF FF FF FF
 0.454164 1  CFF21CAx        Rx   d 8 02 00 80 0C 3F 3C 00 10
 0.454741 1  18F107F3x       Rx   d 8 38 A4 27 10 01 6C 00 00
 0.456573 1  18F108F3x       Rx   d 8 00 00 00 00 00 00 00 00
 0.457441 1  18F155F3x       Rx   d 8 35 33 33 33 33 36 35 00
 0.458407 1  18F156F3x       Rx   d 8 00 00 00 00 00 00 00 00
 0.459292 1  18F157F3x       Rx   d 8 00 00 00 00 00 00 00 00
 0.460383 1  18F158F3x       Rx   d 8 00 00 00 00 00 00 00 00
 0.461126 1  18F159F3x       Rx   d 8 00 00 00 00 00 00 00 00
 0.461965 1  18F15AF3x       Rx   d 8 00 00 00 00 00 00 00 00
 0.462570 1  18F100D0x       Rx   d 8 0C FF FF FF FF FF FF FF
 0.463095 1  18F15BF3x       Rx   d 7 00 00 00 00 00 00 00
 0.491002 1  18F15CF3x       Rx   d 8 00 00 00 00 00 00 00 00
 0.491216 1  18F15DF3x       Rx   d 8 00 00 00 00 00 00 00 00
 0.491406 1  18F15EF3x       Rx   d 8 00 00 00 00 00 00 00 00
 0.491595 1  CFF21CAx        Rx   d 8 02 00 80 0C 3F 3C 00 10
 0.491781 1  18FF2112x       Rx   d 8 01 00 00 00 00 00 00 00
 0.492034 1  CFF21CAx        Rx   d 8 02 00 80 0C 3F 3C 00 10
 0.492236 1  18F100D0x       Rx   d 8 0C FF FF FF FF FF FF FF
 0.492421 1  CFF21CAx        Rx   d 8 02 00 80 0C 3F 3C 00 10
 0.502541 1  CFF21CAx        Rx   d 8 02 00 80 0C 3F 3C 00 10
 0.514652 1  CFF21CAx        Rx   d 8 03 00 80 0C 3F 3C 00 10
 0.515187 1  18F100D0x       Rx   d 8 0C FF FF FF FF FF FF FF
 0.526467 1  CFF21CAx        Rx   d 8 03 00 80 0C 3F 3C 00 10
 0.534320 1  18F100D0x       Rx   d 8 0C FF FF FF FF FF FF FF
 0.538389 1  CFF21CAx        Rx   d 8 02 00 80 0C 3F 3C 00 10
 0.550640 1  CFF21CAx        Rx   d 8 02 00 80 0C 3F 3C 00 10
 0.551268 1  18F100F3x       Rx   d 8 03 29 7D 15 E3 FA 14 00
 0.552219 1  18F102F3x       Rx   d 8 0F D1 0F CA 13 0C 00 07
 0.553409 1  18F106F3x       Rx   d 8 45 E0 FC FF FF FF FF FF
 0.554565 1  18F107F3x       Rx   d 8 38 A4 27 10 01 6C 00 00
 0.556331 1  18F108F3x       Rx   d 8 00 00 00 00 00 00 00 00
 0.557231 1  18F155F3x       Rx   d 8 35 33 33 33 33 36 35 00
 0.558114 1  18F156F3x       Rx   d 8 00 00 00 00 00 00 00 00
 0.558994 1  18F157F3x       Rx   d 8 00 00 00 00 00 00 00 00
 0.559886 1  18F158F3x       Rx   d 8 00 00 00 00 00 00 00 00
 0.560912 1  18F159F3x       Rx   d 8 00 00 00 00 00 00 00 00
 0.561855 1  18F15AF3x       Rx   d 8 00 00 00 00 00 00 00 00
 0.562420 1  CFF21CAx        Rx   d 8 02 00 80 0C 3F 3C 00 10
 0.563003 1  18F100D0x       Rx   d 8 0C FF FF FF FF FF FF FF
 0.563492 1  18F15BF3x       Rx   d 7 00 00 00 00 00 00 00
 0.564356 1  18F15CF3x       Rx   d 8 00 00 00 00 00 00 00 00
 0.565242 1  18F15DF3x       Rx   d 8 00 00 00 00 00 00 00 00
 0.566135 1  18F15EF3x       Rx   d 8 00 00 00 00 00 00 00 00
 0.574803 1  CFF21CAx        Rx   d 8 02 00 80 0C 3F 3C 00 10
 0.575346 1  18FF2112x       Rx   d 8 01 00 00 00 00 00 00 00
 0.586574 1  CFF21CAx        Rx   d 8 02 00 80 0C 3F 3C 00 10
 0.587166 1  18F100D0x       Rx   d 8 0C FF FF FF FF FF FF FF
 0.587723 1  18FECACAx       Rx   d 8 00 00 00 00 00 00 FF FF
 0.599044 1  CFF21CAx        Rx   d 8 03 00 80 0C 3F 3C 00 10
 0.611042 1  CFF21CAx        Rx   d 8 03 00 80 0C 3F 3C 00 10
 0.611640 1  18F100D0x       Rx   d 8 0C FF FF FF FF FF FF FF
 0.623055 1  CFF21CAx        Rx   d 8 03 00 80 0C 3F 3C 00 10
 0.635058 1  CFF21CAx        Rx   d 8 03 00 80 0C 3F 3C 00 10
 0.639110 1  18F100D0x       Rx   d 8 0C FF FF FF FF FF FF FF
 0.647077 1  CFF21CAx        Rx   d 8 03 00 80 0C 3F 3C 00 10
 0.651309 1  18F100F3x       Rx   d 8 03 29 7D 15 E3 FA 14 00
 0.652063 1  18F102F3x       Rx   d 8 0F D1 0F CA 13 0C 00 07
 0.653388 1  18F106F3x       Rx   d 8 45 E0 FC FF FF FF FF FF
 0.654891 1  18F107F3x       Rx   d 8 38 A4 27 10 01 6C 00 00
 0.656623 1  18F108F3x       Rx   d 8 00 00 00 00 00 00 00 00
 0.657561 1  18F155F3x       Rx   d 8 35 33 33 33 33 36 35 00
 0.658481 1  18F156F3x       Rx   d 8 00 00 00 00 00 00 00 00
 0.659213 1  18F157F3x       Rx   d 8 00 00 00 00 00 00 00 00
 0.659750 1  CFF21CAx        Rx   d 8 03 00 80 0C 3F 3C 00 10
 0.660265 1  18F158F3x       Rx   d 8 00 00 00 00 00 00 00 00
 0.661469 1  18F159F3x       Rx   d 8 00 00 00 00 00 00 00 00
 0.662314 1  18F15AF3x       Rx   d 8 00 00 00 00 00 00 00 00
 0.663205 1  18F100D0x       Rx   d 8 0C FF FF FF FF FF FF FF
 0.663545 1  18F15BF3x       Rx   d 7 00 00 00 00 00 00 00
 0.664549 1  18F15CF3x       Rx   d 8 00 00 00 00 00 00 00 00
 0.665483 1  18F15DF3x       Rx   d 8 00 00 00 00 00 00 00 00
 0.667460 1  18F15EF3x       Rx   d 8 00 00 00 00 00 00 00 00
 0.671243 1  CFF21CAx        Rx   d 8 02 00 80 0C 3F 3C 00 10
 0.672676 1  18FF2112x       Rx   d 8 01 00 00 00 00 00 00 00
 0.683530 1  CFF21CAx        Rx   d 8 02 00 80 0C 3F 3C 00 10
 0.687008 1  18F100D0x       Rx   d 8 0C FF FF FF FF FF FF FF
 0.720950 1  CFF21CAx        Rx   d 8 01 00 80 0C 3F 3C 00 10
 0.721174 1  CFF21CAx        Rx   d 8 01 00 80 0C 3F 3C 00 10
 0.721374 1  18F100D0x       Rx   d 8 0C FF FF FF FF FF FF FF
 0.721569 1  CFF21CAx        Rx   d 8 01 00 80 0C 3F 3C 00 10
 0.731319 1  CFF21CAx        Rx   d 8 02 00 80 0C 3F 3C 00 10
 0.735456 1  18F100D0x       Rx   d 8 0C FF FF FF FF FF FF FF
 0.743351 1  CFF21CAx        Rx   d 8 02 00 80 0C 3F 3C 00 10
 0.751337 1  18F100F3x       Rx   d 8 03 29 7D 15 E3 FA 14 00
 0.752152 1  18F102F3x       Rx   d 8 0F D2 0F CA 13 0C 00 08
 0.753543 1  18F106F3x       Rx   d 8 45 E0 FC FF FF FF FF FF
 0.754990 1  18F107F3x       Rx   d 8 38 A4 27 10 01 6C 00 00
 0.755804 1  CFF21CAx        Rx   d 8 02 00 80 0C 3F 3C 00 10
 0.756402 1  18F108F3x       Rx   d 8 00 00 00 00 00 00 00 00
 0.757250 1  18F155F3x       Rx   d 8 35 33 33 33 33 36 35 00
 0.758133 1  18F156F3x       Rx   d 8 00 00 00 00 00 00 00 00
 0.759050 1  18F157F3x       Rx   d 8 00 00 00 00 00 00 00 00
 0.759939 1  18F158F3x       Rx   d 8 00 00 00 00 00 00 00 00
 0.760857 1  18F159F3x       Rx   d 8 00 00 00 00 00 00 00 00
 0.761782 1  18F15AF3x       Rx   d 8 00 00 00 00 00 00 00 00
 0.762593 1  18F15BF3x       Rx   d 7 00 00 00 00 00 00 00
 0.763251 1  18F100D0x       Rx   d 8 0C FF FF FF FF FF FF FF
 0.763834 1  18F15CF3x       Rx   d 8 00 00 00 00 00 00 00 00
 0.765005 1  18F15DF3x       Rx   d 8 00 00 00 00 00 00 00 00
 0.765879 1  18F15EF3x       Rx   d 8 00 00 00 00 00 00 00 00
 0.767264 1  CFF21CAx        Rx   d 8 02 00 80 0C 3F 3C 00 10
 0.769748 1  18FF2112x       Rx   d 8 01 00 00 00 00 00 00 00
 0.779358 1  CFF21CAx        Rx   d 8 02 00 80 0C 3F 3C 00 10
 0.787406 1  18F100D0x       Rx   d 8 0C FF FF FF FF FF FF FF
 0.791628 1  CFF21CAx        Rx   d 8 02 00 80 0C 3F 3C 00 10
 0.804152 1  CFF21CAx        Rx   d 8 02 00 80 0C 3F 3C 00 10
 0.811845 1  18F100D0x       Rx   d 8 0C FF FF FF FF FF FF FF
 0.815836 1  CFF21CAx        Rx   d 8 02 00 80 0C 3F 3C 00 10
 0.828308 1  CFF21CAx        Rx   d 8 01 00 80 0C 3F 3C 00 10
 0.835745 1  18F100D0x       Rx   d 8 0C FF FF FF FF FF FF FF
 0.839828 1  CFF21CAx        Rx   d 8 01 00 80 0C 3F 3C 00 10
 0.851323 1  18F100F3x       Rx   d 8 03 29 7D 15 E3 FA 14 00
 0.851827 1  CFF21CAx        Rx   d 8 01 00 80 0C 3F 3C 00 10
 0.852299 1  18F102F3x       Rx   d 8 0F D2 0F CA 13 0C 00 08
 0.853635 1  18F106F3x       Rx   d 8 45 E0 FC FF FF FF FF FF
 0.855346 1  18F107F3x       Rx   d 8 38 A4 27 10 01 6C 00 00
 0.857052 1  18F108F3x       Rx   d 8 00 00 00 00 00 00 00 00
 0.858129 1  18F155F3x       Rx   d 8 35 33 33 33 33 36 35 00
 0.859049 1  18F156F3x       Rx   d 8 00 00 00 00 00 00 00 00
 0.859819 1  18F157F3x       Rx   d 8 00 00 00 00 00 00 00 00
 0.860286 1  18F100D0x       Rx   d 8 0C FF FF FF FF FF FF FF
 0.860831 1  18F158F3x       Rx   d 8 00 00 00 00 00 00 00 00
 0.861762 1  18F159F3x       Rx   d 8 00 00 00 00 00 00 00 00
 0.862647 1  18F15AF3x       Rx   d 8 00 00 00 00 00 00 00 00
 0.863447 1  18F15BF3x       Rx   d 7 00 00 00 00 00 00 00
 0.863990 1  CFF21CAx        Rx   d 8 01 00 80 0C 3F 3C 00 10
 0.864530 1  18F15CF3x       Rx   d 8 00 00 00 00 00 00 00 00
 0.865566 1  18F15DF3x       Rx   d 8 00 00 00 00 00 00 00 00
 0.866169 1  18F15EF3x       Rx   d 8 00 00 00 00 00 00 00 00
 0.867133 1  18FF2112x       Rx   d 8 01 00 00 00 00 00 00 00
 0.876551 1  CFF21CAx        Rx   d 8 01 00 80 0C 3F 3C 00 10
 0.887996 1  CFF21CAx        Rx   d 8 01 00 80 0C 3F 3C 00 10
 0.888396 1  18F100D0x       Rx   d 8 0C FF FF FF FF FF FF FF
 0.899993 1  CFF21CAx        Rx   d 8 02 00 80 0C 3F 3C 00 10
 0.912135 1  CFF21CAx        Rx   d 8 02 00 80 0C 3F 3C 00 10
 0.912498 1  18F100D0x       Rx   d 8 0C FF FF FF FF FF FF FF
 0.949601 1  CFF21CAx        Rx   d 8 02 00 80 0C 3F 3C 00 10
 0.949842 1  CFF21CAx        Rx   d 8 02 00 80 0C 3F 3C 00 10
 0.950040 1  18F100D0x       Rx   d 8 0C FF FF FF FF FF FF FF
 0.950231 1  CFF21CAx        Rx   d 8 02 00 80 0C 3F 3C 00 10
 0.951142 1  18F100F3x       Rx   d 8 03 29 7D 15 E3 FA 14 00
 0.952077 1  18F102F3x       Rx   d 8 0F D2 0F CA 13 0C 00 08
 0.953279 1  18F106F3x       Rx   d 8 45 E0 FC FF FF FF FF FF
 0.954592 1  18F107F3x       Rx   d 8 38 A4 27 10 01 6C 00 00
 0.956451 1  18F108F3x       Rx   d 8 00 00 00 00 00 00 00 00
 0.957461 1  18F155F3x       Rx   d 8 35 33 33 33 33 36 35 00
 0.958339 1  18F156F3x       Rx   d 8 00 00 00 00 00 00 00 00
 0.959235 1  18F157F3x       Rx   d 8 00 00 00 00 00 00 00 00
 0.960248 1  18F158F3x       Rx   d 8 00 00 00 00 00 00 00 00
 0.960544 1  CFF21CAx        Rx   d 8 02 00 80 0C 3F 3C 00 10
 0.961355 1  18F100D0x       Rx   d 8 0C FF FF FF FF FF FF FF
 0.961692 1  18F159F3x       Rx   d 8 00 00 00 00 00 00 00 00
 0.962618 1  18F15AF3x       Rx   d 8 00 00 00 00 00 00 00 00
 0.963460 1  18F15BF3x       Rx   d 7 00 00 00 00 00 00 00
 0.964467 1  18FF2112x       Rx   d 8 01 00 00 00 00 00 00 00
 0.964818 1  18F15CF3x       Rx   d 8 00 00 00 00 00 00 00 00
 0.965814 1  18F15DF3x       Rx   d 8 00 00 00 00 00 00 00 00
 0.966557 1  18F15EF3x       Rx   d 8 00 00 00 00 00 00 00 00
 0.972906 1  CFF21CAx        Rx   d 8 02 00 80 0C 3F 3C 00 10
 0.984422 1  CFF21CAx        Rx   d 8 02 00 80 0C 3F 3C 00 10
 0.984805 1  18F100D0x       Rx   d 8 0C FF FF FF FF FF FF FF
 0.996722 1  CFF21CAx        Rx   d 8 02 00 80 0C 3F 3C 00 10
 1.008289 1  CFF21CAx        Rx   d 8 02 00 80 0C 3F 3C 00 10
 1.008797 1  18F100D0x       Rx   d 8 0C FF FF FF FF FF FF FF
 1.020452 1  CFF21CAx        Rx   d 8 03 00 80 0C 3F 3C 00 10
 1.032626 1  CFF21CAx        Rx   d 8 03 00 80 0C 3F 3C 00 10
 1.037071 1  18F100D0x       Rx   d 8 0C FF FF FF FF FF FF FF
 1.044735 1  CFF21CAx        Rx   d 8 03 00 80 0C 3F 3C 00 10
 1.051323 1  18F100F3x       Rx   d 8 03 29 7D 15 E3 FA 14 00
 1.052110 1  18F102F3x       Rx   d 8 0F D2 0F CA 13 0C 00 08
 1.053454 1  18F106F3x       Rx   d 8 45 E0 FC FF FF FF FF FF
 1.054833 1  18F107F3x       Rx   d 8 38 A4 27 10 01 6C 00 00
 1.056604 1  18F108F3x       Rx   d 8 00 00 00 00 00 00 00 00
 1.057058 1  CFF21CAx        Rx   d 8 03 00 80 0C 3F 3C 00 10
 1.057662 1  18F155F3x       Rx   d 8 35 33 33 33 33 36 35 00
 1.058755 1  18F156F3x       Rx   d 8 00 00 00 00 00 00 00 00
 1.059375 1  18F157F3x       Rx   d 8 00 00 00 00 00 00 00 00
 1.060488 1  18F158F3x       Rx   d 8 00 00 00 00 00 00 00 00
 1.061118 1  18F100D0x       Rx   d 8 0C FF FF FF FF FF FF FF
 1.061634 1  18F159F3x       Rx   d 8 00 00 00 00 00 00 00 00
 1.062313 1  18FF2112x       Rx   d 8 01 00 00 00 00 00 00 00
 1.062789 1  18F15AF3x       Rx   d 8 00 00 00 00 00 00 00 00
 1.063798 1  18F15BF3x       Rx   d 7 00 00 00 00 00 00 00
 1.064517 1  18F15CF3x       Rx   d 8 00 00 00 00 00 00 00 00
 1.065556 1  18F15DF3x       Rx   d 8 00 00 00 00 00 00 00 00
 1.066229 1  18F15EF3x       Rx   d 8 00 00 00 00 00 00 00 00
 1.069280 1  CFF21CAx        Rx   d 8 03 00 80 0C 3F 3C 00 10
 1.080742 1  CFF21CAx        Rx   d 8 03 00 80 0C 3F 3C 00 10
 1.084759 1  18F100D0x       Rx   d 8 0C FF FF FF FF FF FF FF
 1.092720 1  CFF21CAx        Rx   d 8 03 00 80 0C 3F 3C 00 10
 1.104894 1  CFF21CAx        Rx   d 8 03 00 80 0C 3F 3C 00 10
 1.109052 1  18F100D0x       Rx   d 8 0C FF FF FF FF FF FF FF
 1.114869 1  18F104F3x       Rx   d 8 36 33 06 02 03 FF FF FF
 1.115969 1  18F113F3x       Rx   d 8 0F CC 0F CD 0F CD 0F CD
 1.116489 1  18F114F3x       Rx   d 8 0F CC 0F CB 0F CE 0F CD
 1.117140 1  CFF21CAx        Rx   d 8 03 00 80 0C 3F 3C 00 10
 1.117700 1  18F115F3x       Rx   d 8 0F CB 0F CB 0F CB 0F CA
 1.118614 1  18F116F3x       Rx   d 8 0F CF 0F CD 0F D0 0F D1
 1.119417 1  18F117F3x       Rx   d 8 0F CC 0F CD 0F D2 0F D0
 1.120367 1  18F118F3x       Rx   d 8 00 00 00 00 00 00 00 00
 1.121465 1  18F119F3x       Rx   d 8 00 00 00 00 00 00 00 00
 1.122333 1  18F11AF3x       Rx   d 8 00 00 00 00 00 00 00 00
 1.123244 1  18F11BF3x       Rx   d 8 00 00 00 00 00 00 00 00
 1.124437 1  18F11CF3x       Rx   d 8 00 00 00 00 00 00 00 00
 1.125570 1  18F11DF3x       Rx   d 8 00 00 00 00 00 00 00 00
 1.126468 1  18F11EF3x       Rx   d 8 00 00 00 00 00 00 00 00
 1.127414 1  18F11FF3x       Rx   d 8 00 00 00 00 00 00 00 00
 1.128481 1  18F120F3x       Rx   d 8 00 00 00 00 00 00 00 00
 1.128754 1  CFF21CAx        Rx   d 8 03 00 80 0C 3F 3C 00 10
 1.129545 1  18F121F3x       Rx   d 8 00 00 00 00 00 00 00 00
 1.130384 1  18F122F3x       Rx   d 8 00 00 00 00 00 00 00 00
 1.131278 1  18F123F3x       Rx   d 8 00 00 00 00 00 00 00 00
 1.132314 1  18F124F3x       Rx   d 8 00 00 00 00 00 00 00 00
 1.133017 1  18F125F3x       Rx   d 8 00 00 00 00 00 00 00 00
 1.133707 1  18F100D0x       Rx   d 8 0C FF FF FF FF FF FF FF
 1.134189 1  18F126F3x       Rx   d 8 00 00 00 00 00 00 00 00
 1.135429 1  18F127F3x       Rx   d 8 00 00 00 00 00 00 00 00
 1.136420 1  18F128F3x       Rx   d 8 00 00 00 00 00 00 00 00
 1.137366 1  18F129F3x       Rx   d 8 00 00 00 00 00 00 00 00
 1.138213 1  18F12AF3x       Rx   d 8 00 00 00 00 00 00 00 00
 1.139070 1  18F12BF3x       Rx   d 8 00 00 00 00 00 00 00 00
 1.140011 1  18F12CF3x       Rx   d 8 00 00 00 00 00 00 00 00
 1.140931 1  CFF21CAx        Rx   d 8 03 00 80 0C 3F 3C 00 10
 1.141417 1  18F12DF3x       Rx   d 8 00 00 00 00 00 00 00 00
 1.142464 1  18F12EF3x       Rx   d 8 00 00 00 00 00 00 00 00
 1.143373 1  18F12FF3x       Rx   d 8 00 00 00 00 00 00 00 00
 1.144312 1  18F130F3x       Rx   d 8 00 00 00 00 00 00 00 00
 1.145511 1  18F131F3x       Rx   d 8 00 00 00 00 00 00 00 00
 1.146370 1  18F132F3x       Rx   d 8 00 00 00 00 00 00 00 00
 1.147282 1  18F133F3x       Rx   d 8 00 00 00 00 00 00 00 00
 1.148228 1  18F134F3x       Rx   d 8 00 00 00 00 00 00 00 00
 1.149061 1  18F135F3x       Rx   d 8 00 00 00 00 00 00 00 00
 1.149833 1  18F136F3x       Rx   d 8 00 00 00 00 00 00 00 00
 1.150643 1  18F137F3x       Rx   d 8 00 00 00 00 00 00 00 00
