date Sun May 17 16:46:46.678 2026
base hex  timestamps absolute
internal events logged
Begin Triggerblock Sun May 17 16:46:46.697 2026
 0.000000 Start of measurement
 0.000000 1  CFF21CAx        Rx   d 8 32 00 72 17 4B 46 00 24
 0.000926 1  CFF21CAx        Rx   d 8 32 00 76 17 4B 46 00 24
 0.001158 1  18F100D0x       Rx   d 8 0C FF FF FF FF FF FF FF
 0.003586 1  18FF2112x       Rx   d 8 01 00 00 00 00 00 00 00
 0.012883 1  CFF21CAx        Rx   d 8 32 00 7C 17 4B 46 00 24
 0.024349 1  CFF21CAx        Rx   d 8 31 00 81 17 4B 46 00 24
 0.024911 1  18F100D0x       Rx   d 8 0C FF FF FF FF FF FF FF
 0.034028 1  18F100F3x       Rx   d 8 03 12 7E B3 CA FA 14 00
 0.034946 1  18F102F3x       Rx   d 8 0F 5D 0F 55 10 0C 00 08
 0.036190 1  18F106F3x       Rx   d 8 45 E0 FC FF FF FF FF FF
 0.036914 1  CFF21CAx        Rx   d 8 31 00 87 17 4B 46 00 24
 0.037465 1  18F107F3x       Rx   d 8 38 A4 2B 2A 01 62 00 53
 0.039096 1  18F108F3x       Rx   d 8 00 00 00 00 00 00 00 00
 0.039944 1  18F155F3x       Rx   d 8 36 35 35 35 35 38 37 00
 0.040842 1  18F156F3x       Rx   d 8 00 00 00 00 00 00 00 00
 0.041721 1  18F157F3x       Rx   d 8 00 00 00 00 00 00 00 00
 0.042969 1  18F158F3x       Rx   d 8 00 00 00 00 00 00 00 00
 0.043877 1  18F159F3x       Rx   d 8 00 00 00 00 00 00 00 00
 0.044808 1  18F15AF3x       Rx   d 8 00 00 00 00 00 00 00 00
 0.045596 1  18F15BF3x       Rx   d 7 00 00 00 00 00 00 00
 0.046541 1  18F15CF3x       Rx   d 8 00 00 00 00 00 00 00 00
 0.047743 1  18F104F3x       Rx   d 8 38 35 06 02 03 FF FF FF
 0.048258 1  18F113F3x       Rx   d 8 0F 58 0F 58 0F 58 0F 59
 0.048763 1  CFF21CAx        Rx   d 8 31 00 89 17 4B 46 00 24
 0.049278 1  18F114F3x       Rx   d 8 0F 57 0F 56 0F 59 0F 58
 0.050191 1  18F115F3x       Rx   d 8 0F 57 0F 56 0F 56 0F 55
 0.051081 1  18F116F3x       Rx   d 8 0F 5A 0F 57 0F 5A 0F 5D
 0.052031 1  18F117F3x       Rx   d 8 0F 59 0F 5A 0F 5C 0F 5C
 0.052885 1  18F100D0x       Rx   d 8 0C FF FF FF FF FF FF FF
 0.053369 1  18F118F3x       Rx   d 8 00 00 00 00 00 00 00 00
 0.054256 1  18F119F3x       Rx   d 8 00 00 00 00 00 00 00 00
 0.055196 1  18F11AF3x       Rx   d 8 00 00 00 00 00 00 00 00
 0.056118 1  18F11BF3x       Rx   d 8 00 00 00 00 00 00 00 00
 0.056993 1  18F11CF3x       Rx   d 8 00 00 00 00 00 00 00 00
 0.057953 1  18F11DF3x       Rx   d 8 00 00 00 00 00 00 00 00
 0.058885 1  18F11EF3x       Rx   d 8 00 00 00 00 00 00 00 00
 0.059835 1  18F11FF3x       Rx   d 8 00 00 00 00 00 00 00 00
 0.060384 1  CFF21CAx        Rx   d 8 2F 00 8C 17 4B 46 00 24
 0.060979 1  18F120F3x       Rx   d 8 00 00 00 00 00 00 00 00
 0.061853 1  18F121F3x       Rx   d 8 00 00 00 00 00 00 00 00
 0.062956 1  18F122F3x       Rx   d 8 00 00 00 00 00 00 00 00
 0.063869 1  18F123F3x       Rx   d 8 00 00 00 00 00 00 00 00
 0.064854 1  18F124F3x       Rx   d 8 00 00 00 00 00 00 00 00
 0.065704 1  18F125F3x       Rx   d 8 00 00 00 00 00 00 00 00
 0.066638 1  18F126F3x       Rx   d 8 00 00 00 00 00 00 00 00
 0.067607 1  18F127F3x       Rx   d 8 00 00 00 00 00 00 00 00
 0.068547 1  18F128F3x       Rx   d 8 00 00 00 00 00 00 00 00
 0.069562 1  18F129F3x       Rx   d 8 00 00 00 00 00 00 00 00
 0.070375 1  18F12AF3x       Rx   d 8 00 00 00 00 00 00 00 00
 0.071288 1  18F12BF3x       Rx   d 8 00 00 00 00 00 00 00 00
 0.072153 1  18F12CF3x       Rx   d 8 00 00 00 00 00 00 00 00
 0.072700 1  CFF21CAx        Rx   d 8 2F 00 91 17 4B 46 00 24
 0.073267 1  18F12DF3x       Rx   d 8 00 00 00 00 00 00 00 00
 0.074157 1  18F12EF3x       Rx   d 8 00 00 00 00 00 00 00 00
 0.075070 1  18F12FF3x       Rx   d 8 00 00 00 00 00 00 00 00
 0.075880 1  18F130F3x       Rx   d 8 00 00 00 00 00 00 00 00
 0.076804 1  18F131F3x       Rx   d 8 00 00 00 00 00 00 00 00
 0.077338 1  18F100D0x       Rx   d 8 0C FF FF FF FF FF FF FF
 0.077906 1  18F132F3x       Rx   d 8 00 00 00 00 00 00 00 00
 0.078802 1  18F133F3x       Rx   d 8 00 00 00 00 00 00 00 00
 0.080027 1  18F134F3x       Rx   d 8 00 00 00 00 00 00 00 00
 0.080676 1  18F135F3x       Rx   d 8 00 00 00 00 00 00 00 00
 0.081534 1  18F136F3x       Rx   d 8 00 00 00 00 00 00 00 00
 0.082742 1  18F137F3x       Rx   d 8 00 00 00 00 00 00 00 00
 0.083604 1  18F138F3x       Rx   d 8 00 00 00 00 00 00 00 00
 0.084546 1  18F139F3x       Rx   d 8 00 00 00 00 00 00 00 00
 0.085107 1  CFF21CAx        Rx   d 8 2C 00 91 17 4B 46 00 24
 0.085695 1  18F13AF3x       Rx   d 8 00 00 00 00 00 00 00 00
 0.086572 1  18F13BF3x       Rx   d 8 00 00 00 00 00 00 00 00
 0.087451 1  18F13CF3x       Rx   d 8 00 00 00 00 00 00 00 00
 0.088284 1  18F15DF3x       Rx   d 8 00 00 00 00 00 00 00 00
 0.089062 1  18F15EF3x       Rx   d 8 00 00 00 00 00 00 00 00
 0.096913 1  CFF21CAx        Rx   d 8 2C 00 93 17 4B 46 00 24
 0.101068 1  18FF2112x       Rx   d 8 01 00 00 00 00 00 00 00
 0.101445 1  18F100D0x       Rx   d 8 0C FF FF FF FF FF FF FF
 0.108962 1  CFF21CAx        Rx   d 8 2C 00 95 17 4B 46 00 24
 0.120814 1  CFF21CAx        Rx   d 8 2C 00 95 17 4B 46 00 24
 0.124754 1  18F100D0x       Rx   d 8 0C FF FF FF FF FF FF FF
 0.133458 1  CFF21CAx        Rx   d 8 28 00 96 17 4B 46 00 24
 0.134083 1  18F100F3x       Rx   d 8 03 12 7E 8F CA FA 14 00
 0.135195 1  18F102F3x       Rx   d 8 0F 5D 0F 55 10 0C 00 08
 0.136403 1  18F106F3x       Rx   d 8 45 E0 FC FF FF FF FF FF
 0.137682 1  18F107F3x       Rx   d 8 38 A4 2B 2A 01 62 00 53
 0.139436 1  18F108F3x       Rx   d 8 00 00 00 00 00 00 00 00
 0.140371 1  18F155F3x       Rx   d 8 36 35 35 35 35 38 37 00
 0.140995 1  18F156F3x       Rx   d 8 00 00 00 00 00 00 00 00
 0.142136 1  18F157F3x       Rx   d 8 00 00 00 00 00 00 00 00
 0.143292 1  18F158F3x       Rx   d 8 00 00 00 00 00 00 00 00
 0.143994 1  18F159F3x       Rx   d 8 00 00 00 00 00 00 00 00
 0.145048 1  18F15AF3x       Rx   d 8 00 00 00 00 00 00 00 00
 0.145397 1  CFF21CAx        Rx   d 8 28 00 96 17 4B 46 00 24
 0.146019 1  18F15BF3x       Rx   d 7 00 00 00 00 00 00 00
 0.147112 1  18F15CF3x       Rx   d 8 00 00 00 00 00 00 00 00
 0.147794 1  18F15DF3x       Rx   d 8 00 00 00 00 00 00 00 00
 0.148917 1  18F15EF3x       Rx   d 8 00 00 00 00 00 00 00 00
 0.149344 1  18F100D0x       Rx   d 8 0C FF FF FF FF FF FF FF
 0.156877 1  CFF21CAx        Rx   d 8 26 00 94 17 4B 46 00 24
 0.169297 1  CFF21CAx        Rx   d 8 26 00 95 17 4B 46 00 24
 0.177376 1  18F100D0x       Rx   d 8 0C FF FF FF FF FF FF FF
 0.181789 1  CFF21CAx        Rx   d 8 26 00 95 17 4B 46 00 24
 0.193165 1  CFF21CAx        Rx   d 8 23 00 94 17 4B 46 00 24
 0.198355 1  18FF2112x       Rx   d 8 01 00 00 00 00 00 00 00
 0.228830 1  18F100D0x       Rx   d 8 0C FF FF FF FF FF FF FF
 0.229034 1  CFF21CAx        Rx   d 8 23 00 94 17 4B 46 00 24
 0.229277 1  CFF21CAx        Rx   d 8 21 00 93 17 4B 46 00 24
 0.229599 1  18F100D0x       Rx   d 8 0C FF FF FF FF FF FF FF
 0.229801 1  CFF21CAx        Rx   d 8 21 00 95 17 4B 46 00 24
 0.233916 1  18F100F3x       Rx   d 8 03 12 7E 8F CA FA 14 00
 0.234967 1  18F102F3x       Rx   d 8 0F 5A 0F 54 10 0A 00 06
 0.236339 1  18F106F3x       Rx   d 8 45 E0 FC FF FF FF FF FF
 0.237479 1  18F107F3x       Rx   d 8 38 A4 2B 2A 01 62 00 53
 0.239168 1  18F108F3x       Rx   d 8 00 00 00 00 00 00 00 00
 0.240186 1  18F155F3x       Rx   d 8 36 35 35 35 35 38 37 00
 0.241061 1  18F156F3x       Rx   d 8 00 00 00 00 00 00 00 00
 0.241714 1  CFF21CAx        Rx   d 8 21 00 93 17 4B 46 00 24
 0.242191 1  18F157F3x       Rx   d 8 00 00 00 00 00 00 00 00
 0.243247 1  18F158F3x       Rx   d 8 00 00 00 00 00 00 00 00
 0.244023 1  18F159F3x       Rx   d 8 00 00 00 00 00 00 00 00
 0.244926 1  18F15AF3x       Rx   d 8 00 00 00 00 00 00 00 00
 0.245768 1  18F15BF3x       Rx   d 7 00 00 00 00 00 00 00
 0.246681 1  18F15CF3x       Rx   d 8 00 00 00 00 00 00 00 00
 0.247460 1  18F15DF3x       Rx   d 8 00 00 00 00 00 00 00 00
 0.248340 1  18F15EF3x       Rx   d 8 00 00 00 00 00 00 00 00
 0.253353 1  CFF21CAx        Rx   d 8 1F 00 8C 17 4B 46 00 24
 0.253850 1  18F100D0x       Rx   d 8 0C FF FF FF FF FF FF FF
 0.265312 1  CFF21CAx        Rx   d 8 1F 00 91 17 4B 46 00 24
 0.277335 1  CFF21CAx        Rx   d 8 1E 00 8A 17 4B 46 00 24
 0.277908 1  18F100D0x       Rx   d 8 0C FF FF FF FF FF FF FF
 0.289399 1  CFF21CAx        Rx   d 8 1E 00 87 17 4B 46 00 24
 0.295286 1  18FF2112x       Rx   d 8 01 00 00 00 00 00 00 00
 0.301544 1  CFF21CAx        Rx   d 8 1E 00 84 17 4B 46 00 24
 0.302068 1  18F100D0x       Rx   d 8 0C FF FF FF FF FF FF FF
 0.313824 1  CFF21CAx        Rx   d 8 1F 00 81 17 4B 46 00 24
 0.326133 1  CFF21CAx        Rx   d 8 1F 00 82 17 4B 46 00 24
 0.326562 1  18F100D0x       Rx   d 8 0C FF FF FF FF FF FF FF
 0.334238 1  18F100F3x       Rx   d 8 03 11 7E 8F CA FA 14 00
 0.335064 1  18F102F3x       Rx   d 8 0F 5A 0F 54 10 0A 00 06
 0.336450 1  18F106F3x       Rx   d 8 45 E0 FC FF FF FF FF FF
 0.337705 1  18F107F3x       Rx   d 8 38 A4 2B 2A 01 61 00 52
 0.338068 1  CFF21CAx        Rx   d 8 1F 00 7C 17 4B 46 00 24
 0.339472 1  18F108F3x       Rx   d 8 00 00 00 00 00 00 00 00
 0.340289 1  18F155F3x       Rx   d 8 36 35 35 35 35 38 37 00
 0.341233 1  18F156F3x       Rx   d 8 00 00 00 00 00 00 00 00
 0.342067 1  18F157F3x       Rx   d 8 00 00 00 00 00 00 00 00
 0.343245 1  18F158F3x       Rx   d 8 00 00 00 00 00 00 00 00
 0.344002 1  18F159F3x       Rx   d 8 00 00 00 00 00 00 00 00
 0.345015 1  18F15AF3x       Rx   d 8 00 00 00 00 00 00 00 00
 0.345971 1  18F15BF3x       Rx   d 7 00 00 00 00 00 00 00
 0.346738 1  18F15CF3x       Rx   d 8 00 00 00 00 00 00 00 00
 0.347707 1  18F15DF3x       Rx   d 8 00 00 00 00 00 00 00 00
 0.348548 1  18F15EF3x       Rx   d 8 00 00 00 00 00 00 00 00
 0.349891 1  CFF21CAx        Rx   d 8 1F 00 7C 17 4B 46 00 24
 0.353788 1  18F100D0x       Rx   d 8 0C FF FF FF FF FF FF FF
 0.361904 1  CFF21CAx        Rx   d 8 1F 00 7C 17 4B 46 00 24
 0.374113 1  CFF21CAx        Rx   d 8 20 00 78 17 4B 46 00 24
 0.378206 1  18F100D0x       Rx   d 8 0C FF FF FF FF FF FF FF
 0.386202 1  CFF21CAx        Rx   d 8 20 00 7E 17 4B 46 00 24
 0.392694 1  18FF2112x       Rx   d 8 01 00 00 00 00 00 00 00
 0.398126 1  CFF21CAx        Rx   d 8 20 00 79 17 4B 46 00 24
 0.402001 1  18F100D0x       Rx   d 8 0C FF FF FF FF FF FF FF
 0.410237 1  CFF21CAx        Rx   d 8 20 00 79 17 4B 46 00 24
 0.422371 1  CFF21CAx        Rx   d 8 20 00 7B 17 4B 46 00 24
 0.426217 1  18F100D0x       Rx   d 8 0C FF FF FF FF FF FF FF
 0.458348 1  18F100F3x       Rx   d 8 03 11 7E 1F CA FA 14 00
 0.458583 1  CFF21CAx        Rx   d 8 20 00 7B 17 4B 46 00 24
 0.458797 1  18F102F3x       Rx   d 8 0F 5A 0F 54 10 0A 00 06
 0.458999 1  18F106F3x       Rx   d 8 45 E0 FC FF FF FF FF FF
 0.459191 1  18F107F3x       Rx   d 8 38 A4 2B 2A 01 61 00 52
 0.459381 1  18F108F3x       Rx   d 8 00 00 00 00 00 00 00 00
 0.459569 1  18F155F3x       Rx   d 8 36 35 35 35 35 38 37 00
 0.459822 1  18F156F3x       Rx   d 8 00 00 00 00 00 00 00 00
 0.460027 1  18F157F3x       Rx   d 8 00 00 00 00 00 00 00 00
 0.460219 1  18F158F3x       Rx   d 8 00 00 00 00 00 00 00 00
 0.460408 1  18F159F3x       Rx   d 8 00 00 00 00 00 00 00 00
 0.460594 1  18F15AF3x       Rx   d 8 00 00 00 00 00 00 00 00
 0.460782 1  18F15BF3x       Rx   d 7 00 00 00 00 00 00 00
 0.460961 1  CFF21CAx        Rx   d 8 20 00 78 17 4B 46 00 24
 0.461142 1  18F15CF3x       Rx   d 8 00 00 00 00 00 00 00 00
 0.461321 1  18F15DF3x       Rx   d 8 00 00 00 00 00 00 00 00
 0.461499 1  18F15EF3x       Rx   d 8 00 00 00 00 00 00 00 00
 0.461691 1  18F100D0x       Rx   d 8 0C FF FF FF FF FF FF FF
 0.461863 1  CFF21CAx        Rx   d 8 20 00 7B 17 4B 46 00 24
 0.470284 1  CFF21CAx        Rx   d 8 20 00 74 17 4B 46 00 24
 0.478644 1  18F100D0x       Rx   d 8 0C FF FF FF FF FF FF FF
 0.482842 1  CFF21CAx        Rx   d 8 21 00 78 17 4B 46 00 24
 0.489987 1  18FF2112x       Rx   d 8 01 00 00 00 00 00 00 00
 0.494289 1  CFF21CAx        Rx   d 8 21 00 76 17 4B 46 00 24
 0.502167 1  18F100D0x       Rx   d 8 0C FF FF FF FF FF FF FF
 0.506642 1  CFF21CAx        Rx   d 8 22 00 78 17 4B 46 00 24
 0.519007 1  CFF21CAx        Rx   d 8 22 00 73 17 4B 46 00 24
 0.526304 1  18F100D0x       Rx   d 8 0C FF FF FF FF FF FF FF
 0.530926 1  CFF21CAx        Rx   d 8 22 00 72 17 4B 46 00 24
 0.534302 1  18F100F3x       Rx   d 8 03 11 7E 1F CA FA 14 00
 0.535254 1  18F102F3x       Rx   d 8 0F 5A 0F 54 10 0A 00 06
 0.536463 1  18F106F3x       Rx   d 8 45 E0 FC FF FF FF FF FF
 0.537702 1  18F107F3x       Rx   d 8 38 A4 2B 2A 01 61 00 52
 0.539444 1  18F108F3x       Rx   d 8 00 00 00 00 00 00 00 00
 0.540375 1  18F155F3x       Rx   d 8 36 35 35 35 35 38 37 00
 0.541053 1  18F156F3x       Rx   d 8 00 00 00 00 00 00 00 00
 0.542140 1  18F157F3x       Rx   d 8 00 00 00 00 00 00 00 00
 0.542486 1  CFF21CAx        Rx   d 8 23 00 73 17 4B 46 00 24
 0.543286 1  18F158F3x       Rx   d 8 00 00 00 00 00 00 00 00
 0.544003 1  18F159F3x       Rx   d 8 00 00 00 00 00 00 00 00
 0.545017 1  18F15AF3x       Rx   d 8 00 00 00 00 00 00 00 00
 0.545889 1  18F15BF3x       Rx   d 7 00 00 00 00 00 00 00
 0.546790 1  18F15CF3x       Rx   d 8 00 00 00 00 00 00 00 00
 0.547672 1  18F15DF3x       Rx   d 8 00 00 00 00 00 00 00 00
 0.548617 1  18F15EF3x       Rx   d 8 00 00 00 00 00 00 00 00
 0.554889 1  CFF21CAx        Rx   d 8 23 00 70 17 4B 46 00 24
 0.555480 1  18F100D0x       Rx   d 8 0C FF FF FF FF FF FF FF
 0.566884 1  CFF21CAx        Rx   d 8 23 00 73 17 4B 46 00 24
 0.579271 1  CFF21CAx        Rx   d 8 23 00 73 17 4B 46 00 24
 0.579620 1  18F100D0x       Rx   d 8 0C FF FF FF FF FF FF FF
 0.587147 1  18FF2112x       Rx   d 8 01 00 00 00 00 00 00 00
 0.590681 1  CFF21CAx        Rx   d 8 23 00 74 17 4B 46 00 24
 0.603209 1  CFF21CAx        Rx   d 8 23 00 76 17 4B 46 00 24
 0.603726 1  18F100D0x       Rx   d 8 0C FF FF FF FF FF FF FF
 0.615311 1  CFF21CAx        Rx   d 8 23 00 75 17 4B 46 00 24
 0.627265 1  CFF21CAx        Rx   d 8 24 00 76 17 4B 46 00 24
 0.631134 1  18F100D0x       Rx   d 8 0C FF FF FF FF FF FF FF
 0.631491 1  18FECACAx       Rx   d 8 00 00 00 00 00 00 FF FF
 0.634308 1  18F100F3x       Rx   d 8 03 11 7E 16 CA FA 14 00
 0.635240 1  18F102F3x       Rx   d 8 0F 5A 0F 53 10 0A 00 07
 0.636458 1  18F106F3x       Rx   d 8 45 E0 FC FF FF FF FF FF
 0.637661 1  18F107F3x       Rx   d 8 38 A4 2B 2A 01 61 00 52
 0.639393 1  18F108F3x       Rx   d 8 00 00 00 00 00 00 00 00
 0.639765 1  CFF21CAx        Rx   d 8 24 00 75 17 4B 46 00 24
 0.640550 1  18F155F3x       Rx   d 8 36 35 35 35 35 38 37 00
 0.641453 1  18F156F3x       Rx   d 8 00 00 00 00 00 00 00 00
 0.642130 1  18F157F3x       Rx   d 8 00 00 00 00 00 00 00 00
 0.643270 1  18F158F3x       Rx   d 8 00 00 00 00 00 00 00 00
 0.644063 1  18F159F3x       Rx   d 8 00 00 00 00 00 00 00 00
 0.645107 1  18F15AF3x       Rx   d 8 00 00 00 00 00 00 00 00
 0.646025 1  18F15BF3x       Rx   d 7 00 00 00 00 00 00 00
 0.646877 1  18F15CF3x       Rx   d 8 00 00 00 00 00 00 00 00
 0.647657 1  18F15DF3x       Rx   d 8 00 00 00 00 00 00 00 00
 0.648694 1  18F15EF3x       Rx   d 8 00 00 00 00 00 00 00 00
 0.651655 1  CFF21CAx        Rx   d 8 24 00 76 17 4B 46 00 24
 0.654928 1  18F100D0x       Rx   d 8 0C FF FF FF FF FF FF FF
 0.684951 1  CFF21CAx        Rx   d 8 24 00 76 17 4B 46 00 24
 0.685147 1  CFF21CAx        Rx   d 8 24 00 76 17 4B 46 00 24
 0.685323 1  18F100D0x       Rx   d 8 0C FF FF FF FF FF FF FF
 0.685550 1  18FF2112x       Rx   d 8 01 00 00 00 00 00 00 00
 0.686839 1  CFF21CAx        Rx   d 8 24 00 76 17 4B 46 00 24
 0.699653 1  CFF21CAx        Rx   d 8 23 00 7C 17 4B 46 00 24
 0.707695 1  18F100D0x       Rx   d 8 0C FF FF FF FF FF FF FF
 0.711570 1  CFF21CAx        Rx   d 8 23 00 7A 17 4B 46 00 24
 0.723514 1  CFF21CAx        Rx   d 8 23 00 7B 17 4B 46 00 24
 0.731550 1  18F100D0x       Rx   d 8 0C FF FF FF FF FF FF FF
 0.734057 1  18F100F3x       Rx   d 8 03 11 7E 16 CA FA 14 00
 0.734970 1  18F102F3x       Rx   d 8 0F 5A 0F 53 10 0A 00 07
 0.735600 1  CFF21CAx        Rx   d 8 23 00 7D 17 4B 46 00 24
 0.736166 1  18F106F3x       Rx   d 8 45 E0 FC FF FF FF FF FF
 0.737385 1  18F107F3x       Rx   d 8 38 A4 2B 2A 01 61 00 52
 0.739138 1  18F108F3x       Rx   d 8 00 00 00 00 00 00 00 00
 0.739992 1  18F155F3x       Rx   d 8 36 35 35 35 35 38 37 00
 0.740877 1  18F156F3x       Rx   d 8 00 00 00 00 00 00 00 00
 0.741803 1  18F157F3x       Rx   d 8 00 00 00 00 00 00 00 00
 0.742989 1  18F158F3x       Rx   d 8 00 00 00 00 00 00 00 00
 0.743895 1  18F159F3x       Rx   d 8 00 00 00 00 00 00 00 00
 0.744783 1  18F15AF3x       Rx   d 8 00 00 00 00 00 00 00 00
 0.745740 1  18F15BF3x       Rx   d 7 00 00 00 00 00 00 00
 0.746606 1  18F15CF3x       Rx   d 8 00 00 00 00 00 00 00 00
 0.747448 1  18F15DF3x       Rx   d 8 00 00 00 00 00 00 00 00
 0.747993 1  CFF21CAx        Rx   d 8 23 00 79 17 4B 46 00 24
 0.748573 1  18F15EF3x       Rx   d 8 00 00 00 00 00 00 00 00
 0.755771 1  18F100D0x       Rx   d 8 0C FF FF FF FF FF FF FF
 0.759590 1  CFF21CAx        Rx   d 8 23 00 7C 17 4B 46 00 24
 0.772064 1  CFF21CAx        Rx   d 8 22 00 7D 17 4B 46 00 24
 0.780060 1  18F100D0x       Rx   d 8 0C FF FF FF FF FF FF FF
 0.781741 1  18FF2112x       Rx   d 8 01 00 00 00 00 00 00 00
 0.783476 1  CFF21CAx        Rx   d 8 22 00 7B 17 4B 46 00 24
 0.796199 1  CFF21CAx        Rx   d 8 23 00 78 17 4B 46 00 24
 0.808179 1  CFF21CAx        Rx   d 8 23 00 75 17 4B 46 00 24
 0.808756 1  18F100D0x       Rx   d 8 0C FF FF FF FF FF FF FF
 0.820083 1  CFF21CAx        Rx   d 8 23 00 73 17 4B 46 00 24
 0.831858 1  CFF21CAx        Rx   d 8 23 00 6C 17 4B 46 00 24
 0.832280 1  18F100D0x       Rx   d 8 0C FF FF FF FF FF FF FF
 0.834045 1  18F100F3x       Rx   d 8 03 11 7E 16 CA FA 14 00
 0.835225 1  18F102F3x       Rx   d 8 0F 5A 0F 53 10 0A 00 07
 0.836495 1  18F106F3x       Rx   d 8 45 E0 FC FF FF FF FF FF
 0.837761 1  18F107F3x       Rx   d 8 38 A4 2B 2A 01 61 00 52
 0.839345 1  18F108F3x       Rx   d 8 00 00 00 00 00 00 00 00
 0.840296 1  18F155F3x       Rx   d 8 36 35 35 35 35 38 37 00
 0.841151 1  18F156F3x       Rx   d 8 00 00 00 00 00 00 00 00
 0.842143 1  18F157F3x       Rx   d 8 00 00 00 00 00 00 00 00
 0.843200 1  18F158F3x       Rx   d 8 00 00 00 00 00 00 00 00
 0.844048 1  18F159F3x       Rx   d 8 00 00 00 00 00 00 00 00
 0.844539 1  CFF21CAx        Rx   d 8 23 00 71 17 4B 46 00 24
 0.845158 1  18F15AF3x       Rx   d 8 00 00 00 00 00 00 00 00
 0.846185 1  18F15BF3x       Rx   d 7 00 00 00 00 00 00 00
 0.846966 1  18F15CF3x       Rx   d 8 00 00 00 00 00 00 00 00
 0.847984 1  18F15DF3x       Rx   d 8 00 00 00 00 00 00 00 00
 0.848707 1  18F15EF3x       Rx   d 8 00 00 00 00 00 00 00 00
 0.855656 1  CFF21CAx        Rx   d 8 24 00 6F 17 4B 46 00 24
 0.856238 1  18F100D0x       Rx   d 8 0C FF FF FF FF FF FF FF
 0.868371 1  CFF21CAx        Rx   d 8 24 00 6E 17 4B 46 00 24
 0.879440 1  18FF2112x       Rx   d 8 01 00 00 00 00 00 00 00
 0.879963 1  CFF21CAx        Rx   d 8 24 00 71 17 4B 46 00 24
 0.880387 1  18F100D0x       Rx   d 8 0C FF FF FF FF FF FF FF
 0.913555 1  CFF21CAx        Rx   d 8 24 00 76 17 4B 46 00 24
 0.913799 1  CFF21CAx        Rx   d 8 24 00 77 17 4B 46 00 24
 0.913984 1  18F100D0x       Rx   d 8 0C FF FF FF FF FF FF FF
 0.916492 1  CFF21CAx        Rx   d 8 24 00 77 17 4B 46 00 24
 0.928244 1  CFF21CAx        Rx   d 8 24 00 78 17 4B 46 00 24
 0.932743 1  18F100D0x       Rx   d 8 0C FF FF FF FF FF FF FF
 0.934376 1  18F100F3x       Rx   d 8 03 11 7E 28 CA FA 14 00
 0.935271 1  18F102F3x       Rx   d 8 0F 5A 0F 53 10 0A 00 07
 0.936472 1  18F106F3x       Rx   d 8 45 E0 FC FF FF FF FF FF
 0.937714 1  18F107F3x       Rx   d 8 38 A4 2B 2A 01 61 00 52
 0.939441 1  18F108F3x       Rx   d 8 00 00 00 00 00 00 00 00
 0.940296 1  18F155F3x       Rx   d 8 36 35 35 35 35 38 37 00
 0.940667 1  CFF21CAx        Rx   d 8 24 00 78 17 4B 46 00 24
 0.941398 1  18F156F3x       Rx   d 8 00 00 00 00 00 00 00 00
 0.942409 1  18F157F3x       Rx   d 8 00 00 00 00 00 00 00 00
 0.943467 1  18F158F3x       Rx   d 8 00 00 00 00 00 00 00 00
 0.944180 1  18F159F3x       Rx   d 8 00 00 00 00 00 00 00 00
 0.945236 1  18F15AF3x       Rx   d 8 00 00 00 00 00 00 00 00
 0.945923 1  18F15BF3x       Rx   d 7 00 00 00 00 00 00 00
 0.946999 1  18F15CF3x       Rx   d 8 00 00 00 00 00 00 00 00
 0.947818 1  18F15DF3x       Rx   d 8 00 00 00 00 00 00 00 00
 0.948630 1  18F15EF3x       Rx   d 8 00 00 00 00 00 00 00 00
 0.952057 1  CFF21CAx        Rx   d 8 24 00 78 17 4B 46 00 24
 0.956360 1  18F100D0x       Rx   d 8 0C FF FF FF FF FF FF FF
 0.964586 1  CFF21CAx        Rx   d 8 23 00 79 17 4B 46 00 24
 0.976167 1  CFF21CAx        Rx   d 8 23 00 70 17 4B 46 00 24
 0.978740 1  18FF2112x       Rx   d 8 01 00 00 00 00 00 00 00
 0.984166 1  18F100D0x       Rx   d 8 0C FF FF FF FF FF FF FF
 0.988637 1  CFF21CAx        Rx   d 8 23 00 70 17 4B 46 00 24
 1.000987 1  CFF21CAx        Rx   d 8 24 00 76 17 4B 46 00 24
 1.008584 1  18F100D0x       Rx   d 8 0C FF FF FF FF FF FF FF
 1.013196 1  CFF21CAx        Rx   d 8 24 00 70 17 4B 46 00 24
 1.024559 1  CFF21CAx        Rx   d 8 23 00 6F 17 4B 46 00 24
 1.032567 1  18F100D0x       Rx   d 8 0C FF FF FF FF FF FF FF
 1.034255 1  18F100F3x       Rx   d 8 03 11 7E 28 CA FA 14 00
 1.035226 1  18F102F3x       Rx   d 8 0F 5A 0F 53 10 0A 00 07
 1.036540 1  18F106F3x       Rx   d 8 45 E0 FC FF FF FF FF FF
 1.036916 1  CFF21CAx        Rx   d 8 23 00 6F 17 4B 46 00 24
 1.037595 1  18F107F3x       Rx   d 8 38 A4 2B 2A 01 61 00 52
 1.039338 1  18F108F3x       Rx   d 8 00 00 00 00 00 00 00 00
 1.040094 1  18F155F3x       Rx   d 8 36 35 35 35 35 38 37 00
 1.041126 1  18F156F3x       Rx   d 8 00 00 00 00 00 00 00 00
 1.042096 1  18F157F3x       Rx   d 8 00 00 00 00 00 00 00 00
 1.043372 1  18F158F3x       Rx   d 8 00 00 00 00 00 00 00 00
 1.044016 1  18F159F3x       Rx   d 8 00 00 00 00 00 00 00 00
 1.045153 1  18F15AF3x       Rx   d 8 00 00 00 00 00 00 00 00
 1.045791 1  18F15BF3x       Rx   d 7 00 00 00 00 00 00 00
 1.046946 1  18F15CF3x       Rx   d 8 00 00 00 00 00 00 00 00
 1.047958 1  18F104F3x       Rx   d 8 38 35 06 02 03 FF FF FF
 1.048395 1  18F113F3x       Rx   d 8 0F 57 0F 55 0F 56 0F 57
 1.049197 1  CFF21CAx        Rx   d 8 23 00 73 17 4B 46 00 24
 1.049546 1  18F114F3x       Rx   d 8 0F 55 0F 54 0F 58 0F 56
 1.050626 1  18F115F3x       Rx   d 8 0F 54 0F 53 0F 54 0F 54
 1.051233 1  18F116F3x       Rx   d 8 0F 58 0F 55 0F 58 0F 5A
 1.052449 1  18F117F3x       Rx   d 8 0F 56 0F 57 0F 5A 0F 5A
 1.053267 1  18F118F3x       Rx   d 8 00 00 00 00 00 00 00 00
 1.054171 1  18F119F3x       Rx   d 8 00 00 00 00 00 00 00 00
 1.055015 1  18F11AF3x       Rx   d 8 00 00 00 00 00 00 00 00
 1.055995 1  18F11BF3x       Rx   d 8 00 00 00 00 00 00 00 00
 1.056536 1  18F100D0x       Rx   d 8 0C FF FF FF FF FF FF FF
 1.057104 1  18F11CF3x       Rx   d 8 00 00 00 00 00 00 00 00
 1.058009 1  18F11DF3x       Rx   d 8 00 00 00 00 00 00 00 00
 1.059206 1  18F11EF3x       Rx   d 8 00 00 00 00 00 00 00 00
 1.060196 1  18F11FF3x       Rx   d 8 00 00 00 00 00 00 00 00
 1.060992 1  18F120F3x       Rx   d 8 00 00 00 00 00 00 00 00
 1.061460 1  CFF21CAx        Rx   d 8 23 00 79 17 4B 46 00 24
 1.062286 1  18F121F3x       Rx   d 8 00 00 00 00 00 00 00 00
 1.063197 1  18F122F3x       Rx   d 8 00 00 00 00 00 00 00 00
 1.064304 1  18F123F3x       Rx   d 8 00 00 00 00 00 00 00 00
 1.065082 1  18F124F3x       Rx   d 8 00 00 00 00 00 00 00 00
 1.066084 1  18F125F3x       Rx   d 8 00 00 00 00 00 00 00 00
 1.067019 1  18F126F3x       Rx   d 8 00 00 00 00 00 00 00 00
 1.067935 1  18F127F3x       Rx   d 8 00 00 00 00 00 00 00 00
 1.068679 1  18F128F3x       Rx   d 8 00 00 00 00 00 00 00 00
 1.069726 1  18F129F3x       Rx   d 8 00 00 00 00 00 00 00 00
 1.070614 1  18F12AF3x       Rx   d 8 00 00 00 00 00 00 00 00
 1.071555 1  18F12BF3x       Rx   d 8 00 00 00 00 00 00 00 00
 1.072319 1  18F12CF3x       Rx   d 8 00 00 00 00 00 00 00 00
 1.072796 1  CFF21CAx        Rx   d 8 23 00 77 17 4B 46 00 24
 1.073593 1  18F12DF3x       Rx   d 8 00 00 00 00 00 00 00 00
 1.073916 1  18FF2112x       Rx   d 8 01 00 00 00 00 00 00 00
 1.074716 1  18F12EF3x       Rx   d 8 00 00 00 00 00 00 00 00
 1.075549 1  18F12FF3x       Rx   d 8 00 00 00 00 00 00 00 00
 1.076396 1  18F130F3x       Rx   d 8 00 00 00 00 00 00 00 00
 1.077205 1  18F131F3x       Rx   d 8 00 00 00 00 00 00 00 00
 1.078204 1  18F132F3x       Rx   d 8 00 00 00 00 00 00 00 00
 1.079045 1  18F133F3x       Rx   d 8 00 00 00 00 00 00 00 00
 1.080049 1  18F134F3x       Rx   d 8 00 00 00 00 00 00 00 00
 1.080831 1  18F135F3x       Rx   d 8 00 00 00 00 00 00 00 00
 1.081856 1  18F136F3x       Rx   d 8 00 00 00 00 00 00 00 00
 1.082679 1  18F137F3x       Rx   d 8 00 00 00 00 00 00 00 00
 1.083592 1  18F138F3x       Rx   d 8 00 00 00 00 00 00 00 00
 1.084436 1  18F139F3x       Rx   d 8 00 00 00 00 00 00 00 00
 1.085051 1  CFF21CAx        Rx   d 8 22 00 7B 17 4B 46 00 24
 1.085762 1  18F100D0x       Rx   d 8 0C FF FF FF FF FF FF FF
 1.086161 1  18F13AF3x       Rx   d 8 00 00 00 00 00 00 00 00
 1.087035 1  18F13BF3x       Rx   d 8 00 00 00 00 00 00 00 00
 1.087934 1  18F13CF3x       Rx   d 8 00 00 00 00 00 00 00 00
 1.088790 1  18F15DF3x       Rx   d 8 00 00 00 00 00 00 00 00
 1.089714 1  18F15EF3x       Rx   d 8 00 00 00 00 00 00 00 00
 1.097128 1  CFF21CAx        Rx   d 8 22 00 7B 17 4B 46 00 24
 1.109417 1  CFF21CAx        Rx   d 8 22 00 7F 17 4B 46 00 24
 1.109767 1  18F100D0x       Rx   d 8 0C FF FF FF FF FF FF FF
 1.146174 1  CFF21CAx        Rx   d 8 21 00 81 17 4B 46 00 24
 1.146386 1  CFF21CAx        Rx   d 8 21 00 7D 17 4B 46 00 24
 1.146571 1  18F100D0x       Rx   d 8 0C FF FF FF FF FF FF FF
 1.146748 1  18F100F3x       Rx   d 8 03 11 7E 2A CA FA 14 00
 1.146966 1  18F102F3x       Rx   d 8 0F 5A 0F 53 10 0A 00 07
 1.147237 1  18F106F3x       Rx   d 8 45 E0 FC FF FF FF FF FF
 1.147436 1  18F107F3x       Rx   d 8 38 A4 2B 2A 01 61 00 52
 1.147619 1  18F108F3x       Rx   d 8 00 00 00 00 00 00 00 00
 1.147812 1  18F155F3x       Rx   d 8 36 35 35 35 35 38 37 00
 1.147988 1  18F156F3x       Rx   d 8 00 00 00 00 00 00 00 00
 1.148197 1  18F157F3x       Rx   d 8 00 00 00 00 00 00 00 00
 1.148393 1  18F158F3x       Rx   d 8 00 00 00 00 00 00 00 00
 1.148575 1  18F159F3x       Rx   d 8 00 00 00 00 00 00 00 00
 1.148761 1  CFF21CAx        Rx   d 8 21 00 81 17 4B 46 00 24
 1.148928 1  18F15AF3x       Rx   d 8 00 00 00 00 00 00 00 00
 1.149083 1  18F15BF3x       Rx   d 7 00 00 00 00 00 00 00
 1.149246 1  18F15CF3x       Rx   d 8 00 00 00 00 00 00 00 00
 1.149409 1  18F15DF3x       Rx   d 8 00 00 00 00 00 00 00 00
 1.149571 1  18F15EF3x       Rx   d 8 00 00 00 00 00 00 00 00
 1.157245 1  CFF21CAx        Rx   d 8 21 00 81 17 4B 46 00 24
 1.161155 1  18F100D0x       Rx   d 8 0C FF FF FF FF FF FF FF
 1.169117 1  CFF21CAx        Rx   d 8 21 00 80 17 4B 46 00 24
 1.170963 1  18FF2112x       Rx   d 8 01 00 00 00 00 00 00 00
 1.181352 1  CFF21CAx        Rx   d 8 20 00 86 17 4B 46 00 24
 1.184955 1  18F100D0x       Rx   d 8 0C FF FF FF FF FF FF FF
 1.193360 1  CFF21CAx        Rx   d 8 20 00 85 17 4B 46 00 24
 1.205549 1  CFF21CAx        Rx   d 8 1E 00 89 17 4B 46 00 24
 1.209004 1  18F100D0x       Rx   d 8 0C FF FF FF FF FF FF FF
 1.217194 1  CFF21CAx        Rx   d 8 1E 00 86 17 4B 46 00 24
 1.229311 1  CFF21CAx        Rx   d 8 1E 00 87 17 4B 46 00 24
 1.233553 1  18F100D0x       Rx   d 8 0C FF FF FF FF FF FF FF
 1.234272 1  18F100F3x       Rx   d 8 03 11 7E 2A CA FA 14 00
 1.235314 1  18F102F3x       Rx   d 8 0F 5A 0F 53 10 06 00 07
 1.236635 1  18F106F3x       Rx   d 8 45 E0 FC FF FF FF FF FF
 1.237815 1  18F107F3x       Rx   d 8 38 A4 2B 2A 01 61 00 52
 1.239542 1  18F108F3x       Rx   d 8 00 00 00 00 00 00 00 00
 1.240470 1  18F155F3x       Rx   d 8 36 35 35 35 35 38 37 00
 1.241329 1  18F156F3x       Rx   d 8 00 00 00 00 00 00 00 00
 1.241679 1  CFF21CAx        Rx   d 8 1D 00 86 17 4B 46 00 24
 1.242298 1  18F157F3x       Rx   d 8 00 00 00 00 00 00 00 00
 1.243404 1  18F158F3x       Rx   d 8 00 00 00 00 00 00 00 00
 1.244391 1  18F159F3x       Rx   d 8 00 00 00 00 00 00 00 00
 1.245015 1  18F15AF3x       Rx   d 8 00 00 00 00 00 00 00 00
 1.246081 1  18F15BF3x       Rx   d 7 00 00 00 00 00 00 00
 1.246831 1  18F15CF3x       Rx   d 8 00 00 00 00 00 00 00 00
 1.247830 1  18F15DF3x       Rx   d 8 00 00 00 00 00 00 00 00
 1.248580 1  18F15EF3x       Rx   d 8 00 00 00 00 00 00 00 00
 1.253396 1  CFF21CAx        Rx   d 8 1D 00 86 17 4B 46 00 24
 1.257535 1  18F100D0x       Rx   d 8 0C FF FF FF FF FF FF FF
 1.265888 1  CFF21CAx        Rx   d 8 1D 00 84 17 4B 46 00 24
 1.268563 1  18FF2112x       Rx   d 8 01 00 00 00 00 00 00 00
 1.277689 1  CFF21CAx        Rx   d 8 1D 00 80 17 4B 46 00 24
 1.285765 1  18F100D0x       Rx   d 8 0C FF FF FF FF FF FF FF
 1.289869 1  CFF21CAx        Rx   d 8 1D 00 7D 17 4B 46 00 24
 1.301792 1  CFF21CAx        Rx   d 8 1D 00 7C 17 4B 46 00 24
 1.309830 1  18F100D0x       Rx   d 8 0C FF FF FF FF FF FF FF
 1.313674 1  CFF21CAx        Rx   d 8 1D 00 78 17 4B 46 00 24
 1.325781 1  CFF21CAx        Rx   d 8 1D 00 75 17 4B 46 00 24
 1.334515 1  18F100F3x       Rx   d 8 03 11 7E 2A CA FA 14 00
 1.335566 1  18F102F3x       Rx   d 8 0F 5A 0F 53 10 06 00 07
 1.336460 1  18F106F3x       Rx   d 8 45 E0 FC FF FF FF FF FF
 1.337665 1  18F107F3x       Rx   d 8 38 A4 2B 2A 01 61 00 52
 1.338115 1  CFF21CAx        Rx   d 8 1D 00 73 17 4B 46 00 24
 1.338693 1  18F100D0x       Rx   d 8 0C FF FF FF FF FF FF FF
 1.339584 1  18F108F3x       Rx   d 8 00 00 00 00 00 00 00 00
 1.340440 1  18F155F3x       Rx   d 8 36 35 35 35 35 38 37 00
 1.341368 1  18F156F3x       Rx   d 8 00 00 00 00 00 00 00 00
 1.342216 1  18F157F3x       Rx   d 8 00 00 00 00 00 00 00 00
 1.343346 1  18F158F3x       Rx   d 8 00 00 00 00 00 00 00 00
 1.344108 1  18F159F3x       Rx   d 8 00 00 00 00 00 00 00 00
 1.345056 1  18F15AF3x       Rx   d 8 00 00 00 00 00 00 00 00
 1.345949 1  18F15BF3x       Rx   d 7 00 00 00 00 00 00 00
 1.346867 1  18F15CF3x       Rx   d 8 00 00 00 00 00 00 00 00
 1.347731 1  18F15DF3x       Rx   d 8 00 00 00 00 00 00 00 00
 1.374399 1  18F15EF3x       Rx   d 8 00 00 00 00 00 00 00 00
 1.374592 1  CFF21CAx        Rx   d 8 1E 00 6D 17 4B 46 00 24
 1.374766 1  CFF21CAx        Rx   d 8 1E 00 6E 17 4B 46 00 24
 1.374986 1  18F100D0x       Rx   d 8 0C FF FF FF FF FF FF FF
 1.375166 1  18FF2112x       Rx   d 8 01 00 00 00 00 00 00 00
 1.375334 1  CFF21CAx        Rx   d 8 1F 00 69 17 4B 46 00 24
 1.386046 1  CFF21CAx        Rx   d 8 1F 00 66 17 4B 46 00 24
 1.386487 1  18F100D0x       Rx   d 8 0C FF FF FF FF FF FF FF
 1.398081 1  CFF21CAx        Rx   d 8 1F 00 67 17 4B 46 00 24
 1.410154 1  CFF21CAx        Rx   d 8 21 00 5F 17 4B 46 00 24
 1.410507 1  18F100D0x       Rx   d 8 0C FF FF FF FF FF FF FF
 1.421959 1  CFF21CAx        Rx   d 8 21 00 62 17 4B 46 00 24
 1.434133 1  CFF21CAx        Rx   d 8 22 00 5C 17 4B 46 00 24
 1.434659 1  18F100D0x       Rx   d 8 0C FF FF FF FF FF FF FF
 1.435209 1  18F100F3x       Rx   d 8 03 11 7E 10 CA FA 14 00
 1.436047 1  18F102F3x       Rx   d 8 0F 5A 0F 53 10 06 00 07
 1.437350 1  18F106F3x       Rx   d 8 45 E0 FC FF FF FF FF FF
 1.438459 1  18F107F3x       Rx   d 8 38 A4 2B 2A 01 61 00 52
 1.440256 1  18F108F3x       Rx   d 8 00 00 00 00 00 00 00 00
 1.441189 1  18F155F3x       Rx   d 8 36 35 35 35 35 38 37 00
 1.442092 1  18F156F3x       Rx   d 8 00 00 00 00 00 00 00 00
 1.443075 1  18F157F3x       Rx   d 8 00 00 00 00 00 00 00 00
 1.443936 1  18F158F3x       Rx   d 8 00 00 00 00 00 00 00 00
 1.444897 1  18F159F3x       Rx   d 8 00 00 00 00 00 00 00 00
 1.445804 1  18F15AF3x       Rx   d 8 00 00 00 00 00 00 00 00
 1.446360 1  CFF21CAx        Rx   d 8 22 00 5C 17 4B 46 00 24
 1.446946 1  18F15BF3x       Rx   d 7 00 00 00 00 00 00 00
 1.447866 1  18F15CF3x       Rx   d 8 00 00 00 00 00 00 00 00
 1.448655 1  18F15DF3x       Rx   d 8 00 00 00 00 00 00 00 00
 1.449629 1  18F15EF3x       Rx   d 8 00 00 00 00 00 00 00 00
 1.458022 1  CFF21CAx        Rx   d 8 22 00 5A 17 4B 46 00 24
 1.458498 1  18F100D0x       Rx   d 8 0C FF FF FF FF FF FF FF
 1.462707 1  18FF2112x       Rx   d 8 01 00 00 00 00 00 00 00
 1.472320 1  CFF21CAx        Rx   d 8 24 00 59 17 4B 46 00 24
 1.482716 1  CFF21CAx        Rx   d 8 24 00 59 17 4B 46 00 24
 1.483201 1  18F100D0x       Rx   d 8 0C FF FF FF FF FF FF FF
 1.494438 1  CFF21CAx        Rx   d 8 27 00 57 17 4B 46 00 24
 1.506433 1  CFF21CAx        Rx   d 8 27 00 5E 17 4B 46 00 24
 1.506990 1  18F100D0x       Rx   d 8 0C FF FF FF FF FF FF FF
 1.518594 1  CFF21CAx        Rx   d 8 27 00 60 17 4B 46 00 24
 1.531214 1  CFF21CAx        Rx   d 8 28 00 66 17 4B 46 00 24
 1.534482 1  18F100F3x       Rx   d 8 03 11 7E 10 CA FA 14 00
 1.535017 1  18F100D0x       Rx   d 8 0C FF FF FF FF FF FF FF
 1.535347 1  18F102F3x       Rx   d 8 0F 5A 0F 53 10 06 00 07
 1.536685 1  18F106F3x       Rx   d 8 45 E0 FC FF FF FF FF FF
 1.537953 1  18F107F3x       Rx   d 8 38 A4 2B 2A 01 61 00 52
 1.539719 1  18F108F3x       Rx   d 8 00 00 00 00 00 00 00 00
 1.540642 1  18F155F3x       Rx   d 8 36 35 35 35 35 38 37 00
 1.541289 1  18F156F3x       Rx   d 8 00 00 00 00 00 00 00 00
 1.542394 1  18F157F3x       Rx   d 8 00 00 00 00 00 00 00 00
 1.542739 1  CFF21CAx        Rx   d 8 28 00 6A 17 4B 46 00 24
 1.543358 1  18F158F3x       Rx   d 8 00 00 00 00 00 00 00 00
 1.544294 1  18F159F3x       Rx   d 8 00 00 00 00 00 00 00 00
 1.545279 1  18F15AF3x       Rx   d 8 00 00 00 00 00 00 00 00
 1.546075 1  18F15BF3x       Rx   d 7 00 00 00 00 00 00 00
 1.546824 1  18F15CF3x       Rx   d 8 00 00 00 00 00 00 00 00
 1.547630 1  18F15DF3x       Rx   d 8 00 00 00 00 00 00 00 00
 1.548579 1  18F15EF3x       Rx   d 8 00 00 00 00 00 00 00 00
 1.554445 1  CFF21CAx        Rx   d 8 28 00 6F 17 4B 46 00 24
 1.558811 1  18F100D0x       Rx   d 8 0C FF FF FF FF FF FF FF
 1.560290 1  18FF2112x       Rx   d 8 01 00 00 00 00 00 00 00
 1.566762 1  CFF21CAx        Rx   d 8 28 00 6F 17 4B 46 00 24
 1.604366 1  CFF21CAx        Rx   d 8 27 00 6F 17 4B 46 00 24
 1.604628 1  18F100D0x       Rx   d 8 0C FF FF FF FF FF FF FF
 1.604833 1  CFF21CAx        Rx   d 8 27 00 6F 17 4B 46 00 24
 1.605011 1  CFF21CAx        Rx   d 8 27 00 78 17 4B 46 00 24
 1.611264 1  18F100D0x       Rx   d 8 0C FF FF FF FF FF FF FF
 1.615056 1  CFF21CAx        Rx   d 8 27 00 74 17 4B 46 00 24
 1.627560 1  CFF21CAx        Rx   d 8 27 00 73 17 4B 46 00 24
 1.636422 1  18F100F3x       Rx   d 8 03 11 7E 35 CA FA 14 00
 1.636766 1  18F102F3x       Rx   d 8 0F 59 0F 53 10 06 00 06
 1.637086 1  18F100D0x       Rx   d 8 0C FF FF FF FF FF FF FF
 1.637399 1  18F106F3x       Rx   d 8 45 E0 FC FF FF FF FF FF
 1.637671 1  18F107F3x       Rx   d 8 38 A4 2B 2A 01 61 00 52
 1.639393 1  CFF21CAx        Rx   d 8 26 00 70 17 4B 46 00 24
 1.639908 1  18F108F3x       Rx   d 8 00 00 00 00 00 00 00 00
 1.640774 1  18F155F3x       Rx   d 8 36 35 35 35 35 38 37 00
 1.641620 1  18F156F3x       Rx   d 8 00 00 00 00 00 00 00 00
 1.642457 1  18F157F3x       Rx   d 8 00 00 00 00 00 00 00 00
 1.643329 1  18F158F3x       Rx   d 8 00 00 00 00 00 00 00 00
 1.644315 1  18F159F3x       Rx   d 8 00 00 00 00 00 00 00 00
 1.645097 1  18F15AF3x       Rx   d 8 00 00 00 00 00 00 00 00
 1.645851 1  18F15BF3x       Rx   d 7 00 00 00 00 00 00 00
 1.646771 1  18FECACAx       Rx   d 8 00 00 00 00 00 00 FF FF
 1.647354 1  18F15CF3x       Rx   d 8 00 00 00 00 00 00 00 00
 1.648200 1  18F15DF3x       Rx   d 8 00 00 00 00 00 00 00 00
 1.649044 1  18F15EF3x       Rx   d 8 00 00 00 00 00 00 00 00
 1.651202 1  CFF21CAx        Rx   d 8 26 00 71 17 4B 46 00 24
 1.657267 1  18FF2112x       Rx   d 8 01 00 00 00 00 00 00 00
 1.659215 1  18F100D0x       Rx   d 8 0C FF FF FF FF FF FF FF
 1.662912 1  CFF21CAx        Rx   d 8 25 00 70 17 4B 46 00 24
 1.675552 1  CFF21CAx        Rx   d 8 25 00 6F 17 4B 46 00 24
 1.683481 1  18F100D0x       Rx   d 8 0C FF FF FF FF FF FF FF
 1.687109 1  CFF21CAx        Rx   d 8 25 00 6E 17 4B 46 00 24
 1.699754 1  CFF21CAx        Rx   d 8 25 00 70 17 4B 46 00 24
 1.711284 1  CFF21CAx        Rx   d 8 25 00 6D 17 4B 46 00 24
 1.711719 1  18F100D0x       Rx   d 8 0C FF FF FF FF FF FF FF
 1.723646 1  CFF21CAx        Rx   d 8 24 00 72 17 4B 46 00 24
 1.734370 1  18F100F3x       Rx   d 8 03 11 7E 35 CA FA 14 00
 1.735206 1  18F102F3x       Rx   d 8 0F 59 0F 53 10 06 00 06
 1.735692 1  CFF21CAx        Rx   d 8 24 00 6D 17 4B 46 00 24
 1.736291 1  18F100D0x       Rx   d 8 0C FF FF FF FF FF FF FF
 1.736848 1  18F106F3x       Rx   d 8 45 E0 FC FF FF FF FF FF
 1.738182 1  18F107F3x       Rx   d 8 38 A4 2B 2A 01 61 00 52
 1.739962 1  18F108F3x       Rx   d 8 00 00 00 00 00 00 00 00
 1.740849 1  18F155F3x       Rx   d 8 36 35 35 35 35 38 37 00
 1.741899 1  18F156F3x       Rx   d 8 00 00 00 00 00 00 00 00
 1.743234 1  18F157F3x       Rx   d 8 00 00 00 00 00 00 00 00
 1.743940 1  18F158F3x       Rx   d 8 00 00 00 00 00 00 00 00
 1.745044 1  18F159F3x       Rx   d 8 00 00 00 00 00 00 00 00
 1.745861 1  18F15AF3x       Rx   d 8 00 00 00 00 00 00 00 00
 1.746701 1  18F15BF3x       Rx   d 7 00 00 00 00 00 00 00
 1.747597 1  18F15CF3x       Rx   d 8 00 00 00 00 00 00 00 00
 1.747946 1  CFF21CAx        Rx   d 8 24 00 71 17 4B 46 00 24
 1.748583 1  18F15DF3x       Rx   d 8 00 00 00 00 00 00 00 00
 1.749577 1  18F15EF3x       Rx   d 8 00 00 00 00 00 00 00 00
 1.754546 1  18FF2112x       Rx   d 8 01 00 00 00 00 00 00 00
 1.759525 1  CFF21CAx        Rx   d 8 24 00 70 17 4B 46 00 24
 1.759875 1  18F100D0x       Rx   d 8 0C FF FF FF FF FF FF FF
 1.772149 1  CFF21CAx        Rx   d 8 24 00 73 17 4B 46 00 24
 1.783730 1  CFF21CAx        Rx   d 8 24 00 71 17 4B 46 00 24
 1.787971 1  18F100D0x       Rx   d 8 0C FF FF FF FF FF FF FF
 1.796335 1  CFF21CAx        Rx   d 8 24 00 70 17 4B 46 00 24
 1.834117 1  CFF21CAx        Rx   d 8 24 00 75 17 4B 46 00 24
 1.834410 1  18F100D0x       Rx   d 8 0C FF FF FF FF FF FF FF
 1.834641 1  CFF21CAx        Rx   d 8 23 00 75 17 4B 46 00 24
 1.834843 1  CFF21CAx        Rx   d 8 23 00 75 17 4B 46 00 24
 1.835053 1  18F100F3x       Rx   d 8 03 11 7E 35 CA FA 14 00
 1.835308 1  18F102F3x       Rx   d 8 0F 59 0F 53 10 06 00 06
 1.836616 1  18F106F3x       Rx   d 8 45 E0 FC FF FF FF FF FF
 1.838786 1  18F100D0x       Rx   d 8 0C FF FF FF FF FF FF FF
 1.839917 1  18F107F3x       Rx   d 8 38 A4 2B 2A 01 61 00 52
 1.840114 1  18F108F3x       Rx   d 8 00 00 00 00 00 00 00 00
 1.840300 1  18F155F3x       Rx   d 8 36 35 35 35 35 38 37 00
 1.841385 1  18F156F3x       Rx   d 8 00 00 00 00 00 00 00 00
 1.842025 1  18F157F3x       Rx   d 8 00 00 00 00 00 00 00 00
 1.843276 1  18F158F3x       Rx   d 8 00 00 00 00 00 00 00 00
 1.844136 1  18F159F3x       Rx   d 8 00 00 00 00 00 00 00 00
 1.844523 1  CFF21CAx        Rx   d 8 23 00 77 17 4B 46 00 24
 1.845300 1  18F15AF3x       Rx   d 8 00 00 00 00 00 00 00 00
 1.846090 1  18F15BF3x       Rx   d 7 00 00 00 00 00 00 00
 1.847027 1  18F15CF3x       Rx   d 8 00 00 00 00 00 00 00 00
 1.847876 1  18F15DF3x       Rx   d 8 00 00 00 00 00 00 00 00
 1.848778 1  18F15EF3x       Rx   d 8 00 00 00 00 00 00 00 00
 1.851664 1  18FF2112x       Rx   d 8 01 00 00 00 00 00 00 00
 1.855673 1  CFF21CAx        Rx   d 8 22 00 77 17 4B 46 00 24
 1.863888 1  18F100D0x       Rx   d 8 0C FF FF FF FF FF FF FF
 1.868327 1  CFF21CAx        Rx   d 8 22 00 7C 17 4B 46 00 24
 1.879690 1  CFF21CAx        Rx   d 8 22 00 7C 17 4B 46 00 24
 1.887825 1  18F100D0x       Rx   d 8 0C FF FF FF FF FF FF FF
 1.892176 1  CFF21CAx        Rx   d 8 22 00 7B 17 4B 46 00 24
 1.903983 1  CFF21CAx        Rx   d 8 22 00 7C 17 4B 46 00 24
 1.912280 1  18F100D0x       Rx   d 8 0C FF FF FF FF FF FF FF
 1.916803 1  CFF21CAx        Rx   d 8 22 00 78 17 4B 46 00 24
 1.928198 1  CFF21CAx        Rx   d 8 21 00 76 17 4B 46 00 24
 1.934297 1  18F100F3x       Rx   d 8 03 11 7E 29 CA FA 14 00
 1.935199 1  18F102F3x       Rx   d 8 0F 59 0F 53 10 06 00 06
 1.936538 1  18F106F3x       Rx   d 8 45 E0 FC FF FF FF FF FF
 1.936896 1  18F100D0x       Rx   d 8 0C FF FF FF FF FF FF FF
 1.937880 1  18F107F3x       Rx   d 8 38 A4 2B 2A 01 61 00 52
 1.939647 1  18F108F3x       Rx   d 8 00 00 00 00 00 00 00 00
 1.940566 1  18F155F3x       Rx   d 8 36 35 35 35 35 38 37 00
 1.940929 1  CFF21CAx        Rx   d 8 21 00 74 17 4B 46 00 24
 1.941632 1  18F156F3x       Rx   d 8 00 00 00 00 00 00 00 00
 1.942661 1  18F157F3x       Rx   d 8 00 00 00 00 00 00 00 00
 1.943360 1  18F158F3x       Rx   d 8 00 00 00 00 00 00 00 00
 1.944259 1  18F159F3x       Rx   d 8 00 00 00 00 00 00 00 00
 1.945184 1  18F15AF3x       Rx   d 8 00 00 00 00 00 00 00 00
 1.946243 1  18F15BF3x       Rx   d 7 00 00 00 00 00 00 00
 1.947005 1  18F15CF3x       Rx   d 8 00 00 00 00 00 00 00 00
 1.947969 1  18F15DF3x       Rx   d 8 00 00 00 00 00 00 00 00
 1.948723 1  18F15EF3x       Rx   d 8 00 00 00 00 00 00 00 00
 1.949296 1  18FF2112x       Rx   d 8 01 00 00 00 00 00 00 00
 1.952374 1  CFF21CAx        Rx   d 8 22 00 6E 17 4B 46 00 24
 1.965009 1  CFF21CAx        Rx   d 8 22 00 6B 17 4B 46 00 24
 1.965509 1  18F100D0x       Rx   d 8 0C FF FF FF FF FF FF FF
 1.976380 1  CFF21CAx        Rx   d 8 22 00 69 17 4B 46 00 24
 1.988775 1  CFF21CAx        Rx   d 8 23 00 68 17 4B 46 00 24
 1.989340 1  18F100D0x       Rx   d 8 0C FF FF FF FF FF FF FF
 2.000337 1  CFF21CAx        Rx   d 8 23 00 67 17 4B 46 00 24
 2.012932 1  CFF21CAx        Rx   d 8 23 00 6A 17 4B 46 00 24
 2.013350 1  18F100D0x       Rx   d 8 0C FF FF FF FF FF FF FF
 2.024650 1  CFF21CAx        Rx   d 8 23 00 6A 17 4B 46 00 24
 2.034230 1  18F100F3x       Rx   d 8 03 11 7E 29 CA FA 14 00
 2.064363 1  18F102F3x       Rx   d 8 0F 59 0F 53 10 06 00 06
 2.064607 1  18F106F3x       Rx   d 8 45 E0 FC FF FF FF FF FF
 2.064927 1  CFF21CAx        Rx   d 8 23 00 6B 17 4B 46 00 24
 2.065144 1  18F100D0x       Rx   d 8 0C FF FF FF FF FF FF FF
 2.065339 1  18F107F3x       Rx   d 8 38 A4 2B 2A 01 61 00 52
 2.065534 1  18F108F3x       Rx   d 8 00 00 00 00 00 00 00 00
 2.065723 1  18F155F3x       Rx   d 8 36 35 35 35 35 38 37 00
 2.065914 1  18F156F3x       Rx   d 8 00 00 00 00 00 00 00 00
 2.066101 1  18F157F3x       Rx   d 8 00 00 00 00 00 00 00 00
 2.066287 1  18F158F3x       Rx   d 8 00 00 00 00 00 00 00 00
 2.066472 1  18F159F3x       Rx   d 8 00 00 00 00 00 00 00 00
 2.066656 1  18F15AF3x       Rx   d 8 00 00 00 00 00 00 00 00
 2.066851 1  18FF2112x       Rx   d 8 01 00 00 00 00 00 00 00
 2.067021 1  18F15BF3x       Rx   d 7 00 00 00 00 00 00 00
 2.067202 1  18F104F3x       Rx   d 8 38 35 06 02 03 FF FF FF
 2.067382 1  18F113F3x       Rx   d 8 0F 56 0F 54 0F 55 0F 56
 2.067566 1  CFF21CAx        Rx   d 8 24 00 75 17 4B 46 00 24
 2.067774 1  18F114F3x       Rx   d 8 0F 54 0F 53 0F 57 0F 56
 2.067952 1  18F115F3x       Rx   d 8 0F 53 0F 53 0F 53 0F 53
 2.068129 1  18F116F3x       Rx   d 8 0F 57 0F 53 0F 57 0F 59
 2.068306 1  18F117F3x       Rx   d 8 0F 56 0F 56 0F 59 0F 59
 2.068482 1  18F118F3x       Rx   d 8 00 00 00 00 00 00 00 00
 2.068656 1  18F119F3x       Rx   d 8 00 00 00 00 00 00 00 00
 2.068829 1  18F11AF3x       Rx   d 8 00 00 00 00 00 00 00 00
 2.069013 1  18F11BF3x       Rx   d 8 00 00 00 00 00 00 00 00
 2.069179 1  18F11CF3x       Rx   d 8 00 00 00 00 00 00 00 00
 2.069346 1  18F11DF3x       Rx   d 8 00 00 00 00 00 00 00 00
 2.069511 1  18F11EF3x       Rx   d 8 00 00 00 00 00 00 00 00
 2.069678 1  18F11FF3x       Rx   d 8 00 00 00 00 00 00 00 00
 2.069857 1  18F120F3x       Rx   d 8 00 00 00 00 00 00 00 00
 2.070021 1  CFF21CAx        Rx   d 8 24 00 72 17 4B 46 00 24
 2.070186 1  18F100D0x       Rx   d 8 0C FF FF FF FF FF FF FF
 2.070350 1  18F121F3x       Rx   d 8 00 00 00 00 00 00 00 00
 2.070512 1  18F122F3x       Rx   d 8 00 00 00 00 00 00 00 00
 2.070677 1  18F123F3x       Rx   d 8 00 00 00 00 00 00 00 00
 2.070842 1  18F124F3x       Rx   d 8 00 00 00 00 00 00 00 00
 2.071004 1  18F125F3x       Rx   d 8 00 00 00 00 00 00 00 00
 2.071166 1  18F126F3x       Rx   d 8 00 00 00 00 00 00 00 00
 2.071328 1  18F127F3x       Rx   d 8 00 00 00 00 00 00 00 00
 2.071492 1  18F128F3x       Rx   d 8 00 00 00 00 00 00 00 00
 2.071655 1  18F129F3x       Rx   d 8 00 00 00 00 00 00 00 00
 2.071817 1  18F12AF3x       Rx   d 8 00 00 00 00 00 00 00 00
 2.071981 1  18F12BF3x       Rx   d 8 00 00 00 00 00 00 00 00
 2.072503 1  CFF21CAx        Rx   d 8 24 00 72 17 4B 46 00 24
 2.073248 1  18F12CF3x       Rx   d 8 00 00 00 00 00 00 00 00
 2.074099 1  18F12DF3x       Rx   d 8 00 00 00 00 00 00 00 00
 2.074955 1  18F12EF3x       Rx   d 8 00 00 00 00 00 00 00 00
 2.075854 1  18F12FF3x       Rx   d 8 00 00 00 00 00 00 00 00
 2.076777 1  18F130F3x       Rx   d 8 00 00 00 00 00 00 00 00
 2.077771 1  18F131F3x       Rx   d 8 00 00 00 00 00 00 00 00
 2.078525 1  18F132F3x       Rx   d 8 00 00 00 00 00 00 00 00
 2.079404 1  18F133F3x       Rx   d 8 00 00 00 00 00 00 00 00
 2.080408 1  18F134F3x       Rx   d 8 00 00 00 00 00 00 00 00
 2.081112 1  18F135F3x       Rx   d 8 00 00 00 00 00 00 00 00
 2.081960 1  18F136F3x       Rx   d 8 00 00 00 00 00 00 00 00
 2.083300 1  18F137F3x       Rx   d 8 00 00 00 00 00 00 00 00
 2.084132 1  18F138F3x       Rx   d 8 00 00 00 00 00 00 00 00
 2.084943 1  18F139F3x       Rx   d 8 00 00 00 00 00 00 00 00
 2.085568 1  CFF21CAx        Rx   d 8 24 00 72 17 4B 46 00 24
 2.085978 1  18F13AF3x       Rx   d 8 00 00 00 00 00 00 00 00
 2.086946 1  18F13BF3x       Rx   d 8 00 00 00 00 00 00 00 00
 2.087811 1  18F13CF3x       Rx   d 8 00 00 00 00 00 00 00 00
 2.088467 1  18F100D0x       Rx   d 8 0C FF FF FF FF FF FF FF
 2.089018 1  18F15CF3x       Rx   d 8 00 00 00 00 00 00 00 00
 2.090044 1  18F15DF3x       Rx   d 8 00 00 00 00 00 00 00 00
 2.091072 1  18F15EF3x       Rx   d 8 00 00 00 00 00 00 00 00
 2.096856 1  CFF21CAx        Rx   d 8 24 00 6F 17 4B 46 00 24
 2.109046 1  CFF21CAx        Rx   d 8 24 00 71 17 4B 46 00 24
 2.112701 1  18F100D0x       Rx   d 8 0C FF FF FF FF FF FF FF
 2.120827 1  CFF21CAx        Rx   d 8 24 00 6B 17 4B 46 00 24
 2.133563 1  CFF21CAx        Rx   d 8 24 00 6D 17 4B 46 00 24
 2.134380 1  18F100F3x       Rx   d 8 03 11 7E 1E CA FA 14 00
 2.135280 1  18F102F3x       Rx   d 8 0F 59 0F 53 10 06 00 06
 2.136518 1  18F106F3x       Rx   d 8 45 E0 FC FF FF FF FF FF
 2.137361 1  18F100D0x       Rx   d 8 0C FF FF FF FF FF FF FF
 2.137881 1  18F107F3x       Rx   d 8 38 A4 2B 2A 01 61 00 52
 2.139648 1  18F108F3x       Rx   d 8 00 00 00 00 00 00 00 00
 2.140598 1  18F155F3x       Rx   d 8 36 35 35 35 35 38 37 00
 2.141501 1  18F156F3x       Rx   d 8 00 00 00 00 00 00 00 00
 2.142394 1  18F157F3x       Rx   d 8 00 00 00 00 00 00 00 00
 2.143344 1  18F158F3x       Rx   d 8 00 00 00 00 00 00 00 00
 2.143789 1  18FF2112x       Rx   d 8 01 00 00 00 00 00 00 00
 2.144587 1  18F159F3x       Rx   d 8 00 00 00 00 00 00 00 00
 2.144986 1  CFF21CAx        Rx   d 8 24 00 6D 17 4B 46 00 24
 2.145670 1  18F15AF3x       Rx   d 8 00 00 00 00 00 00 00 00
 2.146355 1  18F15BF3x       Rx   d 7 00 00 00 00 00 00 00
 2.147423 1  18F15CF3x       Rx   d 8 00 00 00 00 00 00 00 00
 2.148205 1  18F15DF3x       Rx   d 8 00 00 00 00 00 00 00 00
 2.149212 1  18F15EF3x       Rx   d 8 00 00 00 00 00 00 00 00
 2.156967 1  CFF21CAx        Rx   d 8 25 00 6B 17 4B 46 00 24
 2.161261 1  18F100D0x       Rx   d 8 0C FF FF FF FF FF FF FF
 2.169095 1  CFF21CAx        Rx   d 8 25 00 6D 17 4B 46 00 24
 2.181515 1  CFF21CAx        Rx   d 8 25 00 6F 17 4B 46 00 24
 2.189627 1  18F100D0x       Rx   d 8 0C FF FF FF FF FF FF FF
 2.193285 1  CFF21CAx        Rx   d 8 25 00 6F 17 4B 46 00 24
 2.205268 1  CFF21CAx        Rx   d 8 25 00 71 17 4B 46 00 24
 2.213715 1  18F100D0x       Rx   d 8 0C FF FF FF FF FF FF FF
 2.217470 1  CFF21CAx        Rx   d 8 24 00 74 17 4B 46 00 24
 2.229741 1  CFF21CAx        Rx   d 8 24 00 75 17 4B 46 00 24
 2.234250 1  18F100F3x       Rx   d 8 03 11 7E 1E CA FA 14 00
 2.235245 1  18F102F3x       Rx   d 8 0F 59 0F 53 10 06 00 06
 2.236531 1  18F106F3x       Rx   d 8 45 E0 FC FF FF FF FF FF
 2.237736 1  18F107F3x       Rx   d 8 38 A4 2B 2A 01 61 00 52
 2.238091 1  18F100D0x       Rx   d 8 0C FF FF FF FF FF FF FF
 2.239706 1  18F108F3x       Rx   d 8 00 00 00 00 00 00 00 00
 2.240545 1  18F155F3x       Rx   d 8 36 35 35 35 35 38 37 00
 2.240909 1  18FF2112x       Rx   d 8 01 00 00 00 00 00 00 00
 2.241668 1  18F156F3x       Rx   d 8 00 00 00 00 00 00 00 00
 2.242025 1  CFF21CAx        Rx   d 8 24 00 76 17 4B 46 00 24
 2.242637 1  18F157F3x       Rx   d 8 00 00 00 00 00 00 00 00
 2.243754 1  18F158F3x       Rx   d 8 00 00 00 00 00 00 00 00
 2.244595 1  18F159F3x       Rx   d 8 00 00 00 00 00 00 00 00
 2.245489 1  18F15AF3x       Rx   d 8 00 00 00 00 00 00 00 00
 2.246205 1  18F15BF3x       Rx   d 7 00 00 00 00 00 00 00
 2.247192 1  18F15CF3x       Rx   d 8 00 00 00 00 00 00 00 00
 2.248100 1  18F15DF3x       Rx   d 8 00 00 00 00 00 00 00 00
 2.248956 1  18F15EF3x       Rx   d 8 00 00 00 00 00 00 00 00
 2.253742 1  CFF21CAx        Rx   d 8 24 00 72 17 4B 46 00 24
 2.261881 1  18F100D0x       Rx   d 8 0C FF FF FF FF FF FF FF
 2.292283 1  CFF21CAx        Rx   d 8 24 00 77 17 4B 46 00 24
 2.292479 1  CFF21CAx        Rx   d 8 23 00 77 17 4B 46 00 24
 2.292722 1  18F100D0x       Rx   d 8 0C FF FF FF FF FF FF FF
 2.292897 1  CFF21CAx        Rx   d 8 23 00 75 17 4B 46 00 24
 2.301623 1  CFF21CAx        Rx   d 8 23 00 72 17 4B 46 00 24
 2.313999 1  CFF21CAx        Rx   d 8 23 00 73 17 4B 46 00 24
 2.314538 1  18F100D0x       Rx   d 8 0C FF FF FF FF FF FF FF
 2.325624 1  CFF21CAx        Rx   d 8 23 00 72 17 4B 46 00 24
 2.334057 1  18F100F3x       Rx   d 8 03 11 7E 1E CA FA 14 00
 2.334903 1  18F102F3x       Rx   d 8 0F 59 0F 53 10 06 00 06
 2.336183 1  18F106F3x       Rx   d 8 45 E0 FC FF FF FF FF FF
 2.337424 1  18F107F3x       Rx   d 8 38 A4 2B 2A 01 61 00 52
 2.337965 1  CFF21CAx        Rx   d 8 23 00 72 17 4B 46 00 24
 2.338611 1  18F100D0x       Rx   d 8 0C FF FF FF FF FF FF FF
 2.339183 1  18FF2112x       Rx   d 8 01 00 00 00 00 00 00 00
 2.339768 1  18F108F3x       Rx   d 8 00 00 00 00 00 00 00 00
 2.340646 1  18F155F3x       Rx   d 8 36 35 35 35 35 38 37 00
 2.341608 1  18F156F3x       Rx   d 8 00 00 00 00 00 00 00 00
 2.342442 1  18F157F3x       Rx   d 8 00 00 00 00 00 00 00 00
 2.343334 1  18F158F3x       Rx   d 8 00 00 00 00 00 00 00 00
 2.344236 1  18F159F3x       Rx   d 8 00 00 00 00 00 00 00 00
 2.345116 1  18F15AF3x       Rx   d 8 00 00 00 00 00 00 00 00
 2.345998 1  18F15BF3x       Rx   d 7 00 00 00 00 00 00 00
 2.346838 1  18F15CF3x       Rx   d 8 00 00 00 00 00 00 00 00
 2.347779 1  18F15DF3x       Rx   d 8 00 00 00 00 00 00 00 00
 2.348549 1  18F15EF3x       Rx   d 8 00 00 00 00 00 00 00 00
 2.350131 1  CFF21CAx        Rx   d 8 23 00 77 17 4B 46 00 24
 2.361729 1  CFF21CAx        Rx   d 8 23 00 79 17 4B 46 00 24
 2.365961 1  18F100D0x       Rx   d 8 0C FF FF FF FF FF FF FF
 2.374049 1  CFF21CAx        Rx   d 8 23 00 7A 17 4B 46 00 24
 2.386164 1  CFF21CAx        Rx   d 8 23 00 79 17 4B 46 00 24
 2.389885 1  18F100D0x       Rx   d 8 0C FF FF FF FF FF FF FF
 2.398119 1  CFF21CAx        Rx   d 8 22 00 78 17 4B 46 00 24
 2.410453 1  CFF21CAx        Rx   d 8 22 00 79 17 4B 46 00 24
 2.414485 1  18F100D0x       Rx   d 8 0C FF FF FF FF FF FF FF
 2.421977 1  CFF21CAx        Rx   d 8 22 00 75 17 4B 46 00 24
 2.434385 1  CFF21CAx        Rx   d 8 21 00 73 17 4B 46 00 24
 2.434932 1  18F100F3x       Rx   d 8 03 11 7E 1D CA FA 14 00
 2.435525 1  18FF2112x       Rx   d 8 01 00 00 00 00 00 00 00
 2.436012 1  18F102F3x       Rx   d 8 0F 59 0F 53 10 06 00 06
 2.437409 1  18F106F3x       Rx   d 8 45 E0 FC FF FF FF FF FF
 2.438692 1  18F100D0x       Rx   d 8 0C FF FF FF FF FF FF FF
 2.439056 1  18F107F3x       Rx   d 8 38 A4 2B 2A 01 61 00 52
 2.440911 1  18F108F3x       Rx   d 8 00 00 00 00 00 00 00 00
 2.441969 1  18F155F3x       Rx   d 8 36 35 35 35 35 38 37 00
 2.443213 1  18F156F3x       Rx   d 8 00 00 00 00 00 00 00 00
 2.443893 1  18F157F3x       Rx   d 8 00 00 00 00 00 00 00 00
 2.444844 1  18F158F3x       Rx   d 8 00 00 00 00 00 00 00 00
 2.445937 1  18F159F3x       Rx   d 8 00 00 00 00 00 00 00 00
 2.446289 1  CFF21CAx        Rx   d 8 21 00 6F 17 4B 46 00 24
 2.446876 1  18F15AF3x       Rx   d 8 00 00 00 00 00 00 00 00
 2.447638 1  18F15BF3x       Rx   d 7 00 00 00 00 00 00 00
 2.448635 1  18F15CF3x       Rx   d 8 00 00 00 00 00 00 00 00
 2.449595 1  18F15DF3x       Rx   d 8 00 00 00 00 00 00 00 00
 2.450153 1  18F15EF3x       Rx   d 8 00 00 00 00 00 00 00 00
 2.458187 1  CFF21CAx        Rx   d 8 21 00 6F 17 4B 46 00 24
 2.462429 1  18F100D0x       Rx   d 8 0C FF FF FF FF FF FF FF
 2.470466 1  CFF21CAx        Rx   d 8 21 00 67 17 4B 46 00 24
 2.482520 1  CFF21CAx        Rx   d 8 21 00 68 17 4B 46 00 24
 2.486568 1  18F100D0x       Rx   d 8 0C FF FF FF FF FF FF FF
 2.522120 1  CFF21CAx        Rx   d 8 21 00 65 17 4B 46 00 24
 2.522326 1  CFF21CAx        Rx   d 8 22 00 66 17 4B 46 00 24
 2.522508 1  18F100D0x       Rx   d 8 0C FF FF FF FF FF FF FF
 2.522699 1  CFF21CAx        Rx   d 8 22 00 65 17 4B 46 00 24
 2.530885 1  CFF21CAx        Rx   d 8 23 00 67 17 4B 46 00 24
 2.532913 1  18FF2112x       Rx   d 8 01 00 00 00 00 00 00 00
 2.534583 1  18F100F3x       Rx   d 8 03 11 7E 1D CA FA 14 00
 2.535265 1  18F102F3x       Rx   d 8 0F 59 0F 53 10 06 00 06
 2.536500 1  18F106F3x       Rx   d 8 45 E0 FC FF FF FF FF FF
 2.537810 1  18F107F3x       Rx   d 8 38 A4 2B 2A 01 61 00 52
 2.539164 1  18F100D0x       Rx   d 8 0C FF FF FF FF FF FF FF
 2.539512 1  18F108F3x       Rx   d 8 00 00 00 00 00 00 00 00
 2.540519 1  18F155F3x       Rx   d 8 36 35 35 35 35 38 37 00
 2.541424 1  18F156F3x       Rx   d 8 00 00 00 00 00 00 00 00
 2.542369 1  18F157F3x       Rx   d 8 00 00 00 00 00 00 00 00
 2.542719 1  CFF21CAx        Rx   d 8 23 00 66 17 4B 46 00 24
 2.543509 1  18F158F3x       Rx   d 8 00 00 00 00 00 00 00 00
 2.544423 1  18F159F3x       Rx   d 8 00 00 00 00 00 00 00 00
 2.545262 1  18F15AF3x       Rx   d 8 00 00 00 00 00 00 00 00
 2.545941 1  18F15BF3x       Rx   d 7 00 00 00 00 00 00 00
 2.547061 1  18F15CF3x       Rx   d 8 00 00 00 00 00 00 00 00
 2.547719 1  18F15DF3x       Rx   d 8 00 00 00 00 00 00 00 00
 2.548801 1  18F15EF3x       Rx   d 8 00 00 00 00 00 00 00 00
 2.554946 1  CFF21CAx        Rx   d 8 23 00 61 17 4B 46 00 24
 2.562438 1  18F100D0x       Rx   d 8 0C FF FF FF FF FF FF FF
 2.566398 1  CFF21CAx        Rx   d 8 24 00 65 17 4B 46 00 24
 2.578676 1  CFF21CAx        Rx   d 8 24 00 60 17 4B 46 00 24
 2.590706 1  CFF21CAx        Rx   d 8 24 00 62 17 4B 46 00 24
 2.591279 1  18F100D0x       Rx   d 8 0C FF FF FF FF FF FF FF
 2.603495 1  CFF21CAx        Rx   d 8 25 00 60 17 4B 46 00 24
 2.615204 1  CFF21CAx        Rx   d 8 25 00 5F 17 4B 46 00 24
 2.615725 1  18F100D0x       Rx   d 8 0C FF FF FF FF FF FF FF
 2.627675 1  CFF21CAx        Rx   d 8 27 00 5F 17 4B 46 00 24
 2.630454 1  18FF2112x       Rx   d 8 01 00 00 00 00 00 00 00
 2.634610 1  18F100F3x       Rx   d 8 03 11 7E 21 CA FA 14 00
 2.635171 1  18F102F3x       Rx   d 8 0F 59 0F 53 10 06 00 06
 2.636529 1  18F106F3x       Rx   d 8 45 E0 FC FF FF FF FF FF
 2.637774 1  18F107F3x       Rx   d 8 38 A4 2B 2A 01 61 00 52
 2.639735 1  CFF21CAx        Rx   d 8 27 00 5E 17 4B 46 00 24
 2.640188 1  18F100D0x       Rx   d 8 0C FF FF FF FF FF FF FF
 2.640499 1  18F108F3x       Rx   d 8 00 00 00 00 00 00 00 00
 2.641670 1  18F155F3x       Rx   d 8 36 35 35 35 35 38 37 00
 2.642275 1  18F156F3x       Rx   d 8 00 00 00 00 00 00 00 00
 2.643499 1  18F157F3x       Rx   d 8 00 00 00 00 00 00 00 00
 2.644255 1  18F158F3x       Rx   d 8 00 00 00 00 00 00 00 00
 2.645290 1  18F159F3x       Rx   d 8 00 00 00 00 00 00 00 00
 2.646052 1  18F15AF3x       Rx   d 8 00 00 00 00 00 00 00 00
 2.647176 1  18F15BF3x       Rx   d 7 00 00 00 00 00 00 00
 2.647697 1  18F15CF3x       Rx   d 8 00 00 00 00 00 00 00 00
 2.648678 1  18F15DF3x       Rx   d 8 00 00 00 00 00 00 00 00
 2.649401 1  18F15EF3x       Rx   d 8 00 00 00 00 00 00 00 00
 2.651341 1  CFF21CAx        Rx   d 8 27 00 60 17 4B 46 00 24
 2.663165 1  CFF21CAx        Rx   d 8 28 00 60 17 4B 46 00 24
 2.663534 1  18F100D0x       Rx   d 8 0C FF FF FF FF FF FF FF
 2.664325 1  18FECACAx       Rx   d 8 00 00 00 00 00 00 FF FF
 2.675786 1  CFF21CAx        Rx   d 8 28 00 63 17 4B 46 00 24
 2.687121 1  CFF21CAx        Rx   d 8 28 00 69 17 4B 46 00 24
 2.691466 1  18F100D0x       Rx   d 8 0C FF FF FF FF FF FF FF
 2.699745 1  CFF21CAx        Rx   d 8 28 00 66 17 4B 46 00 24
 2.711298 1  CFF21CAx        Rx   d 8 28 00 6E 17 4B 46 00 24
 2.715656 1  18F100D0x       Rx   d 8 0C FF FF FF FF FF FF FF
 2.723662 1  CFF21CAx        Rx   d 8 28 00 6F 17 4B 46 00 24
 2.754723 1  18FF2112x       Rx   d 8 01 00 00 00 00 00 00 00
 2.755022 1  18F100F3x       Rx   d 8 03 11 7E 21 CA FA 14 00
 2.755275 1  18F102F3x       Rx   d 8 0F 59 0F 53 10 06 00 06
 2.755468 1  CFF21CAx        Rx   d 8 28 00 71 17 4B 46 00 24
 2.755641 1  18F106F3x       Rx   d 8 45 E0 FC FF FF FF FF FF
 2.755812 1  18F107F3x       Rx   d 8 38 A4 2B 2A 01 61 00 52
 2.755981 1  18F108F3x       Rx   d 8 00 00 00 00 00 00 00 00
 2.756149 1  18F100D0x       Rx   d 8 0C FF FF FF FF FF FF FF
 2.756313 1  18F155F3x       Rx   d 8 36 35 35 35 35 38 37 00
 2.756502 1  18F156F3x       Rx   d 8 00 00 00 00 00 00 00 00
 2.756703 1  18F157F3x       Rx   d 8 00 00 00 00 00 00 00 00
 2.756876 1  18F158F3x       Rx   d 8 00 00 00 00 00 00 00 00
 2.757047 1  18F159F3x       Rx   d 8 00 00 00 00 00 00 00 00
 2.757214 1  18F15AF3x       Rx   d 8 00 00 00 00 00 00 00 00
 2.757370 1  18F15BF3x       Rx   d 7 00 00 00 00 00 00 00
 2.757536 1  18F15CF3x       Rx   d 8 00 00 00 00 00 00 00 00
 2.757701 1  18F15DF3x       Rx   d 8 00 00 00 00 00 00 00 00
 2.757865 1  CFF21CAx        Rx   d 8 28 00 71 17 4B 46 00 24
 2.758033 1  18F15EF3x       Rx   d 8 00 00 00 00 00 00 00 00
 2.759202 1  CFF21CAx        Rx   d 8 28 00 71 17 4B 46 00 24
 2.763967 1  18F100D0x       Rx   d 8 0C FF FF FF FF FF FF FF
 2.772016 1  CFF21CAx        Rx   d 8 28 00 72 17 4B 46 00 24
 2.783709 1  CFF21CAx        Rx   d 8 28 00 72 17 4B 46 00 24
 2.787573 1  18F100D0x       Rx   d 8 0C FF FF FF FF FF FF FF
 2.795951 1  CFF21CAx        Rx   d 8 27 00 6E 17 4B 46 00 24
 2.807425 1  CFF21CAx        Rx   d 8 27 00 71 17 4B 46 00 24
 2.815647 1  18F100D0x       Rx   d 8 0C FF FF FF FF FF FF FF
 2.820082 1  CFF21CAx        Rx   d 8 28 00 6D 17 4B 46 00 24
 2.824489 1  18FF2112x       Rx   d 8 01 00 00 00 00 00 00 00
 2.832127 1  CFF21CAx        Rx   d 8 28 00 6D 17 4B 46 00 24
 2.834105 1  18F100F3x       Rx   d 8 03 11 7E 21 CA FA 14 00
 2.835144 1  18F102F3x       Rx   d 8 0F 59 0F 53 10 06 00 06
 2.836509 1  18F106F3x       Rx   d 8 45 E0 FC FF FF FF FF FF
 2.837822 1  18F107F3x       Rx   d 8 38 A4 2B 2A 01 61 00 52
 2.839494 1  18F108F3x       Rx   d 8 00 00 00 00 00 00 00 00
 2.840223 1  18F100D0x       Rx   d 8 0C FF FF FF FF FF FF FF
 2.840644 1  18F155F3x       Rx   d 8 36 35 35 35 35 38 37 00
 2.841564 1  18F156F3x       Rx   d 8 00 00 00 00 00 00 00 00
 2.842480 1  18F157F3x       Rx   d 8 00 00 00 00 00 00 00 00
 2.843402 1  18F158F3x       Rx   d 8 00 00 00 00 00 00 00 00
 2.844326 1  CFF21CAx        Rx   d 8 28 00 6D 17 4B 46 00 24
 2.844696 1  18F159F3x       Rx   d 8 00 00 00 00 00 00 00 00
 2.845806 1  18F15AF3x       Rx   d 8 00 00 00 00 00 00 00 00
 2.846403 1  18F15BF3x       Rx   d 7 00 00 00 00 00 00 00
 2.847529 1  18F15CF3x       Rx   d 8 00 00 00 00 00 00 00 00
 2.848095 1  18F15DF3x       Rx   d 8 00 00 00 00 00 00 00 00
 2.849269 1  18F15EF3x       Rx   d 8 00 00 00 00 00 00 00 00
 2.855789 1  CFF21CAx        Rx   d 8 27 00 6E 17 4B 46 00 24
 2.864256 1  18F100D0x       Rx   d 8 0C FF FF FF FF FF FF FF
 2.868678 1  CFF21CAx        Rx   d 8 27 00 71 17 4B 46 00 24
 2.880230 1  CFF21CAx        Rx   d 8 27 00 6D 17 4B 46 00 24
 2.887894 1  18F100D0x       Rx   d 8 0C FF FF FF FF FF FF FF
 2.892392 1  CFF21CAx        Rx   d 8 27 00 6D 17 4B 46 00 24
 2.904016 1  CFF21CAx        Rx   d 8 27 00 6C 17 4B 46 00 24
 2.912253 1  18F100D0x       Rx   d 8 0C FF FF FF FF FF FF FF
 2.916677 1  CFF21CAx        Rx   d 8 27 00 66 17 4B 46 00 24
 2.921855 1  18FF2112x       Rx   d 8 01 00 00 00 00 00 00 00
 2.928292 1  CFF21CAx        Rx   d 8 27 00 6A 17 4B 46 00 24
 2.934398 1  18F100F3x       Rx   d 8 03 11 7E 34 CA FA 14 00
 2.935325 1  18F102F3x       Rx   d 8 0F 59 0F 53 10 06 00 06
 2.936759 1  18F106F3x       Rx   d 8 45 E0 FC FF FF FF FF FF
 2.937984 1  18F107F3x       Rx   d 8 38 A4 2B 2A 01 61 00 52
 2.939809 1  18F108F3x       Rx   d 8 00 00 00 00 00 00 00 00
 2.940524 1  18F155F3x       Rx   d 8 36 35 35 35 35 38 37 00
 2.940877 1  CFF21CAx        Rx   d 8 27 00 68 17 4B 46 00 24
 2.941328 1  18F100D0x       Rx   d 8 0C FF FF FF FF FF FF FF
 2.941988 1  18F156F3x       Rx   d 8 00 00 00 00 00 00 00 00
 2.943402 1  18F157F3x       Rx   d 8 00 00 00 00 00 00 00 00
 2.944073 1  18F158F3x       Rx   d 8 00 00 00 00 00 00 00 00
 2.945269 1  18F159F3x       Rx   d 8 00 00 00 00 00 00 00 00
 2.945951 1  18F15AF3x       Rx   d 8 00 00 00 00 00 00 00 00
 2.947040 1  18F15BF3x       Rx   d 7 00 00 00 00 00 00 00
 2.948013 1  18F15CF3x       Rx   d 8 00 00 00 00 00 00 00 00
 2.948838 1  18F15DF3x       Rx   d 8 00 00 00 00 00 00 00 00
 2.949559 1  18F15EF3x       Rx   d 8 00 00 00 00 00 00 00 00
 2.952303 1  CFF21CAx        Rx   d 8 28 00 69 17 4B 46 00 24
 2.983206 1  CFF21CAx        Rx   d 8 28 00 68 17 4B 46 00 24
 2.983466 1  18F100D0x       Rx   d 8 0C FF FF FF FF FF FF FF
 2.983650 1  CFF21CAx        Rx   d 8 27 00 6D 17 4B 46 00 24
 2.990401 1  CFF21CAx        Rx   d 8 27 00 6D 17 4B 46 00 24
 2.991104 1  18F100D0x       Rx   d 8 0C FF FF FF FF FF FF FF
 3.000444 1  CFF21CAx        Rx   d 8 27 00 6E 17 4B 46 00 24
 3.012981 1  CFF21CAx        Rx   d 8 27 00 73 17 4B 46 00 24
 3.013364 1  18F100D0x       Rx   d 8 0C FF FF FF FF FF FF FF
 3.019315 1  18FF2112x       Rx   d 8 01 00 00 00 00 00 00 00
 3.024742 1  CFF21CAx        Rx   d 8 27 00 77 17 4B 46 00 24
 3.034177 1  18F100F3x       Rx   d 8 03 11 7E 34 CA FA 14 00
 3.034993 1  18F102F3x       Rx   d 8 0F 59 0F 53 10 06 00 06
 3.036357 1  18F106F3x       Rx   d 8 45 E0 FC FF FF FF FF FF
 3.036807 1  CFF21CAx        Rx   d 8 27 00 7B 17 4B 46 00 24
 3.037439 1  18F107F3x       Rx   d 8 38 A4 2B 2A 01 61 00 52
 3.039262 1  18F108F3x       Rx   d 8 00 00 00 00 00 00 00 00
 3.040092 1  18F155F3x       Rx   d 8 36 35 35 35 35 38 37 00
 3.040792 1  18F100D0x       Rx   d 8 0C FF FF FF FF FF FF FF
 3.041362 1  18F156F3x       Rx   d 8 00 00 00 00 00 00 00 00
 3.042257 1  18F157F3x       Rx   d 8 00 00 00 00 00 00 00 00
 3.043124 1  18F158F3x       Rx   d 8 00 00 00 00 00 00 00 00
 3.043998 1  18F159F3x       Rx   d 8 00 00 00 00 00 00 00 00
 3.044946 1  18F15AF3x       Rx   d 8 00 00 00 00 00 00 00 00
 3.045941 1  18F15BF3x       Rx   d 7 00 00 00 00 00 00 00
 3.046720 1  18F15CF3x       Rx   d 8 00 00 00 00 00 00 00 00
 3.047872 1  18F104F3x       Rx   d 8 38 35 06 02 03 FF FF FF
 3.048390 1  CFF21CAx        Rx   d 8 25 00 7A 17 4B 46 00 24
 3.048936 1  18F113F3x       Rx   d 8 0F 56 0F 54 0F 55 0F 56
 3.049997 1  18F114F3x       Rx   d 8 0F 54 0F 53 0F 57 0F 56
 3.050902 1  18F115F3x       Rx   d 8 0F 53 0F 53 0F 53 0F 53
 3.051728 1  18F116F3x       Rx   d 8 0F 57 0F 53 0F 57 0F 59
 3.052935 1  18F117F3x       Rx   d 8 0F 56 0F 56 0F 59 0F 59
 3.053847 1  18F118F3x       Rx   d 8 00 00 00 00 00 00 00 00
 3.054897 1  18F119F3x       Rx   d 8 00 00 00 00 00 00 00 00
 3.055798 1  18F11AF3x       Rx   d 8 00 00 00 00 00 00 00 00
 3.056717 1  18F11BF3x       Rx   d 8 00 00 00 00 00 00 00 00
 3.057676 1  18F11CF3x       Rx   d 8 00 00 00 00 00 00 00 00
 3.058664 1  18F11DF3x       Rx   d 8 00 00 00 00 00 00 00 00
 3.059562 1  18F11EF3x       Rx   d 8 00 00 00 00 00 00 00 00
 3.060521 1  18F11FF3x       Rx   d 8 00 00 00 00 00 00 00 00
 3.061050 1  CFF21CAx        Rx   d 8 25 00 77 17 4B 46 00 24
 3.061618 1  18F120F3x       Rx   d 8 00 00 00 00 00 00 00 00
 3.062908 1  18F121F3x       Rx   d 8 00 00 00 00 00 00 00 00
 3.063817 1  18F122F3x       Rx   d 8 00 00 00 00 00 00 00 00
 3.064379 1  18F100D0x       Rx   d 8 0C FF FF FF FF FF FF FF
 3.064944 1  18F123F3x       Rx   d 8 00 00 00 00 00 00 00 00
 3.065862 1  18F124F3x       Rx   d 8 00 00 00 00 00 00 00 00
 3.066869 1  18F125F3x       Rx   d 8 00 00 00 00 00 00 00 00
 3.067782 1  18F126F3x       Rx   d 8 00 00 00 00 00 00 00 00
 3.068725 1  18F127F3x       Rx   d 8 00 00 00 00 00 00 00 00
 3.069610 1  18F128F3x       Rx   d 8 00 00 00 00 00 00 00 00
 3.071682 1  18F129F3x       Rx   d 8 00 00 00 00 00 00 00 00
 3.072752 1  18F12AF3x       Rx   d 8 00 00 00 00 00 00 00 00
 3.072934 1  18F12BF3x       Rx   d 8 00 00 00 00 00 00 00 00
 3.073101 1  CFF21CAx        Rx   d 8 24 00 77 17 4B 46 00 24
 3.073510 1  18F12CF3x       Rx   d 8 00 00 00 00 00 00 00 00
 3.074384 1  18F12DF3x       Rx   d 8 00 00 00 00 00 00 00 00
 3.075185 1  18F12EF3x       Rx   d 8 00 00 00 00 00 00 00 00
 3.076065 1  18F12FF3x       Rx   d 8 00 00 00 00 00 00 00 00
 3.076896 1  18F130F3x       Rx   d 8 00 00 00 00 00 00 00 00
 3.077821 1  18F131F3x       Rx   d 8 00 00 00 00 00 00 00 00
 3.078852 1  18F132F3x       Rx   d 8 00 00 00 00 00 00 00 00
 3.079660 1  18F133F3x       Rx   d 8 00 00 00 00 00 00 00 00
 3.080590 1  18F134F3x       Rx   d 8 00 00 00 00 00 00 00 00
 3.081434 1  18F135F3x       Rx   d 8 00 00 00 00 00 00 00 00
 3.082430 1  18F136F3x       Rx   d 8 00 00 00 00 00 00 00 00
 3.083216 1  18F137F3x       Rx   d 8 00 00 00 00 00 00 00 00
 3.084046 1  18F138F3x       Rx   d 8 00 00 00 00 00 00 00 00
 3.084962 1  18F139F3x       Rx   d 8 00 00 00 00 00 00 00 00
 3.085530 1  CFF21CAx        Rx   d 8 24 00 75 17 4B 46 00 24
 3.086080 1  18F13AF3x       Rx   d 8 00 00 00 00 00 00 00 00
 3.086942 1  18F13BF3x       Rx   d 8 00 00 00 00 00 00 00 00
 3.087869 1  18F13CF3x       Rx   d 8 00 00 00 00 00 00 00 00
 3.088505 1  18F100D0x       Rx   d 8 0C FF FF FF FF FF FF FF
 3.089074 1  18F15DF3x       Rx   d 8 00 00 00 00 00 00 00 00
 3.089923 1  18F15EF3x       Rx   d 8 00 00 00 00 00 00 00 00
 3.096802 1  CFF21CAx        Rx   d 8 24 00 70 17 4B 46 00 24
 3.109449 1  CFF21CAx        Rx   d 8 24 00 70 17 4B 46 00 24
 3.112843 1  18F100D0x       Rx   d 8 0C FF FF FF FF FF FF FF
 3.116611 1  18FF2112x       Rx   d 8 01 00 00 00 00 00 00 00
 3.120885 1  CFF21CAx        Rx   d 8 23 00 6F 17 4B 46 00 24
 3.133305 1  CFF21CAx        Rx   d 8 23 00 6D 17 4B 46 00 24
 3.134460 1  18F100F3x       Rx   d 8 03 11 7E 29 CA FA 14 00
 3.135159 1  18F102F3x       Rx   d 8 0F 59 0F 53 10 06 00 06
 3.136591 1  18F106F3x       Rx   d 8 45 E0 FC FF FF FF FF FF
 3.137889 1  18F107F3x       Rx   d 8 38 A4 2B 2A 01 61 00 52
 3.139579 1  18F108F3x       Rx   d 8 00 00 00 00 00 00 00 00
 3.140406 1  18F155F3x       Rx   d 8 36 35 35 35 35 38 37 00
 3.141313 1  18F156F3x       Rx   d 8 00 00 00 00 00 00 00 00
 3.141669 1  18F100D0x       Rx   d 8 0C FF FF FF FF FF FF FF
 3.142483 1  18F157F3x       Rx   d 8 00 00 00 00 00 00 00 00
 3.143385 1  18F158F3x       Rx   d 8 00 00 00 00 00 00 00 00
 3.144356 1  18F159F3x       Rx   d 8 00 00 00 00 00 00 00 00
 3.144914 1  CFF21CAx        Rx   d 8 24 00 6A 17 4B 46 00 24
 3.145481 1  18F15AF3x       Rx   d 8 00 00 00 00 00 00 00 00
 3.146445 1  18F15BF3x       Rx   d 7 00 00 00 00 00 00 00
 3.147221 1  18F15CF3x       Rx   d 8 00 00 00 00 00 00 00 00
 3.148205 1  18F15DF3x       Rx   d 8 00 00 00 00 00 00 00 00
 3.148856 1  18F15EF3x       Rx   d 8 00 00 00 00 00 00 00 00
 3.157615 1  CFF21CAx        Rx   d 8 24 00 6A 17 4B 46 00 24
 3.165856 1  18F100D0x       Rx   d 8 0C FF FF FF FF FF FF FF
 3.169252 1  CFF21CAx        Rx   d 8 24 00 6B 17 4B 46 00 24
 3.182053 1  CFF21CAx        Rx   d 8 24 00 6B 17 4B 46 00 24
 3.219058 1  18F100D0x       Rx   d 8 0C FF FF FF FF FF FF FF
 3.219260 1  CFF21CAx        Rx   d 8 24 00 6B 17 4B 46 00 24
 3.219446 1  CFF21CAx        Rx   d 8 26 00 6D 17 4B 46 00 24
 3.219621 1  18F100D0x       Rx   d 8 0C FF FF FF FF FF FF FF
 3.219856 1  18FF2112x       Rx   d 8 01 00 00 00 00 00 00 00
 3.220056 1  CFF21CAx        Rx   d 8 26 00 6D 17 4B 46 00 24
 3.229461 1  CFF21CAx        Rx   d 8 26 00 6D 17 4B 46 00 24
 3.234250 1  18F100F3x       Rx   d 8 03 11 7E 29 CA FA 14 00
 3.235344 1  18F102F3x       Rx   d 8 0F 59 0F 52 10 0A 00 07
 3.236610 1  18F106F3x       Rx   d 8 45 E0 FC FF FF FF FF FF
 3.237811 1  18F107F3x       Rx   d 8 38 A4 2B 2A 01 61 00 52
 3.238168 1  18F100D0x       Rx   d 8 0C FF FF FF FF FF FF FF
 3.239605 1  18F108F3x       Rx   d 8 00 00 00 00 00 00 00 00
 3.240625 1  18F155F3x       Rx   d 8 36 35 35 35 35 38 37 00
 3.241391 1  18F156F3x       Rx   d 8 00 00 00 00 00 00 00 00
 3.241860 1  CFF21CAx        Rx   d 8 25 00 6B 17 4B 46 00 24
 3.242416 1  18F157F3x       Rx   d 8 00 00 00 00 00 00 00 00
 3.243567 1  18F158F3x       Rx   d 8 00 00 00 00 00 00 00 00
 3.244401 1  18F159F3x       Rx   d 8 00 00 00 00 00 00 00 00
 3.245141 1  18F15AF3x       Rx   d 8 00 00 00 00 00 00 00 00
 3.246146 1  18F15BF3x       Rx   d 7 00 00 00 00 00 00 00
 3.246989 1  18F15CF3x       Rx   d 8 00 00 00 00 00 00 00 00
 3.247836 1  18F15DF3x       Rx   d 8 00 00 00 00 00 00 00 00
 3.248753 1  18F15EF3x       Rx   d 8 00 00 00 00 00 00 00 00
 3.253872 1  CFF21CAx        Rx   d 8 25 00 69 17 4B 46 00 24
 3.265297 1  CFF21CAx        Rx   d 8 26 00 65 17 4B 46 00 24
 3.265882 1  18F100D0x       Rx   d 8 0C FF FF FF FF FF FF FF
 3.277319 1  CFF21CAx        Rx   d 8 26 00 64 17 4B 46 00 24
 3.289438 1  CFF21CAx        Rx   d 8 26 00 64 17 4B 46 00 24
 3.289942 1  18F100D0x       Rx   d 8 0C FF FF FF FF FF FF FF
 3.302225 1  CFF21CAx        Rx   d 8 27 00 64 17 4B 46 00 24
 3.311149 1  18FF2112x       Rx   d 8 01 00 00 00 00 00 00 00
 3.313962 1  CFF21CAx        Rx   d 8 27 00 64 17 4B 46 00 24
 3.314316 1  18F100D0x       Rx   d 8 0C FF FF FF FF FF FF FF
 3.325809 1  CFF21CAx        Rx   d 8 27 00 65 17 4B 46 00 24
 3.334646 1  18F100F3x       Rx   d 8 03 11 7E 29 CA FA 14 00
 3.335372 1  18F102F3x       Rx   d 8 0F 59 0F 52 10 0A 00 07
 3.336613 1  18F106F3x       Rx   d 8 45 E0 FC FF FF FF FF FF
 3.337788 1  18F107F3x       Rx   d 8 38 A4 2B 2A 01 61 00 52
 3.338140 1  CFF21CAx        Rx   d 8 27 00 6D 17 4B 46 00 24
 3.338927 1  18F100D0x       Rx   d 8 0C FF FF FF FF FF FF FF
 3.339743 1  18F108F3x       Rx   d 8 00 00 00 00 00 00 00 00
 3.340579 1  18F155F3x       Rx   d 8 36 35 35 35 35 38 37 00
 3.341505 1  18F156F3x       Rx   d 8 00 00 00 00 00 00 00 00
 3.342337 1  18F157F3x       Rx   d 8 00 00 00 00 00 00 00 00
 3.343448 1  18F158F3x       Rx   d 8 00 00 00 00 00 00 00 00
 3.344366 1  18F159F3x       Rx   d 8 00 00 00 00 00 00 00 00
 3.345285 1  18F15AF3x       Rx   d 8 00 00 00 00 00 00 00 00
 3.346026 1  18F15BF3x       Rx   d 7 00 00 00 00 00 00 00
 3.347145 1  18F15CF3x       Rx   d 8 00 00 00 00 00 00 00 00
 3.347700 1  18F15DF3x       Rx   d 8 00 00 00 00 00 00 00 00
 3.348777 1  18F15EF3x       Rx   d 8 00 00 00 00 00 00 00 00
 3.350439 1  CFF21CAx        Rx   d 8 27 00 6C 17 4B 46 00 24
 3.361953 1  CFF21CAx        Rx   d 8 27 00 72 17 4B 46 00 24
 3.362341 1  18F100D0x       Rx   d 8 0C FF FF FF FF FF FF FF
 3.374011 1  CFF21CAx        Rx   d 8 27 00 75 17 4B 46 00 24
 3.386110 1  CFF21CAx        Rx   d 8 27 00 76 17 4B 46 00 24
 3.390881 1  18F100D0x       Rx   d 8 0C FF FF FF FF FF FF FF
 3.397998 1  CFF21CAx        Rx   d 8 27 00 73 17 4B 46 00 24
 3.408728 1  18FF2112x       Rx   d 8 01 00 00 00 00 00 00 00
 3.410671 1  CFF21CAx        Rx   d 8 27 00 74 17 4B 46 00 24
 3.414293 1  18F100D0x       Rx   d 8 0C FF FF FF FF FF FF FF
 3.448289 1  CFF21CAx        Rx   d 8 27 00 73 17 4B 46 00 24
 3.448511 1  CFF21CAx        Rx   d 8 26 00 70 17 4B 46 00 24
 3.448704 1  18F100F3x       Rx   d 8 03 11 7E 2E CA FA 14 00
 3.448913 1  18F102F3x       Rx   d 8 0F 59 0F 52 10 0A 00 07
 3.449112 1  18F106F3x       Rx   d 8 45 E0 FC FF FF FF FF FF
 3.449304 1  18F107F3x       Rx   d 8 38 A4 2B 2A 01 61 00 52
 3.449600 1  18F100D0x       Rx   d 8 0C FF FF FF FF FF FF FF
 3.449816 1  18F108F3x       Rx   d 8 00 00 00 00 00 00 00 00
 3.449999 1  18F155F3x       Rx   d 8 36 35 35 35 35 38 37 00
 3.450183 1  18F156F3x       Rx   d 8 00 00 00 00 00 00 00 00
 3.450360 1  18F157F3x       Rx   d 8 00 00 00 00 00 00 00 00
 3.450539 1  18F158F3x       Rx   d 8 00 00 00 00 00 00 00 00
 3.450729 1  18F159F3x       Rx   d 8 00 00 00 00 00 00 00 00
 3.450900 1  18F15AF3x       Rx   d 8 00 00 00 00 00 00 00 00
 3.451071 1  CFF21CAx        Rx   d 8 26 00 70 17 4B 46 00 24
 3.451232 1  18F15BF3x       Rx   d 7 00 00 00 00 00 00 00
 3.451402 1  18F15CF3x       Rx   d 8 00 00 00 00 00 00 00 00
 3.451570 1  18F15DF3x       Rx   d 8 00 00 00 00 00 00 00 00
 3.451739 1  18F15EF3x       Rx   d 8 00 00 00 00 00 00 00 00
 3.458136 1  CFF21CAx        Rx   d 8 26 00 6C 17 4B 46 00 24
 3.466398 1  18F100D0x       Rx   d 8 0C FF FF FF FF FF FF FF
 3.470380 1  CFF21CAx        Rx   d 8 25 00 71 17 4B 46 00 24
 3.482516 1  CFF21CAx        Rx   d 8 25 00 6C 17 4B 46 00 24
 3.490200 1  18F100D0x       Rx   d 8 0C FF FF FF FF FF FF FF
 3.494164 1  CFF21CAx        Rx   d 8 25 00 71 17 4B 46 00 24
 3.505445 1  18FF2112x       Rx   d 8 01 00 00 00 00 00 00 00
 3.506641 1  CFF21CAx        Rx   d 8 25 00 70 17 4B 46 00 24
 3.514481 1  18F100D0x       Rx   d 8 0C FF FF FF FF FF FF FF
 3.518509 1  CFF21CAx        Rx   d 8 25 00 74 17 4B 46 00 24
 3.530531 1  CFF21CAx        Rx   d 8 24 00 71 17 4B 46 00 24
 3.534644 1  18F100F3x       Rx   d 8 03 11 7E 2E CA FA 14 00
 3.535373 1  18F102F3x       Rx   d 8 0F 59 0F 52 10 0A 00 07
 3.536712 1  18F106F3x       Rx   d 8 45 E0 FC FF FF FF FF FF
 3.538140 1  18F107F3x       Rx   d 8 38 A4 2B 2A 01 61 00 52
 3.539419 1  18F100D0x       Rx   d 8 0C FF FF FF FF FF FF FF
 3.539943 1  18F108F3x       Rx   d 8 00 00 00 00 00 00 00 00
 3.540512 1  18F155F3x       Rx   d 8 36 35 35 35 35 38 37 00
 3.541594 1  18F156F3x       Rx   d 8 00 00 00 00 00 00 00 00
 3.542417 1  18F157F3x       Rx   d 8 00 00 00 00 00 00 00 00
 3.542830 1  CFF21CAx        Rx   d 8 24 00 6E 17 4B 46 00 24
 3.543344 1  18F158F3x       Rx   d 8 00 00 00 00 00 00 00 00
 3.544254 1  18F159F3x       Rx   d 8 00 00 00 00 00 00 00 00
 3.545291 1  18F15AF3x       Rx   d 8 00 00 00 00 00 00 00 00
 3.546116 1  18F15BF3x       Rx   d 7 00 00 00 00 00 00 00
 3.546941 1  18F15CF3x       Rx   d 8 00 00 00 00 00 00 00 00
 3.547950 1  18F15DF3x       Rx   d 8 00 00 00 00 00 00 00 00
 3.548612 1  18F15EF3x       Rx   d 8 00 00 00 00 00 00 00 00
 3.554600 1  CFF21CAx        Rx   d 8 24 00 6B 17 4B 46 00 24
 3.562653 1  18F100D0x       Rx   d 8 0C FF FF FF FF FF FF FF
 3.566769 1  CFF21CAx        Rx   d 8 25 00 69 17 4B 46 00 24
 3.578851 1  CFF21CAx        Rx   d 8 25 00 68 17 4B 46 00 24
 3.586766 1  18F100D0x       Rx   d 8 0C FF FF FF FF FF FF FF
 3.590797 1  CFF21CAx        Rx   d 8 27 00 65 17 4B 46 00 24
 3.602981 1  18FF2112x       Rx   d 8 01 00 00 00 00 00 00 00
 3.603326 1  CFF21CAx        Rx   d 8 27 00 61 17 4B 46 00 24
 3.610837 1  18F100D0x       Rx   d 8 0C FF FF FF FF FF FF FF
 3.615021 1  CFF21CAx        Rx   d 8 27 00 5F 17 4B 46 00 24
 3.627212 1  CFF21CAx        Rx   d 8 27 00 5A 17 4B 46 00 24
 3.634446 1  18F100F3x       Rx   d 8 03 11 7E 23 CA FA 14 00
 3.635336 1  18F102F3x       Rx   d 8 0F 59 0F 53 10 06 00 06
 3.636820 1  18F106F3x       Rx   d 8 45 E0 FC FF FF FF FF FF
 3.638080 1  18F107F3x       Rx   d 8 38 A4 2B 2A 01 61 00 52
 3.639649 1  CFF21CAx        Rx   d 8 27 00 5F 17 4B 46 00 24
 3.640152 1  18F100D0x       Rx   d 8 0C FF FF FF FF FF FF FF
 3.640454 1  18F108F3x       Rx   d 8 00 00 00 00 00 00 00 00
 3.641582 1  18F155F3x       Rx   d 8 36 35 35 35 35 38 37 00
 3.642306 1  18F156F3x       Rx   d 8 00 00 00 00 00 00 00 00
 3.643421 1  18F157F3x       Rx   d 8 00 00 00 00 00 00 00 00
 3.644539 1  18F158F3x       Rx   d 8 00 00 00 00 00 00 00 00
 3.645203 1  18F159F3x       Rx   d 8 00 00 00 00 00 00 00 00
 3.646295 1  18F15AF3x       Rx   d 8 00 00 00 00 00 00 00 00
 3.647097 1  18F15BF3x       Rx   d 7 00 00 00 00 00 00 00
 3.648023 1  18F15CF3x       Rx   d 8 00 00 00 00 00 00 00 00
 3.648879 1  18F15DF3x       Rx   d 8 00 00 00 00 00 00 00 00
 3.649622 1  18F15EF3x       Rx   d 8 00 00 00 00 00 00 00 00
 3.651391 1  CFF21CAx        Rx   d 8 29 00 5D 17 4B 46 00 24
 3.678987 1  CFF21CAx        Rx   d 8 29 00 60 17 4B 46 00 24
 3.679181 1  18F100D0x       Rx   d 8 0C FF FF FF FF FF FF FF
 3.679349 1  CFF21CAx        Rx   d 8 29 00 61 17 4B 46 00 24
 3.679569 1  18FECACAx       Rx   d 8 00 00 00 00 00 00 FF FF
 3.687058 1  CFF21CAx        Rx   d 8 2A 00 60 17 4B 46 00 24
 3.687579 1  18F100D0x       Rx   d 8 0C FF FF FF FF FF FF FF
 3.699786 1  CFF21CAx        Rx   d 8 2A 00 63 17 4B 46 00 24
 3.700138 1  18FF2112x       Rx   d 8 01 00 00 00 00 00 00 00
 3.711260 1  CFF21CAx        Rx   d 8 2B 00 68 17 4B 46 00 24
 3.715653 1  18F100D0x       Rx   d 8 0C FF FF FF FF FF FF FF
 3.723477 1  CFF21CAx        Rx   d 8 2B 00 68 17 4B 46 00 24
 3.734354 1  18F100F3x       Rx   d 8 03 11 7E 23 CA FA 14 00
 3.735233 1  18F102F3x       Rx   d 8 0F 59 0F 53 10 06 00 06
 3.735727 1  CFF21CAx        Rx   d 8 2B 00 6A 17 4B 46 00 24
 3.736365 1  18F106F3x       Rx   d 8 45 E0 FC FF FF FF FF FF
 3.737549 1  18F107F3x       Rx   d 8 38 A4 2B 2A 01 61 00 52
 3.739325 1  18F108F3x       Rx   d 8 00 00 00 00 00 00 00 00
 3.739929 1  18F100D0x       Rx   d 8 0C FF FF FF FF FF FF FF
 3.740445 1  18F155F3x       Rx   d 8 36 35 35 35 35 38 37 00
 3.741278 1  18F156F3x       Rx   d 8 00 00 00 00 00 00 00 00
 3.742197 1  18F157F3x       Rx   d 8 00 00 00 00 00 00 00 00
 3.743195 1  18F158F3x       Rx   d 8 00 00 00 00 00 00 00 00
 3.744046 1  18F159F3x       Rx   d 8 00 00 00 00 00 00 00 00
 3.744961 1  18F15AF3x       Rx   d 8 00 00 00 00 00 00 00 00
 3.745932 1  18F15BF3x       Rx   d 7 00 00 00 00 00 00 00
 3.746762 1  18F15CF3x       Rx   d 8 00 00 00 00 00 00 00 00
 3.747591 1  CFF21CAx        Rx   d 8 2B 00 6E 17 4B 46 00 24
 3.748143 1  18F15DF3x       Rx   d 8 00 00 00 00 00 00 00 00
 3.748967 1  18F15EF3x       Rx   d 8 00 00 00 00 00 00 00 00
 3.759591 1  CFF21CAx        Rx   d 8 2A 00 6E 17 4B 46 00 24
 3.764067 1  18F100D0x       Rx   d 8 0C FF FF FF FF FF FF FF
 3.772288 1  CFF21CAx        Rx   d 8 2A 00 68 17 4B 46 00 24
 3.783766 1  CFF21CAx        Rx   d 8 2B 00 6C 17 4B 46 00 24
 3.787998 1  18F100D0x       Rx   d 8 0C FF FF FF FF FF FF FF
 3.796193 1  CFF21CAx        Rx   d 8 2B 00 6C 17 4B 46 00 24
 3.797528 1  18FF2112x       Rx   d 8 01 00 00 00 00 00 00 00
 3.807788 1  CFF21CAx        Rx   d 8 2B 00 6B 17 4B 46 00 24
 3.815683 1  18F100D0x       Rx   d 8 0C FF FF FF FF FF FF FF
 3.820252 1  CFF21CAx        Rx   d 8 2A 00 70 17 4B 46 00 24
 3.831715 1  CFF21CAx        Rx   d 8 2A 00 73 17 4B 46 00 24
 3.834433 1  18F100F3x       Rx   d 8 03 11 7E 23 CA FA 14 00
 3.835130 1  18F102F3x       Rx   d 8 0F 59 0F 53 10 06 00 06
 3.836511 1  18F106F3x       Rx   d 8 45 E0 FC FF FF FF FF FF
 3.837860 1  18F107F3x       Rx   d 8 38 A4 2B 2A 01 61 00 52
 3.839586 1  18F108F3x       Rx   d 8 00 00 00 00 00 00 00 00
 3.840194 1  18F100D0x       Rx   d 8 0C FF FF FF FF FF FF FF
 3.840694 1  18F155F3x       Rx   d 8 36 35 35 35 35 38 37 00
 3.841801 1  18F156F3x       Rx   d 8 00 00 00 00 00 00 00 00
 3.842480 1  18F157F3x       Rx   d 8 00 00 00 00 00 00 00 00
 3.843504 1  18F158F3x       Rx   d 8 00 00 00 00 00 00 00 00
 3.844213 1  CFF21CAx        Rx   d 8 2A 00 75 17 4B 46 00 24
 3.844667 1  18F159F3x       Rx   d 8 00 00 00 00 00 00 00 00
 3.845789 1  18F15AF3x       Rx   d 8 00 00 00 00 00 00 00 00
 3.846471 1  18F15BF3x       Rx   d 7 00 00 00 00 00 00 00
 3.847309 1  18F15CF3x       Rx   d 8 00 00 00 00 00 00 00 00
 3.848240 1  18F15DF3x       Rx   d 8 00 00 00 00 00 00 00 00
 3.849283 1  18F15EF3x       Rx   d 8 00 00 00 00 00 00 00 00
 3.855758 1  CFF21CAx        Rx   d 8 29 00 77 17 4B 46 00 24
 3.863988 1  18F100D0x       Rx   d 8 0C FF FF FF FF FF FF FF
 3.868344 1  CFF21CAx        Rx   d 8 29 00 74 17 4B 46 00 24
 3.880134 1  CFF21CAx        Rx   d 8 27 00 78 17 4B 46 00 24
 3.909455 1  CFF21CAx        Rx   d 8 27 00 76 17 4B 46 00 24
 3.909674 1  18F100D0x       Rx   d 8 0C FF FF FF FF FF FF FF
 3.909876 1  18FF2112x       Rx   d 8 01 00 00 00 00 00 00 00
 3.910060 1  CFF21CAx        Rx   d 8 27 00 73 17 4B 46 00 24
 3.916436 1  CFF21CAx        Rx   d 8 27 00 70 17 4B 46 00 24
 3.917003 1  18F100D0x       Rx   d 8 0C FF FF FF FF FF FF FF
 3.928158 1  CFF21CAx        Rx   d 8 27 00 6D 17 4B 46 00 24
 3.934670 1  18F100F3x       Rx   d 8 03 11 7E 39 CA FA 14 00
 3.935394 1  18F102F3x       Rx   d 8 0F 59 0F 53 10 06 00 06
 3.936421 1  18F106F3x       Rx   d 8 45 E0 FC FF FF FF FF FF
 3.937843 1  18F107F3x       Rx   d 8 38 A4 2B 2A 01 61 00 52
 3.939574 1  18F108F3x       Rx   d 8 00 00 00 00 00 00 00 00
 3.940573 1  18F155F3x       Rx   d 8 36 35 35 35 35 38 37 00
 3.940940 1  CFF21CAx        Rx   d 8 27 00 66 17 4B 46 00 24
 3.941386 1  18F100D0x       Rx   d 8 0C FF FF FF FF FF FF FF
 3.942237 1  18F156F3x       Rx   d 8 00 00 00 00 00 00 00 00
 3.943297 1  18F157F3x       Rx   d 8 00 00 00 00 00 00 00 00
 3.944144 1  18F158F3x       Rx   d 8 00 00 00 00 00 00 00 00
 3.944992 1  18F159F3x       Rx   d 8 00 00 00 00 00 00 00 00
 3.945922 1  18F15AF3x       Rx   d 8 00 00 00 00 00 00 00 00
 3.946834 1  18F15BF3x       Rx   d 7 00 00 00 00 00 00 00
 3.947796 1  18F15CF3x       Rx   d 8 00 00 00 00 00 00 00 00
 3.948732 1  18F15DF3x       Rx   d 8 00 00 00 00 00 00 00 00
 3.949611 1  18F15EF3x       Rx   d 8 00 00 00 00 00 00 00 00
 3.952021 1  CFF21CAx        Rx   d 8 27 00 67 17 4B 46 00 24
 3.964686 1  CFF21CAx        Rx   d 8 27 00 63 17 4B 46 00 24
 3.965091 1  18F100D0x       Rx   d 8 0C FF FF FF FF FF FF FF
 3.976142 1  CFF21CAx        Rx   d 8 27 00 62 17 4B 46 00 24
 3.988741 1  CFF21CAx        Rx   d 8 27 00 61 17 4B 46 00 24
 3.989336 1  18F100D0x       Rx   d 8 0C FF FF FF FF FF FF FF
 3.991884 1  18FF2112x       Rx   d 8 01 00 00 00 00 00 00 00
 4.000295 1  CFF21CAx        Rx   d 8 28 00 5F 17 4B 46 00 24
 4.013300 1  CFF21CAx        Rx   d 8 28 00 63 17 4B 46 00 24
 4.013838 1  18F100D0x       Rx   d 8 0C FF FF FF FF FF FF FF
 4.024650 1  CFF21CAx        Rx   d 8 28 00 64 17 4B 46 00 24
 4.034524 1  18F100F3x       Rx   d 8 03 11 7E 39 CA FA 14 00
 4.035270 1  18F102F3x       Rx   d 8 0F 59 0F 53 10 06 00 06
 4.036691 1  18F106F3x       Rx   d 8 45 E0 FC FF FF FF FF FF
 4.037219 1  CFF21CAx        Rx   d 8 29 00 66 17 4B 46 00 24
 4.037650 1  18F107F3x       Rx   d 8 38 A4 2B 2A 01 61 00 52
 4.039425 1  18F108F3x       Rx   d 8 00 00 00 00 00 00 00 00
 4.040561 1  18F155F3x       Rx   d 8 36 35 35 35 35 38 37 00
 4.040914 1  18F100D0x       Rx   d 8 0C FF FF FF FF FF FF FF
 4.041747 1  18F156F3x       Rx   d 8 00 00 00 00 00 00 00 00
 4.042559 1  18F157F3x       Rx   d 8 00 00 00 00 00 00 00 00
 4.043605 1  18F158F3x       Rx   d 8 00 00 00 00 00 00 00 00
 4.044371 1  18F159F3x       Rx   d 8 00 00 00 00 00 00 00 00
 4.045201 1  18F15AF3x       Rx   d 8 00 00 00 00 00 00 00 00
 4.046136 1  18F15BF3x       Rx   d 7 00 00 00 00 00 00 00
 4.047132 1  18F15CF3x       Rx   d 8 00 00 00 00 00 00 00 00
 4.048248 1  18F104F3x       Rx   d 8 38 35 06 02 03 FF FF FF
 4.048602 1  CFF21CAx        Rx   d 8 29 00 67 17 4B 46 00 24
 4.049272 1  18F113F3x       Rx   d 8 0F 56 0F 55 0F 55 0F 56
 4.050103 1  18F114F3x       Rx   d 8 0F 55 0F 53 0F 57 0F 56
 4.051216 1  18F115F3x       Rx   d 8 0F 53 0F 53 0F 53 0F 53
 4.052101 1  18F116F3x       Rx   d 8 0F 57 0F 54 0F 57 0F 59
 4.053188 1  18F117F3x       Rx   d 8 0F 56 0F 57 0F 59 0F 59
 4.054122 1  18F118F3x       Rx   d 8 00 00 00 00 00 00 00 00
 4.055103 1  18F119F3x       Rx   d 8 00 00 00 00 00 00 00 00
 4.056088 1  18F11AF3x       Rx   d 8 00 00 00 00 00 00 00 00
 4.057082 1  18F11BF3x       Rx   d 8 00 00 00 00 00 00 00 00
 4.057968 1  18F11CF3x       Rx   d 8 00 00 00 00 00 00 00 00
 4.058936 1  18F11DF3x       Rx   d 8 00 00 00 00 00 00 00 00
 4.059917 1  18F11EF3x       Rx   d 8 00 00 00 00 00 00 00 00
 4.060813 1  18F11FF3x       Rx   d 8 00 00 00 00 00 00 00 00
 4.061313 1  CFF21CAx        Rx   d 8 29 00 68 17 4B 46 00 24
 4.061936 1  18F120F3x       Rx   d 8 00 00 00 00 00 00 00 00
 4.063194 1  18F121F3x       Rx   d 8 00 00 00 00 00 00 00 00
 4.064148 1  18F122F3x       Rx   d 8 00 00 00 00 00 00 00 00
 4.064647 1  18F100D0x       Rx   d 8 0C FF FF FF FF FF FF FF
 4.065255 1  18F123F3x       Rx   d 8 00 00 00 00 00 00 00 00
 4.066160 1  18F124F3x       Rx   d 8 00 00 00 00 00 00 00 00
 4.067371 1  18F125F3x       Rx   d 8 00 00 00 00 00 00 00 00
 4.068312 1  18F126F3x       Rx   d 8 00 00 00 00 00 00 00 00
 4.069033 1  18F127F3x       Rx   d 8 00 00 00 00 00 00 00 00
 4.069867 1  18F128F3x       Rx   d 8 00 00 00 00 00 00 00 00
 4.070991 1  18F129F3x       Rx   d 8 00 00 00 00 00 00 00 00
 4.071850 1  18F12AF3x       Rx   d 8 00 00 00 00 00 00 00 00
 4.072645 1  CFF21CAx        Rx   d 8 29 00 69 17 4B 46 00 24
 4.073152 1  18F12BF3x       Rx   d 8 00 00 00 00 00 00 00 00
 4.074251 1  18F12CF3x       Rx   d 8 00 00 00 00 00 00 00 00
 4.075174 1  18F12DF3x       Rx   d 8 00 00 00 00 00 00 00 00
 4.076246 1  18F12EF3x       Rx   d 8 00 00 00 00 00 00 00 00
 4.076795 1  18F12FF3x       Rx   d 8 00 00 00 00 00 00 00 00
 4.077924 1  18F130F3x       Rx   d 8 00 00 00 00 00 00 00 00
 4.078744 1  18F131F3x       Rx   d 8 00 00 00 00 00 00 00 00
 4.079597 1  18F132F3x       Rx   d 8 00 00 00 00 00 00 00 00
 4.080500 1  18F133F3x       Rx   d 8 00 00 00 00 00 00 00 00
 4.081393 1  18F134F3x       Rx   d 8 00 00 00 00 00 00 00 00
 4.082085 1  18F135F3x       Rx   d 8 00 00 00 00 00 00 00 00
 4.083436 1  18F136F3x       Rx   d 8 00 00 00 00 00 00 00 00
 4.084308 1  18F137F3x       Rx   d 8 00 00 00 00 00 00 00 00
 4.085154 1  18F138F3x       Rx   d 8 00 00 00 00 00 00 00 00
 4.085555 1  CFF21CAx        Rx   d 8 29 00 6A 17 4B 46 00 24
 4.086140 1  18F139F3x       Rx   d 8 00 00 00 00 00 00 00 00
 4.087041 1  18F13AF3x       Rx   d 8 00 00 00 00 00 00 00 00
 4.087922 1  18F13BF3x       Rx   d 8 00 00 00 00 00 00 00 00
 4.088659 1  18F100D0x       Rx   d 8 0C FF FF FF FF FF FF FF
 4.089253 1  18F13CF3x       Rx   d 8 00 00 00 00 00 00 00 00
 4.089823 1  18FF2112x       Rx   d 8 01 00 00 00 00 00 00 00
 4.090529 1  18F15DF3x       Rx   d 8 00 00 00 00 00 00 00 00
 4.091397 1  18F15EF3x       Rx   d 8 00 00 00 00 00 00 00 00
 4.096856 1  CFF21CAx        Rx   d 8 29 00 6A 17 4B 46 00 24
 4.109218 1  CFF21CAx        Rx   d 8 29 00 6B 17 4B 46 00 24
 4.137430 1  18F100D0x       Rx   d 8 0C FF FF FF FF FF FF FF
 4.137625 1  CFF21CAx        Rx   d 8 29 00 6B 17 4B 46 00 24
 4.137797 1  CFF21CAx        Rx   d 8 29 00 6B 17 4B 46 00 24
 4.138029 1  18F100F3x       Rx   d 8 03 11 7E 37 CA FA 14 00
 4.138220 1  18F102F3x       Rx   d 8 0F 59 0F 53 10 06 00 06
 4.138402 1  18F106F3x       Rx   d 8 45 E0 FC FF FF FF FF FF
 4.138574 1  18F107F3x       Rx   d 8 38 A4 2B 2A 01 61 00 52
 4.139547 1  18F108F3x       Rx   d 8 00 00 00 00 00 00 00 00
 4.140177 1  18F155F3x       Rx   d 8 36 35 35 35 35 38 37 00
 4.141231 1  18F156F3x       Rx   d 8 00 00 00 00 00 00 00 00
 4.141634 1  18F100D0x       Rx   d 8 0C FF FF FF FF FF FF FF
 4.142409 1  18F157F3x       Rx   d 8 00 00 00 00 00 00 00 00
 4.143295 1  18F158F3x       Rx   d 8 00 00 00 00 00 00 00 00
 4.144303 1  18F159F3x       Rx   d 8 00 00 00 00 00 00 00 00
 4.144909 1  CFF21CAx        Rx   d 8 28 00 73 17 4B 46 00 24
 4.145602 1  18F15AF3x       Rx   d 8 00 00 00 00 00 00 00 00
 4.146362 1  18F15BF3x       Rx   d 7 00 00 00 00 00 00 00
 4.147216 1  18F15CF3x       Rx   d 8 00 00 00 00 00 00 00 00
 4.148184 1  18F15DF3x       Rx   d 8 00 00 00 00 00 00 00 00
 4.149067 1  18F15EF3x       Rx   d 8 00 00 00 00 00 00 00 00
 4.157501 1  CFF21CAx        Rx   d 8 28 00 74 17 4B 46 00 24
 4.165873 1  18F100D0x       Rx   d 8 0C FF FF FF FF FF FF FF
 4.169319 1  CFF21CAx        Rx   d 8 28 00 73 17 4B 46 00 24
 4.181404 1  CFF21CAx        Rx   d 8 28 00 78 17 4B 46 00 24
 4.186354 1  18FF2112x       Rx   d 8 01 00 00 00 00 00 00 00
 4.189438 1  18F100D0x       Rx   d 8 0C FF FF FF FF FF FF FF
 4.193032 1  CFF21CAx        Rx   d 8 28 00 7E 17 4B 46 00 24
 4.206059 1  CFF21CAx        Rx   d 8 26 00 80 17 4B 46 00 24
 4.213912 1  18F100D0x       Rx   d 8 0C FF FF FF FF FF FF FF
 4.217467 1  CFF21CAx        Rx   d 8 26 00 7F 17 4B 46 00 24
 4.229741 1  CFF21CAx        Rx   d 8 25 00 7E 17 4B 46 00 24
 4.234284 1  18F100F3x       Rx   d 8 03 11 7E 37 CA FA 14 00
 4.235144 1  18F102F3x       Rx   d 8 0F 59 0F 52 10 09 00 07
 4.236405 1  18F106F3x       Rx   d 8 45 E0 FC FF FF FF FF FF
 4.237860 1  18F107F3x       Rx   d 8 38 A4 2B 2A 01 61 00 52
 4.238215 1  18F100D0x       Rx   d 8 0C FF FF FF FF FF FF FF
 4.239757 1  18F108F3x       Rx   d 8 00 00 00 00 00 00 00 00
 4.240641 1  18F155F3x       Rx   d 8 36 35 35 35 35 38 37 00
 4.241435 1  18F156F3x       Rx   d 8 00 00 00 00 00 00 00 00
 4.241817 1  CFF21CAx        Rx   d 8 25 00 7A 17 4B 46 00 24
 4.242592 1  18F157F3x       Rx   d 8 00 00 00 00 00 00 00 00
 4.243493 1  18F158F3x       Rx   d 8 00 00 00 00 00 00 00 00
 4.244361 1  18F159F3x       Rx   d 8 00 00 00 00 00 00 00 00
 4.245302 1  18F15AF3x       Rx   d 8 00 00 00 00 00 00 00 00
 4.246115 1  18F15BF3x       Rx   d 7 00 00 00 00 00 00 00
 4.247035 1  18F15CF3x       Rx   d 8 00 00 00 00 00 00 00 00
 4.247941 1  18F15DF3x       Rx   d 8 00 00 00 00 00 00 00 00
 4.248694 1  18F15EF3x       Rx   d 8 00 00 00 00 00 00 00 00
 4.253380 1  CFF21CAx        Rx   d 8 25 00 7B 17 4B 46 00 24
 4.265907 1  CFF21CAx        Rx   d 8 23 00 7A 17 4B 46 00 24
 4.266276 1  18F100D0x       Rx   d 8 0C FF FF FF FF FF FF FF
 4.278333 1  CFF21CAx        Rx   d 8 23 00 77 17 4B 46 00 24
 4.284133 1  18FF2112x       Rx   d 8 01 00 00 00 00 00 00 00
 4.289671 1  CFF21CAx        Rx   d 8 23 00 77 17 4B 46 00 24
 4.290051 1  18F100D0x       Rx   d 8 0C FF FF FF FF FF FF FF
 4.301852 1  CFF21CAx        Rx   d 8 22 00 78 17 4B 46 00 24
 4.314004 1  CFF21CAx        Rx   d 8 22 00 76 17 4B 46 00 24
 4.314539 1  18F100D0x       Rx   d 8 0C FF FF FF FF FF FF FF
 4.326432 1  CFF21CAx        Rx   d 8 22 00 75 17 4B 46 00 24
 4.334523 1  18F100F3x       Rx   d 8 03 11 7E 37 CA FA 14 00
 4.335139 1  18F102F3x       Rx   d 8 0F 59 0F 52 10 09 00 07
 4.336354 1  18F106F3x       Rx   d 8 45 E0 FC FF FF FF FF FF
 4.337821 1  18F107F3x       Rx   d 8 38 A4 2B 2A 01 61 00 52
 4.338108 1  CFF21CAx        Rx   d 8 22 00 72 17 4B 46 00 24
 4.365680 1  18F108F3x       Rx   d 8 00 00 00 00 00 00 00 00
 4.365878 1  18F155F3x       Rx   d 8 36 35 35 35 35 38 37 00
 4.366059 1  18F156F3x       Rx   d 8 00 00 00 00 00 00 00 00
 4.366228 1  18F157F3x       Rx   d 8 00 00 00 00 00 00 00 00
 4.366464 1  18F100D0x       Rx   d 8 0C FF FF FF FF FF FF FF
 4.366646 1  18F158F3x       Rx   d 8 00 00 00 00 00 00 00 00
 4.366817 1  18F159F3x       Rx   d 8 00 00 00 00 00 00 00 00
 4.366983 1  18F15AF3x       Rx   d 8 00 00 00 00 00 00 00 00
 4.367138 1  18F15BF3x       Rx   d 7 00 00 00 00 00 00 00
 4.367303 1  18F15CF3x       Rx   d 8 00 00 00 00 00 00 00 00
 4.367466 1  18F15DF3x       Rx   d 8 00 00 00 00 00 00 00 00
 4.367630 1  18F15EF3x       Rx   d 8 00 00 00 00 00 00 00 00
 4.367805 1  CFF21CAx        Rx   d 8 22 00 75 17 4B 46 00 24
 4.367972 1  CFF21CAx        Rx   d 8 22 00 6E 17 4B 46 00 24
 4.368135 1  18F100D0x       Rx   d 8 0C FF FF FF FF FF FF FF
 4.374341 1  CFF21CAx        Rx   d 8 22 00 6B 17 4B 46 00 24
 4.381094 1  18FF2112x       Rx   d 8 01 00 00 00 00 00 00 00
 4.385950 1  CFF21CAx        Rx   d 8 22 00 6B 17 4B 46 00 24
 4.389859 1  18F100D0x       Rx   d 8 0C FF FF FF FF FF FF FF
 4.398309 1  CFF21CAx        Rx   d 8 23 00 69 17 4B 46 00 24
 4.409862 1  CFF21CAx        Rx   d 8 23 00 67 17 4B 46 00 24
 4.414002 1  18F100D0x       Rx   d 8 0C FF FF FF FF FF FF FF
 4.421968 1  CFF21CAx        Rx   d 8 23 00 62 17 4B 46 00 24
 4.434344 1  CFF21CAx        Rx   d 8 24 00 61 17 4B 46 00 24
 4.434847 1  18F100F3x       Rx   d 8 03 11 7E 20 CA FA 14 00
 4.435560 1  18F102F3x       Rx   d 8 0F 59 0F 52 10 09 00 07
 4.436756 1  18F106F3x       Rx   d 8 45 E0 FC FF FF FF FF FF
 4.438132 1  18F107F3x       Rx   d 8 38 A4 2B 2A 01 61 00 52
 4.438574 1  18F100D0x       Rx   d 8 0C FF FF FF FF FF FF FF
 4.440184 1  18F108F3x       Rx   d 8 00 00 00 00 00 00 00 00
 4.441099 1  18F155F3x       Rx   d 8 36 35 35 35 35 38 37 00
 4.441956 1  18F156F3x       Rx   d 8 00 00 00 00 00 00 00 00
 4.442858 1  18F157F3x       Rx   d 8 00 00 00 00 00 00 00 00
 4.443748 1  18F158F3x       Rx   d 8 00 00 00 00 00 00 00 00
 4.444638 1  18F159F3x       Rx   d 8 00 00 00 00 00 00 00 00
 4.445495 1  18F15AF3x       Rx   d 8 00 00 00 00 00 00 00 00
 4.446317 1  CFF21CAx        Rx   d 8 24 00 61 17 4B 46 00 24
 4.446652 1  18F15BF3x       Rx   d 7 00 00 00 00 00 00 00
 4.447623 1  18F15CF3x       Rx   d 8 00 00 00 00 00 00 00 00
 4.448551 1  18F15DF3x       Rx   d 8 00 00 00 00 00 00 00 00
 4.449530 1  18F15EF3x       Rx   d 8 00 00 00 00 00 00 00 00
 4.458413 1  CFF21CAx        Rx   d 8 25 00 5F 17 4B 46 00 24
 4.466479 1  18F100D0x       Rx   d 8 0C FF FF FF FF FF FF FF
 4.470517 1  CFF21CAx        Rx   d 8 25 00 5E 17 4B 46 00 24
 4.482524 1  CFF21CAx        Rx   d 8 25 00 63 17 4B 46 00 24
 4.490323 1  18F100D0x       Rx   d 8 0C FF FF FF FF FF FF FF
 4.494543 1  CFF21CAx        Rx   d 8 25 00 63 17 4B 46 00 24
 4.506661 1  CFF21CAx        Rx   d 8 25 00 64 17 4B 46 00 24
 4.514679 1  18F100D0x       Rx   d 8 0C FF FF FF FF FF FF FF
 4.518943 1  CFF21CAx        Rx   d 8 25 00 66 17 4B 46 00 24
 4.530561 1  CFF21CAx        Rx   d 8 27 00 6B 17 4B 46 00 24
 4.534482 1  18F100F3x       Rx   d 8 03 11 7E 20 CA FA 14 00
 4.535316 1  18F102F3x       Rx   d 8 0F 59 0F 52 10 09 00 07
 4.536461 1  18F106F3x       Rx   d 8 45 E0 FC FF FF FF FF FF
 4.537921 1  18F107F3x       Rx   d 8 38 A4 2B 2A 01 61 00 52
 4.539153 1  18F100D0x       Rx   d 8 0C FF FF FF FF FF FF FF
 4.539577 1  18F108F3x       Rx   d 8 00 00 00 00 00 00 00 00
 4.540619 1  18F155F3x       Rx   d 8 36 35 35 35 35 38 37 00
 4.541529 1  18F156F3x       Rx   d 8 00 00 00 00 00 00 00 00
 4.542393 1  18F157F3x       Rx   d 8 00 00 00 00 00 00 00 00
 4.542742 1  CFF21CAx        Rx   d 8 27 00 69 17 4B 46 00 24
 4.543631 1  18F158F3x       Rx   d 8 00 00 00 00 00 00 00 00
 4.544323 1  18F159F3x       Rx   d 8 00 00 00 00 00 00 00 00
 4.545182 1  18F15AF3x       Rx   d 8 00 00 00 00 00 00 00 00
 4.546016 1  18F15BF3x       Rx   d 7 00 00 00 00 00 00 00
 4.546877 1  18F15CF3x       Rx   d 8 00 00 00 00 00 00 00 00
 4.547917 1  18F15DF3x       Rx   d 8 00 00 00 00 00 00 00 00
 4.548605 1  18F15EF3x       Rx   d 8 00 00 00 00 00 00 00 00
 4.554598 1  CFF21CAx        Rx   d 8 28 00 6B 17 4B 46 00 24
 4.562851 1  18F100D0x       Rx   d 8 0C FF FF FF FF FF FF FF
 4.593165 1  CFF21CAx        Rx   d 8 28 00 6A 17 4B 46 00 24
 4.593368 1  18FF2112x       Rx   d 8 01 00 00 00 00 00 00 00
 4.593541 1  CFF21CAx        Rx   d 8 28 00 6A 17 4B 46 00 24
 4.593712 1  18F100D0x       Rx   d 8 0C FF FF FF FF FF FF FF
 4.593960 1  CFF21CAx        Rx   d 8 28 00 6C 17 4B 46 00 24
 4.602752 1  CFF21CAx        Rx   d 8 28 00 68 17 4B 46 00 24
 4.615044 1  CFF21CAx        Rx   d 8 27 00 68 17 4B 46 00 24
 4.615413 1  18F100D0x       Rx   d 8 0C FF FF FF FF FF FF FF
 4.627331 1  CFF21CAx        Rx   d 8 27 00 67 17 4B 46 00 24
 4.634146 1  18F100F3x       Rx   d 8 03 11 7E 4D CA FA 14 00
 4.635013 1  18F102F3x       Rx   d 8 0F 59 0F 52 10 09 00 07
 4.636332 1  18F106F3x       Rx   d 8 45 E0 FC FF FF FF FF FF
 4.637567 1  18F107F3x       Rx   d 8 38 A4 2B 2A 01 61 00 52
 4.639202 1  CFF21CAx        Rx   d 8 27 00 62 17 4B 46 00 24
 4.639887 1  18F100D0x       Rx   d 8 0C FF FF FF FF FF FF FF
 4.640433 1  18F108F3x       Rx   d 8 00 00 00 00 00 00 00 00
 4.641310 1  18F155F3x       Rx   d 8 36 35 35 35 35 38 37 00
 4.642190 1  18F156F3x       Rx   d 8 00 00 00 00 00 00 00 00
 4.643326 1  18F157F3x       Rx   d 8 00 00 00 00 00 00 00 00
 4.644182 1  18F158F3x       Rx   d 8 00 00 00 00 00 00 00 00
 4.645086 1  18F159F3x       Rx   d 8 00 00 00 00 00 00 00 00
 4.646060 1  18F15AF3x       Rx   d 8 00 00 00 00 00 00 00 00
 4.647020 1  18F15BF3x       Rx   d 7 00 00 00 00 00 00 00
 4.647914 1  18F15CF3x       Rx   d 8 00 00 00 00 00 00 00 00
 4.648704 1  18F15DF3x       Rx   d 8 00 00 00 00 00 00 00 00
 4.649644 1  18F15EF3x       Rx   d 8 00 00 00 00 00 00 00 00
 4.651361 1  CFF21CAx        Rx   d 8 28 00 65 17 4B 46 00 24
 4.663048 1  CFF21CAx        Rx   d 8 28 00 68 17 4B 46 00 24
 4.663554 1  18F100D0x       Rx   d 8 0C FF FF FF FF FF FF FF
 4.674142 1  18FF2112x       Rx   d 8 01 00 00 00 00 00 00 00
 4.675827 1  CFF21CAx        Rx   d 8 28 00 69 17 4B 46 00 24
 4.687132 1  CFF21CAx        Rx   d 8 28 00 6A 17 4B 46 00 24
 4.687690 1  18F100D0x       Rx   d 8 0C FF FF FF FF FF FF FF
 4.688239 1  18FECACAx       Rx   d 8 00 00 00 00 00 00 FF FF
 4.699775 1  CFF21CAx        Rx   d 8 28 00 6A 17 4B 46 00 24
 4.711322 1  CFF21CAx        Rx   d 8 28 00 66 17 4B 46 00 24
 4.715698 1  18F100D0x       Rx   d 8 0C FF FF FF FF FF FF FF
 4.723700 1  CFF21CAx        Rx   d 8 28 00 68 17 4B 46 00 24
 4.734717 1  18F100F3x       Rx   d 8 03 11 7E 4D CA FA 14 00
 4.735545 1  18F102F3x       Rx   d 8 0F 59 0F 52 10 09 00 07
 4.736025 1  CFF21CAx        Rx   d 8 28 00 65 17 4B 46 00 24
 4.736452 1  18F106F3x       Rx   d 8 45 E0 FC FF FF FF FF FF
 4.737838 1  18F107F3x       Rx   d 8 38 A4 2B 2A 01 61 00 52
 4.739570 1  18F108F3x       Rx   d 8 00 00 00 00 00 00 00 00
 4.739995 1  18F100D0x       Rx   d 8 0C FF FF FF FF FF FF FF
 4.740552 1  18F155F3x       Rx   d 8 36 35 35 35 35 38 37 00
 4.741730 1  18F156F3x       Rx   d 8 00 00 00 00 00 00 00 00
 4.742423 1  18F157F3x       Rx   d 8 00 00 00 00 00 00 00 00
 4.743463 1  18F158F3x       Rx   d 8 00 00 00 00 00 00 00 00
 4.744376 1  18F159F3x       Rx   d 8 00 00 00 00 00 00 00 00
 4.745329 1  18F15AF3x       Rx   d 8 00 00 00 00 00 00 00 00
 4.746294 1  18F15BF3x       Rx   d 7 00 00 00 00 00 00 00
 4.747119 1  18F15CF3x       Rx   d 8 00 00 00 00 00 00 00 00
 4.747828 1  CFF21CAx        Rx   d 8 28 00 65 17 4B 46 00 24
 4.748366 1  18F15DF3x       Rx   d 8 00 00 00 00 00 00 00 00
 4.749197 1  18F15EF3x       Rx   d 8 00 00 00 00 00 00 00 00
 4.759494 1  CFF21CAx        Rx   d 8 29 00 68 17 4B 46 00 24
 4.763983 1  18F100D0x       Rx   d 8 0C FF FF FF FF FF FF FF
 4.771247 1  18FF2112x       Rx   d 8 01 00 00 00 00 00 00 00
 4.771950 1  CFF21CAx        Rx   d 8 29 00 68 17 4B 46 00 24
 4.783731 1  CFF21CAx        Rx   d 8 29 00 65 17 4B 46 00 24
 4.791637 1  18F100D0x       Rx   d 8 0C FF FF FF FF FF FF FF
 4.822952 1  CFF21CAx        Rx   d 8 29 00 65 17 4B 46 00 24
 4.823159 1  CFF21CAx        Rx   d 8 29 00 67 17 4B 46 00 24
 4.823341 1  18F100D0x       Rx   d 8 0C FF FF FF FF FF FF FF
 4.823596 1  CFF21CAx        Rx   d 8 2A 00 67 17 4B 46 00 24
 4.831889 1  CFF21CAx        Rx   d 8 2A 00 69 17 4B 46 00 24
 4.834215 1  18F100F3x       Rx   d 8 03 11 7E 4D CA FA 14 00
 4.835259 1  18F102F3x       Rx   d 8 0F 59 0F 52 10 09 00 07
 4.836582 1  18F106F3x       Rx   d 8 45 E0 FC FF FF FF FF FF
 4.837655 1  18F107F3x       Rx   d 8 38 A4 2B 2A 01 61 00 52
 4.839427 1  18F108F3x       Rx   d 8 00 00 00 00 00 00 00 00
 4.840163 1  18F100D0x       Rx   d 8 0C FF FF FF FF FF FF FF
 4.840663 1  18F155F3x       Rx   d 8 36 35 35 35 35 38 37 00
 4.841557 1  18F156F3x       Rx   d 8 00 00 00 00 00 00 00 00
 4.842466 1  18F157F3x       Rx   d 8 00 00 00 00 00 00 00 00
 4.843370 1  18F158F3x       Rx   d 8 00 00 00 00 00 00 00 00
 4.844344 1  18F159F3x       Rx   d 8 00 00 00 00 00 00 00 00
 4.844722 1  CFF21CAx        Rx   d 8 29 00 6B 17 4B 46 00 24
 4.845354 1  18F15AF3x       Rx   d 8 00 00 00 00 00 00 00 00
 4.846198 1  18F15BF3x       Rx   d 7 00 00 00 00 00 00 00
 4.847086 1  18F15CF3x       Rx   d 8 00 00 00 00 00 00 00 00
 4.848034 1  18F15DF3x       Rx   d 8 00 00 00 00 00 00 00 00
 4.848875 1  18F15EF3x       Rx   d 8 00 00 00 00 00 00 00 00
 4.855826 1  CFF21CAx        Rx   d 8 29 00 6E 17 4B 46 00 24
 4.863684 1  18F100D0x       Rx   d 8 0C FF FF FF FF FF FF FF
 4.868127 1  CFF21CAx        Rx   d 8 29 00 6F 17 4B 46 00 24
 4.868710 1  18FF2112x       Rx   d 8 01 00 00 00 00 00 00 00
 4.879881 1  CFF21CAx        Rx   d 8 29 00 6E 17 4B 46 00 24
 4.887908 1  18F100D0x       Rx   d 8 0C FF FF FF FF FF FF FF
 4.892424 1  CFF21CAx        Rx   d 8 29 00 72 17 4B 46 00 24
 4.904296 1  CFF21CAx        Rx   d 8 29 00 6D 17 4B 46 00 24
 4.916830 1  CFF21CAx        Rx   d 8 28 00 71 17 4B 46 00 24
 4.917362 1  18F100D0x       Rx   d 8 0C FF FF FF FF FF FF FF
