date Sat May 09 09:29:07.586 2026
base hex  timestamps absolute
internal events logged
Begin Triggerblock Sat May 09 09:29:07.592 2026
 0.000000 Start of measurement
 0.000000 1  1806E5F4x       Rx   d 8 00 00 00 00 01 FF FF FF
 0.000168 1  18F100F3x       Rx   d 8 03 3B 7D 00 F5 FA 14 00
 0.000281 1  18F102F3x       Rx   d 8 10 2B 10 24 10 0C 00 07
 0.000387 1  18F106F3x       Rx   d 8 80 C4 FC FF FF FF FF FF
 0.000811 1  18F107F3x       Rx   d 8 27 10 27 10 00 00 00 00
 0.000915 1  18F108F3x       Rx   d 8 00 00 00 00 00 01 00 BB
 0.000999 1  18F155F3x       Rx   d 8 37 37 38 38 38 38 38 00
 0.001083 1  18F156F3x       Rx   d 8 00 00 00 00 00 00 00 00
 0.001163 1  18F157F3x       Rx   d 8 00 00 00 00 00 00 00 00
 0.001242 1  18F158F3x       Rx   d 8 00 00 00 00 00 00 00 00
 0.001315 1  18F159F3x       Rx   d 8 00 00 00 00 00 00 00 00
 0.001390 1  18F15AF3x       Rx   d 8 00 00 00 00 00 00 00 00
 0.001459 1  18F15BF3x       Rx   d 7 00 00 00 00 00 00 00
 0.001533 1  18F15CF3x       Rx   d 8 00 00 00 00 00 00 00 00
 0.001605 1  18F15DF3x       Rx   d 8 00 00 00 00 00 00 00 00
 0.001679 1  18F15EF3x       Rx   d 8 00 00 00 00 00 00 00 00
 0.001752 1  18FF2112x       Rx   d 8 01 00 00 00 00 00 00 00
 0.027155 1  1806E5F4x       Rx   d 8 00 00 00 00 01 FF FF FF
 0.077211 1  1806E5F4x       Rx   d 8 00 00 00 00 01 FF FF FF
 0.078530 1  18F100F3x       Rx   d 8 03 3B 7D 00 F5 FA 14 00
 0.079387 1  18F102F3x       Rx   d 8 10 2B 10 24 10 0C 00 07
 0.080637 1  18F106F3x       Rx   d 8 80 C4 FC FF FF FF FF FF
 0.081916 1  18F107F3x       Rx   d 8 27 10 27 10 00 00 00 00
 0.083700 1  18F108F3x       Rx   d 8 00 00 00 00 00 01 00 BB
 0.084545 1  18F155F3x       Rx   d 8 37 37 38 38 38 38 38 00
 0.085427 1  18F156F3x       Rx   d 8 00 00 00 00 00 00 00 00
 0.086285 1  18F157F3x       Rx   d 8 00 00 00 00 00 00 00 00
 0.087180 1  18F158F3x       Rx   d 8 00 00 00 00 00 00 00 00
 0.088376 1  18F159F3x       Rx   d 8 00 00 00 00 00 00 00 00
 0.089297 1  18F15AF3x       Rx   d 8 00 00 00 00 00 00 00 00
 0.090148 1  18F15BF3x       Rx   d 7 00 00 00 00 00 00 00
 0.091085 1  18F15CF3x       Rx   d 8 00 00 00 00 00 00 00 00
 0.091946 1  18F15DF3x       Rx   d 8 00 00 00 00 00 00 00 00
 0.092782 1  18F15EF3x       Rx   d 8 00 00 00 00 00 00 00 00
 0.096138 1  18FF2112x       Rx   d 8 01 00 00 00 00 00 00 00
 0.127204 1  1806E5F4x       Rx   d 8 00 00 00 00 01 FF FF FF
 0.177443 1  1806E5F4x       Rx   d 8 00 00 00 00 01 FF FF FF
 0.178705 1  18F100F3x       Rx   d 8 03 3B 7D 00 F5 FA 14 00
 0.179716 1  18F102F3x       Rx   d 8 10 2B 10 24 10 0C 00 07
 0.180847 1  18F106F3x       Rx   d 8 80 C4 FC FF FF FF FF FF
 0.182458 1  18F107F3x       Rx   d 8 27 10 27 10 00 00 00 00
 0.183774 1  18F108F3x       Rx   d 8 00 00 00 00 00 01 00 BB
 0.184599 1  18F155F3x       Rx   d 8 37 37 38 38 38 38 38 00
 0.185513 1  18F156F3x       Rx   d 8 00 00 00 00 00 00 00 00
 0.186371 1  18F157F3x       Rx   d 8 00 00 00 00 00 00 00 00
 0.187249 1  18F158F3x       Rx   d 8 00 00 00 00 00 00 00 00
 0.188458 1  18F159F3x       Rx   d 8 00 00 00 00 00 00 00 00
 0.189252 1  18F15AF3x       Rx   d 8 00 00 00 00 00 00 00 00
 0.190136 1  18F15BF3x       Rx   d 7 00 00 00 00 00 00 00
 0.191093 1  18F15CF3x       Rx   d 8 00 00 00 00 00 00 00 00
 0.191952 1  18F15DF3x       Rx   d 8 00 00 00 00 00 00 00 00
 0.192814 1  18F15EF3x       Rx   d 8 00 00 00 00 00 00 00 00
 0.193386 1  18FF2112x       Rx   d 8 01 00 00 00 00 00 00 00
 0.227160 1  1806E5F4x       Rx   d 8 00 00 00 00 01 FF FF FF
 0.277270 1  1806E5F4x       Rx   d 8 00 00 00 00 01 FF FF FF
 0.278548 1  18F100F3x       Rx   d 8 03 3B 7D 00 F5 FA 14 00
 0.279403 1  18F102F3x       Rx   d 8 10 2B 10 24 10 0C 00 07
 0.280642 1  18F106F3x       Rx   d 8 80 C4 FC FF FF FF FF FF
 0.281929 1  18F107F3x       Rx   d 8 27 10 27 10 00 00 00 00
 0.283693 1  18F108F3x       Rx   d 8 00 00 00 00 00 01 00 BB
 0.284573 1  18F155F3x       Rx   d 8 37 37 38 38 38 38 38 00
 0.285446 1  18F156F3x       Rx   d 8 00 00 00 00 00 00 00 00
 0.286326 1  18F157F3x       Rx   d 8 00 00 00 00 00 00 00 00
 0.287208 1  18F158F3x       Rx   d 8 00 00 00 00 00 00 00 00
 0.288419 1  18F159F3x       Rx   d 8 00 00 00 00 00 00 00 00
 0.289287 1  18F15AF3x       Rx   d 8 00 00 00 00 00 00 00 00
 0.290137 1  18F15BF3x       Rx   d 7 00 00 00 00 00 00 00
 0.290714 1  18FF2112x       Rx   d 8 01 00 00 00 00 00 00 00
 0.291296 1  18F15CF3x       Rx   d 8 00 00 00 00 00 00 00 00
 0.292192 1  18F15DF3x       Rx   d 8 00 00 00 00 00 00 00 00
 0.293078 1  18F15EF3x       Rx   d 8 00 00 00 00 00 00 00 00
 0.327237 1  1806E5F4x       Rx   d 8 00 00 00 00 01 FF FF FF
 0.377397 1  1806E5F4x       Rx   d 8 00 00 00 00 01 FF FF FF
 0.378647 1  18F100F3x       Rx   d 8 03 3B 7D 00 F5 FA 14 00
 0.379444 1  18F102F3x       Rx   d 8 10 2B 10 24 10 0C 00 07
 0.380702 1  18F106F3x       Rx   d 8 80 C4 FC FF FF FF FF FF
 0.381955 1  18F107F3x       Rx   d 8 27 10 27 10 00 00 00 00
 0.383707 1  18F108F3x       Rx   d 8 00 00 00 00 00 01 00 BB
 0.384620 1  18F155F3x       Rx   d 8 37 37 38 38 38 38 38 00
 0.385426 1  18F156F3x       Rx   d 8 00 00 00 00 00 00 00 00
 0.386364 1  18F157F3x       Rx   d 8 00 00 00 00 00 00 00 00
 0.387230 1  18F158F3x       Rx   d 8 00 00 00 00 00 00 00 00
 0.387971 1  18FF2112x       Rx   d 8 01 00 00 00 00 00 00 00
 0.388503 1  18F159F3x       Rx   d 8 00 00 00 00 00 00 00 00
 0.389384 1  18F15AF3x       Rx   d 8 00 00 00 00 00 00 00 00
 0.390221 1  18F15BF3x       Rx   d 7 00 00 00 00 00 00 00
 0.391110 1  18F15CF3x       Rx   d 8 00 00 00 00 00 00 00 00
 0.392053 1  18F15DF3x       Rx   d 8 00 00 00 00 00 00 00 00
 0.392860 1  18F15EF3x       Rx   d 8 00 00 00 00 00 00 00 00
 0.427243 1  1806E5F4x       Rx   d 8 00 00 00 00 01 FF FF FF
 0.476913 1  18F104F3x       Rx   d 8 38 37 03 01 01 FF FF FF
 0.477710 1  18F113F3x       Rx   d 8 10 27 10 27 10 27 10 27
 0.478721 1  18F100F3x       Rx   d 8 03 3B 7D 00 F5 FA 14 00
 0.479317 1  18F102F3x       Rx   d 8 10 2B 10 24 10 0C 00 07
 0.480719 1  18F106F3x       Rx   d 8 80 C4 FC FF FF FF FF FF
 0.482074 1  18F107F3x       Rx   d 8 27 10 27 10 00 00 00 00
 0.483976 1  18F108F3x       Rx   d 8 00 00 00 00 00 01 00 BB
 0.484915 1  18F114F3x       Rx   d 8 10 25 10 25 10 27 10 28
 0.485505 1  18FF2112x       Rx   d 8 01 00 00 00 00 00 00 00
 0.486089 1  18F115F3x       Rx   d 8 10 25 10 25 10 25 10 24
 0.487074 1  18F116F3x       Rx   d 8 10 28 10 27 10 29 10 2B
 0.488289 1  18F117F3x       Rx   d 8 10 25 10 27 10 2A 10 2A
 0.489212 1  18F118F3x       Rx   d 8 00 00 00 00 00 00 00 00
 0.490194 1  18F119F3x       Rx   d 8 00 00 00 00 00 00 00 00
 0.491248 1  18F11AF3x       Rx   d 8 00 00 00 00 00 00 00 00
 0.492425 1  18F11BF3x       Rx   d 8 00 00 00 00 00 00 00 00
 0.493246 1  18F11CF3x       Rx   d 8 00 00 00 00 00 00 00 00
 0.494262 1  18F11DF3x       Rx   d 8 00 00 00 00 00 00 00 00
 0.495219 1  18F11EF3x       Rx   d 8 00 00 00 00 00 00 00 00
 0.496197 1  18F11FF3x       Rx   d 8 00 00 00 00 00 00 00 00
 0.497172 1  18F120F3x       Rx   d 8 00 00 00 00 00 00 00 00
 0.498398 1  18F121F3x       Rx   d 8 00 00 00 00 00 00 00 00
 0.499301 1  18F122F3x       Rx   d 8 00 00 00 00 00 00 00 00
 0.500239 1  18F123F3x       Rx   d 8 00 00 00 00 00 00 00 00
 0.501232 1  18F124F3x       Rx   d 8 00 00 00 00 00 00 00 00
 0.501758 1  1806E5F4x       Rx   d 8 00 00 00 00 01 FF FF FF
 0.502332 1  18F125F3x       Rx   d 8 00 00 00 00 00 00 00 00
 0.503293 1  18F126F3x       Rx   d 8 00 00 00 00 00 00 00 00
 0.504288 1  18F127F3x       Rx   d 8 00 00 00 00 00 00 00 00
 0.505223 1  18F128F3x       Rx   d 8 00 00 00 00 00 00 00 00
 0.506098 1  18F129F3x       Rx   d 8 00 00 00 00 00 00 00 00
 0.507084 1  18F12AF3x       Rx   d 8 00 00 00 00 00 00 00 00
 0.508272 1  18F12BF3x       Rx   d 8 00 00 00 00 00 00 00 00
 0.509227 1  18F12CF3x       Rx   d 8 00 00 00 00 00 00 00 00
 0.510156 1  18F12DF3x       Rx   d 8 00 00 00 00 00 00 00 00
 0.511110 1  18F12EF3x       Rx   d 8 00 00 00 00 00 00 00 00
 0.512157 1  18F12FF3x       Rx   d 8 00 00 00 00 00 00 00 00
 0.513014 1  18F130F3x       Rx   d 8 00 00 00 00 00 00 00 00
 0.513866 1  18F131F3x       Rx   d 8 00 00 00 00 00 00 00 00
 0.514762 1  18F132F3x       Rx   d 8 00 00 00 00 00 00 00 00
 0.515646 1  18F133F3x       Rx   d 8 00 00 00 00 00 00 00 00
 0.516556 1  18F134F3x       Rx   d 8 00 00 00 00 00 00 00 00
 0.517425 1  18F135F3x       Rx   d 8 00 00 00 00 00 00 00 00
 0.518398 1  18F136F3x       Rx   d 8 00 00 00 00 00 00 00 00
 0.519285 1  18F137F3x       Rx   d 8 00 00 00 00 00 00 00 00
 0.520184 1  18F138F3x       Rx   d 8 00 00 00 00 00 00 00 00
 0.521155 1  18F139F3x       Rx   d 8 00 00 00 00 00 00 00 00
 0.522087 1  18F13AF3x       Rx   d 8 00 00 00 00 00 00 00 00
 0.522980 1  18F13BF3x       Rx   d 8 00 00 00 00 00 00 00 00
 0.523818 1  18F13CF3x       Rx   d 8 00 00 00 00 00 00 00 00
 0.524755 1  18F155F3x       Rx   d 8 37 37 38 38 38 38 38 00
 0.525600 1  18F156F3x       Rx   d 8 00 00 00 00 00 00 00 00
 0.526446 1  18F157F3x       Rx   d 8 00 00 00 00 00 00 00 00
 0.527333 1  18F158F3x       Rx   d 8 00 00 00 00 00 00 00 00
 0.528453 1  18F159F3x       Rx   d 8 00 00 00 00 00 00 00 00
 0.529385 1  18F15AF3x       Rx   d 8 00 00 00 00 00 00 00 00
 0.530172 1  18F15BF3x       Rx   d 7 00 00 00 00 00 00 00
 0.531132 1  18F15CF3x       Rx   d 8 00 00 00 00 00 00 00 00
 0.531998 1  18F15DF3x       Rx   d 8 00 00 00 00 00 00 00 00
 0.532830 1  18F15EF3x       Rx   d 8 00 00 00 00 00 00 00 00
 0.550471 1  1806E5F4x       Rx   d 8 00 00 00 00 01 FF FF FF
 0.578617 1  18F100F3x       Rx   d 8 03 3B 7D 00 F5 FA 14 00
 0.579588 1  18F102F3x       Rx   d 8 10 2B 10 24 10 0C 00 07
 0.580764 1  18F106F3x       Rx   d 8 80 C4 FC FF FF FF FF FF
 0.581920 1  18F107F3x       Rx   d 8 27 10 27 10 00 00 00 00
 0.582455 1  18FF2112x       Rx   d 8 01 00 00 00 00 00 00 00
 0.583699 1  18F108F3x       Rx   d 8 00 00 00 00 00 01 00 BB
 0.584558 1  18F155F3x       Rx   d 8 37 37 38 38 38 38 38 00
 0.585450 1  18F156F3x       Rx   d 8 00 00 00 00 00 00 00 00
 0.586340 1  18F157F3x       Rx   d 8 00 00 00 00 00 00 00 00
 0.587243 1  18F158F3x       Rx   d 8 00 00 00 00 00 00 00 00
 0.588457 1  18F159F3x       Rx   d 8 00 00 00 00 00 00 00 00
 0.589305 1  18F15AF3x       Rx   d 8 00 00 00 00 00 00 00 00
 0.590181 1  18F15BF3x       Rx   d 7 00 00 00 00 00 00 00
 0.591108 1  18F15CF3x       Rx   d 8 00 00 00 00 00 00 00 00
 0.591984 1  18F15DF3x       Rx   d 8 00 00 00 00 00 00 00 00
 0.592834 1  18F15EF3x       Rx   d 8 00 00 00 00 00 00 00 00
 0.600419 1  1806E5F4x       Rx   d 8 00 00 00 00 01 FF FF FF
 0.650476 1  1806E5F4x       Rx   d 8 00 00 00 00 01 FF FF FF
 0.678626 1  18F100F3x       Rx   d 8 03 3B 7D 00 F5 FA 14 00
 0.679445 1  18F102F3x       Rx   d 8 10 2B 10 23 10 0C 00 08
 0.679982 1  18FF2112x       Rx   d 8 01 00 00 00 00 00 00 00
 0.680685 1  18F106F3x       Rx   d 8 80 C4 FC FF FF FF FF FF
 0.681942 1  18F107F3x       Rx   d 8 27 10 27 10 00 00 00 00
 0.683698 1  18F108F3x       Rx   d 8 00 00 00 00 00 01 00 BB
 0.684604 1  18F155F3x       Rx   d 8 37 37 38 38 38 38 38 00
 0.685467 1  18F156F3x       Rx   d 8 00 00 00 00 00 00 00 00
 0.686353 1  18F157F3x       Rx   d 8 00 00 00 00 00 00 00 00
 0.687221 1  18F158F3x       Rx   d 8 00 00 00 00 00 00 00 00
 0.688415 1  18F159F3x       Rx   d 8 00 00 00 00 00 00 00 00
 0.689306 1  18F15AF3x       Rx   d 8 00 00 00 00 00 00 00 00
 0.690176 1  18F15BF3x       Rx   d 7 00 00 00 00 00 00 00
 0.691064 1  18F15CF3x       Rx   d 8 00 00 00 00 00 00 00 00
 0.692002 1  18F15DF3x       Rx   d 8 00 00 00 00 00 00 00 00
 0.692820 1  18F15EF3x       Rx   d 8 00 00 00 00 00 00 00 00
 0.700303 1  1806E5F4x       Rx   d 8 00 00 00 00 01 FF FF FF
 0.751426 1  1806E5F4x       Rx   d 8 00 00 00 00 01 FF FF FF
 0.777028 1  18FF2112x       Rx   d 8 01 00 00 00 00 00 00 00
 0.778579 1  18F100F3x       Rx   d 8 03 3B 7D 00 F5 FA 14 00
 0.779411 1  18F102F3x       Rx   d 8 10 2B 10 23 10 0C 00 08
 0.780642 1  18F106F3x       Rx   d 8 80 C4 FC FF FF FF FF FF
 0.781866 1  18F107F3x       Rx   d 8 27 10 27 10 00 00 00 00
 0.783617 1  18F108F3x       Rx   d 8 00 00 00 00 00 01 00 BB
 0.784479 1  18F155F3x       Rx   d 8 37 37 38 38 38 38 38 00
 0.785366 1  18F156F3x       Rx   d 8 00 00 00 00 00 00 00 00
 0.786268 1  18F157F3x       Rx   d 8 00 00 00 00 00 00 00 00
 0.787197 1  18F158F3x       Rx   d 8 00 00 00 00 00 00 00 00
 0.788386 1  18F159F3x       Rx   d 8 00 00 00 00 00 00 00 00
 0.789256 1  18F15AF3x       Rx   d 8 00 00 00 00 00 00 00 00
 0.790161 1  18F15BF3x       Rx   d 7 00 00 00 00 00 00 00
 0.791097 1  18F15CF3x       Rx   d 8 00 00 00 00 00 00 00 00
 0.791868 1  18F15DF3x       Rx   d 8 00 00 00 00 00 00 00 00
 0.792709 1  18F15EF3x       Rx   d 8 00 00 00 00 00 00 00 00
 0.801106 1  1806E5F4x       Rx   d 8 00 00 00 00 01 FF FF FF
 0.871357 1  1806E5F4x       Rx   d 8 00 00 00 00 01 FF FF FF
 0.874261 1  18FF2112x       Rx   d 8 01 00 00 00 00 00 00 00
 0.878572 1  18F100F3x       Rx   d 8 03 3B 7D 00 F5 FA 14 00
 0.879446 1  18F102F3x       Rx   d 8 10 2B 10 23 10 0C 00 08
 0.880676 1  18F106F3x       Rx   d 8 80 C4 FC FF FF FF FF FF
 0.881906 1  18F107F3x       Rx   d 8 27 10 27 10 00 00 00 00
 0.883663 1  18F108F3x       Rx   d 8 00 00 00 00 00 01 00 BB
 0.884528 1  18F155F3x       Rx   d 8 37 37 38 38 38 38 38 00
 0.885416 1  18F156F3x       Rx   d 8 00 00 00 00 00 00 00 00
 0.886289 1  18F157F3x       Rx   d 8 00 00 00 00 00 00 00 00
 0.887213 1  18F158F3x       Rx   d 8 00 00 00 00 00 00 00 00
 0.888419 1  18F159F3x       Rx   d 8 00 00 00 00 00 00 00 00
 0.889268 1  18F15AF3x       Rx   d 8 00 00 00 00 00 00 00 00
 0.890132 1  18F15BF3x       Rx   d 7 00 00 00 00 00 00 00
 0.891077 1  18F15CF3x       Rx   d 8 00 00 00 00 00 00 00 00
 0.891934 1  18F15DF3x       Rx   d 8 00 00 00 00 00 00 00 00
 0.892746 1  18F15EF3x       Rx   d 8 00 00 00 00 00 00 00 00
 0.921162 1  1806E5F4x       Rx   d 8 00 00 00 00 01 FF FF FF
 0.971300 1  1806E5F4x       Rx   d 8 00 00 00 00 01 FF FF FF
 0.971826 1  18FF2112x       Rx   d 8 01 00 00 00 00 00 00 00
 0.978528 1  18F100F3x       Rx   d 8 03 3B 7D 00 F5 FA 14 00
 0.979367 1  18F102F3x       Rx   d 8 10 2B 10 23 10 0C 00 08
 0.980596 1  18F106F3x       Rx   d 8 80 C4 FC FF FF FF FF FF
 0.981888 1  18F107F3x       Rx   d 8 27 10 27 10 00 00 00 00
 0.983597 1  18F108F3x       Rx   d 8 00 00 00 00 00 01 00 BB
 0.984470 1  18F155F3x       Rx   d 8 37 37 38 38 38 38 38 00
 0.985348 1  18F156F3x       Rx   d 8 00 00 00 00 00 00 00 00
 0.986239 1  18F157F3x       Rx   d 8 00 00 00 00 00 00 00 00
 0.987248 1  18F158F3x       Rx   d 8 00 00 00 00 00 00 00 00
 0.988478 1  18F159F3x       Rx   d 8 00 00 00 00 00 00 00 00
 0.989340 1  18F15AF3x       Rx   d 8 00 00 00 00 00 00 00 00
 0.990226 1  18F15BF3x       Rx   d 7 00 00 00 00 00 00 00
 0.991130 1  18F15CF3x       Rx   d 8 00 00 00 00 00 00 00 00
 0.992038 1  18F15DF3x       Rx   d 8 00 00 00 00 00 00 00 00
 0.992939 1  18F15EF3x       Rx   d 8 00 00 00 00 00 00 00 00
 1.021109 1  1806E5F4x       Rx   d 8 00 00 00 00 01 FF FF FF
 1.069329 1  18FF2112x       Rx   d 8 01 00 00 00 00 00 00 00
 1.071178 1  1806E5F4x       Rx   d 8 00 00 00 00 01 FF FF FF
 1.078600 1  18F100F3x       Rx   d 8 03 3B 7D 00 F5 FA 14 00
 1.079408 1  18F102F3x       Rx   d 8 10 2B 10 23 10 0C 00 08
 1.080643 1  18F106F3x       Rx   d 8 80 C4 FC FF FF FF FF FF
 1.081856 1  18F107F3x       Rx   d 8 27 10 27 10 00 00 00 00
 1.083639 1  18F108F3x       Rx   d 8 00 00 00 00 00 01 00 BB
 1.084498 1  18F155F3x       Rx   d 8 37 37 38 38 38 38 38 00
 1.085365 1  18F156F3x       Rx   d 8 00 00 00 00 00 00 00 00
 1.086264 1  18F157F3x       Rx   d 8 00 00 00 00 00 00 00 00
 1.087218 1  18F158F3x       Rx   d 8 00 00 00 00 00 00 00 00
 1.088405 1  18F159F3x       Rx   d 8 00 00 00 00 00 00 00 00
 1.089288 1  18F15AF3x       Rx   d 8 00 00 00 00 00 00 00 00
 1.090115 1  18F15BF3x       Rx   d 7 00 00 00 00 00 00 00
 1.091089 1  18F15CF3x       Rx   d 8 00 00 00 00 00 00 00 00
 1.091912 1  18F15DF3x       Rx   d 8 00 00 00 00 00 00 00 00
 1.092699 1  18F15EF3x       Rx   d 8 00 00 00 00 00 00 00 00
 1.121387 1  1806E5F4x       Rx   d 8 00 00 00 00 01 FF FF FF
 1.166170 1  18FF2112x       Rx   d 8 01 00 00 00 00 00 00 00
 1.171199 1  1806E5F4x       Rx   d 8 00 00 00 00 01 FF FF FF
 1.178617 1  18F100F3x       Rx   d 8 03 3B 7D 00 F5 FA 14 00
 1.179500 1  18F102F3x       Rx   d 8 10 2B 10 23 10 0C 00 08
 1.180687 1  18F106F3x       Rx   d 8 80 C4 FC FF FF FF FF FF
 1.181912 1  18F107F3x       Rx   d 8 27 10 27 10 00 00 00 00
 1.183652 1  18F108F3x       Rx   d 8 00 00 00 00 00 01 00 BB
 1.184550 1  18F155F3x       Rx   d 8 37 37 38 38 38 38 38 00
 1.185430 1  18F156F3x       Rx   d 8 00 00 00 00 00 00 00 00
 1.186284 1  18F157F3x       Rx   d 8 00 00 00 00 00 00 00 00
 1.187218 1  18F158F3x       Rx   d 8 00 00 00 00 00 00 00 00
 1.188430 1  18F159F3x       Rx   d 8 00 00 00 00 00 00 00 00
 1.189325 1  18F15AF3x       Rx   d 8 00 00 00 00 00 00 00 00
 1.190157 1  18F15BF3x       Rx   d 7 00 00 00 00 00 00 00
 1.191121 1  18F15CF3x       Rx   d 8 00 00 00 00 00 00 00 00
 1.191915 1  18F15DF3x       Rx   d 8 00 00 00 00 00 00 00 00
 1.192760 1  18F15EF3x       Rx   d 8 00 00 00 00 00 00 00 00
 1.221297 1  1806E5F4x       Rx   d 8 00 00 00 00 01 FF FF FF
 1.263491 1  18FF2112x       Rx   d 8 01 00 00 00 00 00 00 00
 1.271442 1  1806E5F4x       Rx   d 8 00 00 00 00 01 FF FF FF
 1.289268 1  18F100F3x       Rx   d 8 03 3B 7D 00 F5 FA 14 00
 1.289416 1  18F102F3x       Rx   d 8 10 2B 10 23 10 0C 00 08
 1.289525 1  18F106F3x       Rx   d 8 80 C4 FC FF FF FF FF FF
 1.289627 1  18F107F3x       Rx   d 8 27 10 27 10 00 00 00 00
 1.289725 1  18F108F3x       Rx   d 8 00 00 00 00 00 01 00 BB
 1.289822 1  18F155F3x       Rx   d 8 37 37 38 38 38 38 38 00
 1.289933 1  18F156F3x       Rx   d 8 00 00 00 00 00 00 00 00
 1.290033 1  18F157F3x       Rx   d 8 00 00 00 00 00 00 00 00
 1.290134 1  18F158F3x       Rx   d 8 00 00 00 00 00 00 00 00
 1.290285 1  18F159F3x       Rx   d 8 00 00 00 00 00 00 00 00
 1.290405 1  18F15AF3x       Rx   d 8 00 00 00 00 00 00 00 00
 1.290501 1  18F15BF3x       Rx   d 7 00 00 00 00 00 00 00
 1.291086 1  18F15CF3x       Rx   d 8 00 00 00 00 00 00 00 00
 1.291922 1  18F15DF3x       Rx   d 8 00 00 00 00 00 00 00 00
 1.292774 1  18F15EF3x       Rx   d 8 00 00 00 00 00 00 00 00
 1.326462 1  1806E5F4x       Rx   d 8 00 00 00 00 01 FF FF FF
 1.360744 1  18FF2112x       Rx   d 8 01 00 00 00 00 00 00 00
 1.376494 1  1806E5F4x       Rx   d 8 00 00 00 00 01 FF FF FF
 1.378586 1  18F100F3x       Rx   d 8 03 3B 7D 00 F5 FA 14 00
 1.379543 1  18F102F3x       Rx   d 8 10 2B 10 23 10 0C 00 08
 1.380696 1  18F106F3x       Rx   d 8 80 C4 FC FF FF FF FF FF
 1.381917 1  18F107F3x       Rx   d 8 27 10 27 10 00 00 00 00
 1.383705 1  18F108F3x       Rx   d 8 00 00 00 00 00 01 00 BB
 1.384570 1  18F155F3x       Rx   d 8 37 37 38 38 38 38 38 00
 1.385450 1  18F156F3x       Rx   d 8 00 00 00 00 00 00 00 00
 1.386339 1  18F157F3x       Rx   d 8 00 00 00 00 00 00 00 00
 1.387267 1  18F158F3x       Rx   d 8 00 00 00 00 00 00 00 00
 1.388463 1  18F159F3x       Rx   d 8 00 00 00 00 00 00 00 00
 1.389324 1  18F15AF3x       Rx   d 8 00 00 00 00 00 00 00 00
 1.390186 1  18F15BF3x       Rx   d 7 00 00 00 00 00 00 00
 1.391099 1  18F15CF3x       Rx   d 8 00 00 00 00 00 00 00 00
 1.391949 1  18F15DF3x       Rx   d 8 00 00 00 00 00 00 00 00
 1.392793 1  18F15EF3x       Rx   d 8 00 00 00 00 00 00 00 00
 1.426412 1  1806E5F4x       Rx   d 8 00 00 00 00 01 FF FF FF
 1.458040 1  18FF2112x       Rx   d 8 01 00 00 00 00 00 00 00
 1.476960 1  18F104F3x       Rx   d 8 38 37 03 01 01 FF FF FF
 1.477833 1  18F113F3x       Rx   d 8 10 27 10 27 10 27 10 27
 1.478848 1  18F100F3x       Rx   d 8 03 3B 7D 00 F5 FA 14 00
 1.479352 1  18F102F3x       Rx   d 8 10 2B 10 23 10 0C 00 08
 1.480713 1  18F106F3x       Rx   d 8 80 C4 FC FF FF FF FF FF
 1.482085 1  18F107F3x       Rx   d 8 27 10 27 10 00 00 00 00
 1.483929 1  18F108F3x       Rx   d 8 00 00 00 00 00 01 00 BB
 1.484860 1  18F114F3x       Rx   d 8 10 25 10 25 10 28 10 28
 1.485771 1  18F115F3x       Rx   d 8 10 25 10 25 10 25 10 23
 1.486680 1  18F116F3x       Rx   d 8 10 28 10 27 10 29 10 2B
 1.487592 1  18F117F3x       Rx   d 8 10 25 10 27 10 2A 10 2A
 1.488535 1  18F118F3x       Rx   d 8 00 00 00 00 00 00 00 00
 1.489497 1  18F119F3x       Rx   d 8 00 00 00 00 00 00 00 00
 1.490423 1  18F11AF3x       Rx   d 8 00 00 00 00 00 00 00 00
 1.491360 1  18F11BF3x       Rx   d 8 00 00 00 00 00 00 00 00
 1.492366 1  18F11CF3x       Rx   d 8 00 00 00 00 00 00 00 00
 1.493338 1  18F11DF3x       Rx   d 8 00 00 00 00 00 00 00 00
 1.494291 1  18F11EF3x       Rx   d 8 00 00 00 00 00 00 00 00
 1.505637 1  18F11FF3x       Rx   d 8 00 00 00 00 00 00 00 00
 1.505773 1  18F120F3x       Rx   d 8 00 00 00 00 00 00 00 00
 1.505880 1  18F121F3x       Rx   d 8 00 00 00 00 00 00 00 00
 1.505980 1  18F122F3x       Rx   d 8 00 00 00 00 00 00 00 00
 1.506079 1  18F123F3x       Rx   d 8 00 00 00 00 00 00 00 00
 1.506177 1  18F124F3x       Rx   d 8 00 00 00 00 00 00 00 00
 1.506274 1  18F125F3x       Rx   d 8 00 00 00 00 00 00 00 00
 1.506368 1  18F126F3x       Rx   d 8 00 00 00 00 00 00 00 00
 1.506453 1  18F127F3x       Rx   d 8 00 00 00 00 00 00 00 00
 1.506540 1  18F128F3x       Rx   d 8 00 00 00 00 00 00 00 00
 1.506624 1  18F129F3x       Rx   d 8 00 00 00 00 00 00 00 00
 1.506708 1  18F12AF3x       Rx   d 8 00 00 00 00 00 00 00 00
 1.507051 1  18F12BF3x       Rx   d 8 00 00 00 00 00 00 00 00
 1.508213 1  18F12CF3x       Rx   d 8 00 00 00 00 00 00 00 00
 1.509200 1  18F12DF3x       Rx   d 8 00 00 00 00 00 00 00 00
 1.510104 1  18F12EF3x       Rx   d 8 00 00 00 00 00 00 00 00
 1.511078 1  18F12FF3x       Rx   d 8 00 00 00 00 00 00 00 00
 1.511976 1  18F130F3x       Rx   d 8 00 00 00 00 00 00 00 00
 1.512873 1  18F131F3x       Rx   d 8 00 00 00 00 00 00 00 00
 1.513758 1  18F132F3x       Rx   d 8 00 00 00 00 00 00 00 00
 1.514631 1  18F133F3x       Rx   d 8 00 00 00 00 00 00 00 00
 1.515218 1  1806E5F4x       Rx   d 8 00 00 00 00 01 FF FF FF
 1.515786 1  18F134F3x       Rx   d 8 00 00 00 00 00 00 00 00
 1.516695 1  18F135F3x       Rx   d 8 00 00 00 00 00 00 00 00
 1.517566 1  18F136F3x       Rx   d 8 00 00 00 00 00 00 00 00
 1.518487 1  18F137F3x       Rx   d 8 00 00 00 00 00 00 00 00
 1.519361 1  18F138F3x       Rx   d 8 00 00 00 00 00 00 00 00
 1.520298 1  18F139F3x       Rx   d 8 00 00 00 00 00 00 00 00
 1.521209 1  18F13AF3x       Rx   d 8 00 00 00 00 00 00 00 00
 1.522085 1  18F13BF3x       Rx   d 8 00 00 00 00 00 00 00 00
 1.522977 1  18F13CF3x       Rx   d 8 00 00 00 00 00 00 00 00
 1.523869 1  18F155F3x       Rx   d 8 37 37 38 38 38 38 38 00
 1.524755 1  18F156F3x       Rx   d 8 00 00 00 00 00 00 00 00
 1.525638 1  18F157F3x       Rx   d 8 00 00 00 00 00 00 00 00
 1.526525 1  18F158F3x       Rx   d 8 00 00 00 00 00 00 00 00
 1.527410 1  18F159F3x       Rx   d 8 00 00 00 00 00 00 00 00
 1.528461 1  18F15AF3x       Rx   d 8 00 00 00 00 00 00 00 00
 1.529321 1  18F15BF3x       Rx   d 7 00 00 00 00 00 00 00
 1.530211 1  18F15CF3x       Rx   d 8 00 00 00 00 00 00 00 00
 1.531090 1  18F15DF3x       Rx   d 8 00 00 00 00 00 00 00 00
 1.531941 1  18F15EF3x       Rx   d 8 00 00 00 00 00 00 00 00
 1.555236 1  18FF2112x       Rx   d 8 01 00 00 00 00 00 00 00
 1.564353 1  1806E5F4x       Rx   d 8 00 00 00 00 01 FF FF FF
 1.578640 1  18F100F3x       Rx   d 8 03 3B 7D 00 F5 FA 14 00
 1.579476 1  18F102F3x       Rx   d 8 10 2B 10 23 10 0C 00 08
 1.580692 1  18F106F3x       Rx   d 8 80 C4 FC FF FF FF FF FF
 1.581911 1  18F107F3x       Rx   d 8 27 10 27 10 00 00 00 00
 1.583663 1  18F108F3x       Rx   d 8 00 00 00 00 00 01 00 BB
 1.584541 1  18F155F3x       Rx   d 8 37 37 38 38 38 38 38 00
 1.585438 1  18F156F3x       Rx   d 8 00 00 00 00 00 00 00 00
 1.586339 1  18F157F3x       Rx   d 8 00 00 00 00 00 00 00 00
 1.587215 1  18F158F3x       Rx   d 8 00 00 00 00 00 00 00 00
 1.588443 1  18F159F3x       Rx   d 8 00 00 00 00 00 00 00 00
 1.589306 1  18F15AF3x       Rx   d 8 00 00 00 00 00 00 00 00
 1.590170 1  18F15BF3x       Rx   d 7 00 00 00 00 00 00 00
 1.591112 1  18F15CF3x       Rx   d 8 00 00 00 00 00 00 00 00
 1.591967 1  18F15DF3x       Rx   d 8 00 00 00 00 00 00 00 00
 1.592807 1  18F15EF3x       Rx   d 8 00 00 00 00 00 00 00 00
 1.614436 1  1806E5F4x       Rx   d 8 00 00 00 00 01 FF FF FF
 1.652556 1  18FF2112x       Rx   d 8 01 00 00 00 00 00 00 00
 1.664685 1  1806E5F4x       Rx   d 8 00 00 00 00 01 FF FF FF
 1.678669 1  18F100F3x       Rx   d 8 03 3B 7D 00 F5 FA 14 00
 1.679553 1  18F102F3x       Rx   d 8 10 2B 10 23 10 0C 00 08
 1.680743 1  18F106F3x       Rx   d 8 80 C4 FC FF FF FF FF FF
 1.681988 1  18F107F3x       Rx   d 8 27 10 27 10 00 00 00 00
 1.683691 1  18F108F3x       Rx   d 8 00 00 00 00 00 01 00 BB
 1.684563 1  18F155F3x       Rx   d 8 37 37 38 38 38 38 38 00
 1.685440 1  18F156F3x       Rx   d 8 00 00 00 00 00 00 00 00
 1.686376 1  18F157F3x       Rx   d 8 00 00 00 00 00 00 00 00
 1.687253 1  18F158F3x       Rx   d 8 00 00 00 00 00 00 00 00
