date Sat May 09 18:17:49.627 2026
base hex  timestamps absolute
internal events logged
Begin Triggerblock Sat May 09 18:17:49.633 2026
 0.000000 Start of measurement
 0.000000 1  CFF21CAx        Rx   d 8 03 00 80 0C 44 3E 00 24
 0.000177 1  18F100D0x       Rx   d 8 0C FF FF FF FF FF FF FF
 0.000272 1  CFF21CAx        Rx   d 8 03 00 80 0C 44 3E 00 24
 0.007199 1  18F104F3x       Rx   d 8 3D 3C 06 01 01 FF FF FF
 0.007922 1  CFF21CAx        Rx   d 8 03 00 80 0C 44 3E 00 24
 0.008406 1  18F113F3x       Rx   d 8 10 47 10 48 10 49 10 48
 0.009377 1  18F114F3x       Rx   d 8 10 46 10 46 10 49 10 4A
 0.010360 1  18F100F3x       Rx   d 8 03 42 7D 10 FA FA 14 00
 0.011628 1  18F102F3x       Rx   d 8 10 4C 10 46 10 05 00 06
 0.012200 1  18F100D0x       Rx   d 8 0C FF FF FF FF FF FF FF
 0.013135 1  18F106F3x       Rx   d 8 45 E0 FC FF FF FF FF FF
 0.014486 1  18F107F3x       Rx   d 8 38 A4 27 10 01 77 00 00
 0.016372 1  18F108F3x       Rx   d 8 10 00 04 00 00 00 00 01
 0.017362 1  18F115F3x       Rx   d 8 10 46 10 46 10 46 10 46
 0.018317 1  18F116F3x       Rx   d 8 10 4A 10 47 10 4B 10 4C
 0.019311 1  18F117F3x       Rx   d 8 10 46 10 47 10 4B 10 4B
 0.019991 1  CFF21CAx        Rx   d 8 03 00 80 0C 44 3E 00 24
 0.020592 1  18F118F3x       Rx   d 8 00 00 00 00 00 00 00 00
 0.021858 1  18F119F3x       Rx   d 8 00 00 00 00 00 00 00 00
 0.022750 1  18F11AF3x       Rx   d 8 00 00 00 00 00 00 00 00
 0.023718 1  18F11BF3x       Rx   d 8 00 00 00 00 00 00 00 00
 0.024660 1  18F11CF3x       Rx   d 8 00 00 00 00 00 00 00 00
 0.025673 1  18F11DF3x       Rx   d 8 00 00 00 00 00 00 00 00
 0.026629 1  18F11EF3x       Rx   d 8 00 00 00 00 00 00 00 00
 0.027669 1  18F11FF3x       Rx   d 8 00 00 00 00 00 00 00 00
 0.028630 1  18F120F3x       Rx   d 8 00 00 00 00 00 00 00 00
 0.029578 1  18F121F3x       Rx   d 8 00 00 00 00 00 00 00 00
 0.030547 1  18F122F3x       Rx   d 8 00 00 00 00 00 00 00 00
 0.031851 1  18F123F3x       Rx   d 8 00 00 00 00 00 00 00 00
 0.032339 1  CFF21CAx        Rx   d 8 03 00 80 0C 44 3E 00 24
 0.032906 1  18F100D0x       Rx   d 8 0C FF FF FF FF FF FF FF
 0.033482 1  18F124F3x       Rx   d 8 00 00 00 00 00 00 00 00
 0.034420 1  18F125F3x       Rx   d 8 00 00 00 00 00 00 00 00
 0.035369 1  18F126F3x       Rx   d 8 00 00 00 00 00 00 00 00
 0.036352 1  18F127F3x       Rx   d 8 00 00 00 00 00 00 00 00
 0.037287 1  18F128F3x       Rx   d 8 00 00 00 00 00 00 00 00
 0.038189 1  18F129F3x       Rx   d 8 00 00 00 00 00 00 00 00
 0.039083 1  18F12AF3x       Rx   d 8 00 00 00 00 00 00 00 00
 0.039964 1  18F12BF3x       Rx   d 8 00 00 00 00 00 00 00 00
 0.040878 1  18F12CF3x       Rx   d 8 00 00 00 00 00 00 00 00
 0.041797 1  18F12DF3x       Rx   d 8 00 00 00 00 00 00 00 00
 0.042654 1  18F12EF3x       Rx   d 8 00 00 00 00 00 00 00 00
 0.043572 1  18F12FF3x       Rx   d 8 00 00 00 00 00 00 00 00
 0.044123 1  CFF21CAx        Rx   d 8 03 00 80 0C 44 3E 00 24
 0.044722 1  18F130F3x       Rx   d 8 00 00 00 00 00 00 00 00
 0.045637 1  18F131F3x       Rx   d 8 00 00 00 00 00 00 00 00
 0.046567 1  18F132F3x       Rx   d 8 00 00 00 00 00 00 00 00
 0.047501 1  18F133F3x       Rx   d 8 00 00 00 00 00 00 00 00
 0.048433 1  18F134F3x       Rx   d 8 00 00 00 00 00 00 00 00
 0.049353 1  18F135F3x       Rx   d 8 00 00 00 00 00 00 00 00
 0.050213 1  18F136F3x       Rx   d 8 00 00 00 00 00 00 00 00
 0.051136 1  18F137F3x       Rx   d 8 00 00 00 00 00 00 00 00
 0.051981 1  18F138F3x       Rx   d 8 00 00 00 00 00 00 00 00
 0.052515 1  18F100D0x       Rx   d 8 0C FF FF FF FF FF FF FF
 0.053133 1  18F139F3x       Rx   d 8 00 00 00 00 00 00 00 00
 0.053914 1  18F13AF3x       Rx   d 8 00 00 00 00 00 00 00 00
 0.054806 1  18F13BF3x       Rx   d 8 00 00 00 00 00 00 00 00
 0.055628 1  18F13CF3x       Rx   d 8 00 00 00 00 00 00 00 00
 0.056216 1  CFF21CAx        Rx   d 8 02 00 80 0C 44 3E 00 24
 0.056810 1  18F155F3x       Rx   d 8 3C 3C 3C 3C 3C 3D 3D 00
 0.057373 1  18FF2112x       Rx   d 8 01 00 00 00 00 00 00 00
 0.057969 1  18F156F3x       Rx   d 8 00 00 00 00 00 00 00 00
 0.058833 1  18F157F3x       Rx   d 8 00 00 00 00 00 00 00 00
 0.059773 1  18F158F3x       Rx   d 8 00 00 00 00 00 00 00 00
 0.060587 1  18F159F3x       Rx   d 8 00 00 00 00 00 00 00 00
 0.061798 1  18F15AF3x       Rx   d 8 00 00 00 00 00 00 00 00
 0.062540 1  18F15BF3x       Rx   d 7 00 00 00 00 00 00 00
 0.063450 1  18F15CF3x       Rx   d 8 00 00 00 00 00 00 00 00
 0.064420 1  18F15DF3x       Rx   d 8 00 00 00 00 00 00 00 00
 0.065296 1  18F15EF3x       Rx   d 8 00 00 00 00 00 00 00 00
 0.068610 1  CFF21CAx        Rx   d 8 02 00 80 0C 44 3E 00 24
 0.072182 1  18F100D0x       Rx   d 8 0C FF FF FF FF FF FF FF
 0.080155 1  CFF21CAx        Rx   d 8 02 00 80 0C 44 3E 00 24
 0.092300 1  CFF21CAx        Rx   d 8 02 00 80 0C 44 3E 00 24
 0.092857 1  18F100D0x       Rx   d 8 0C FF FF FF FF FF FF FF
 0.104319 1  CFF21CAx        Rx   d 8 02 00 80 0C 44 3E 00 24
 0.109669 1  18F100F3x       Rx   d 8 03 42 7D 10 FA FA 14 00
 0.110553 1  18F102F3x       Rx   d 8 10 4C 10 46 10 05 00 06
 0.112113 1  18F106F3x       Rx   d 8 45 E0 FC FF FF FF FF FF
 0.113446 1  18F107F3x       Rx   d 8 38 A4 27 10 01 77 00 00
 0.115193 1  18F108F3x       Rx   d 8 10 00 04 00 00 00 00 01
 0.116121 1  18F155F3x       Rx   d 8 3C 3C 3C 3C 3C 3D 3D 00
 0.116864 1  CFF21CAx        Rx   d 8 02 00 80 0C 44 3E 00 24
 0.117390 1  18F156F3x       Rx   d 8 00 00 00 00 00 00 00 00
 0.118346 1  18F157F3x       Rx   d 8 00 00 00 00 00 00 00 00
 0.119184 1  18F158F3x       Rx   d 8 00 00 00 00 00 00 00 00
 0.120093 1  18F159F3x       Rx   d 8 00 00 00 00 00 00 00 00
 0.120639 1  18F100D0x       Rx   d 8 0C FF FF FF FF FF FF FF
 0.121218 1  18F15AF3x       Rx   d 8 00 00 00 00 00 00 00 00
 0.122052 1  18F15BF3x       Rx   d 7 00 00 00 00 00 00 00
 0.122939 1  18F15CF3x       Rx   d 8 00 00 00 00 00 00 00 00
 0.123783 1  18F15DF3x       Rx   d 8 00 00 00 00 00 00 00 00
 0.124624 1  18F15EF3x       Rx   d 8 00 00 00 00 00 00 00 00
 0.128417 1  CFF21CAx        Rx   d 8 02 00 80 0C 44 3E 00 24
 0.140680 1  CFF21CAx        Rx   d 8 02 00 80 0C 44 3E 00 24
 0.152519 1  CFF21CAx        Rx   d 8 03 00 80 0C 44 3E 00 24
 0.153065 1  18F100D0x       Rx   d 8 0C FF FF FF FF FF FF FF
 0.153632 1  18FF2112x       Rx   d 8 01 00 00 00 00 00 00 00
 0.165058 1  CFF21CAx        Rx   d 8 03 00 80 0C 44 3E 00 24
 0.176659 1  CFF21CAx        Rx   d 8 03 00 80 0C 44 3E 00 24
 0.180724 1  18F100D0x       Rx   d 8 0C FF FF FF FF FF FF FF
 0.189194 1  CFF21CAx        Rx   d 8 03 00 80 0C 44 3E 00 24
 0.200760 1  CFF21CAx        Rx   d 8 03 00 80 0C 44 3E 00 24
 0.201286 1  18F100D0x       Rx   d 8 0C FF FF FF FF FF FF FF
 0.219968 1  18F100F3x       Rx   d 8 03 42 7D 10 FA FA 14 00
 0.220107 1  18F102F3x       Rx   d 8 10 4C 10 46 10 05 00 06
 0.220224 1  18F106F3x       Rx   d 8 45 E0 FC FF FF FF FF FF
 0.220327 1  CFF21CAx        Rx   d 8 03 00 80 0C 44 3E 00 24
 0.220428 1  18F107F3x       Rx   d 8 38 A4 27 10 01 77 00 00
 0.220529 1  18F108F3x       Rx   d 8 10 00 04 00 00 00 00 01
 0.220628 1  18F155F3x       Rx   d 8 3C 3C 3C 3C 3C 3D 3D 00
 0.220730 1  18F156F3x       Rx   d 8 00 00 00 00 00 00 00 00
 0.220831 1  18F157F3x       Rx   d 8 00 00 00 00 00 00 00 00
 0.220931 1  18F158F3x       Rx   d 8 00 00 00 00 00 00 00 00
 0.221027 1  18F159F3x       Rx   d 8 00 00 00 00 00 00 00 00
 0.221127 1  18F15AF3x       Rx   d 8 00 00 00 00 00 00 00 00
 0.221848 1  18F15BF3x       Rx   d 7 00 00 00 00 00 00 00
 0.222658 1  18F15CF3x       Rx   d 8 00 00 00 00 00 00 00 00
 0.223536 1  18F15DF3x       Rx   d 8 00 00 00 00 00 00 00 00
 0.224433 1  18F15EF3x       Rx   d 8 00 00 00 00 00 00 00 00
 0.224974 1  CFF21CAx        Rx   d 8 03 00 80 0C 44 3E 00 24
 0.225589 1  18F100D0x       Rx   d 8 0C FF FF FF FF FF FF FF
 0.236906 1  CFF21CAx        Rx   d 8 03 00 80 0C 44 3E 00 24
 0.245000 1  18FECACAx       Rx   d 8 00 00 00 00 00 00 FF FF
 0.248902 1  CFF21CAx        Rx   d 8 03 00 80 0C 44 3E 00 24
 0.250719 1  18FF2112x       Rx   d 8 01 00 00 00 00 00 00 00
 0.252924 1  18F100D0x       Rx   d 8 0C FF FF FF FF FF FF FF
 0.261451 1  CFF21CAx        Rx   d 8 03 00 80 0C 44 3E 00 24
 0.273010 1  CFF21CAx        Rx   d 8 03 00 80 0C 44 3E 00 24
 0.277075 1  18F100D0x       Rx   d 8 0C FF FF FF FF FF FF FF
 0.285076 1  CFF21CAx        Rx   d 8 03 00 80 0C 44 3E 00 24
 0.297118 1  CFF21CAx        Rx   d 8 03 00 80 0C 44 3E 00 24
 0.297669 1  18F100D0x       Rx   d 8 0C FF FF FF FF FF FF FF
 0.309242 1  CFF21CAx        Rx   d 8 02 00 80 0C 44 3E 00 24
 0.309768 1  18F100F3x       Rx   d 8 03 42 7D 10 FA FA 14 00
 0.310614 1  18F102F3x       Rx   d 8 10 4C 10 46 10 05 00 06
 0.312262 1  18F106F3x       Rx   d 8 45 E0 FC FF FF FF FF FF
 0.313534 1  18F107F3x       Rx   d 8 38 A4 27 10 01 77 00 00
 0.315253 1  18F108F3x       Rx   d 8 10 00 04 00 00 00 00 01
 0.316137 1  18F155F3x       Rx   d 8 3C 3C 3C 3C 3C 3D 3D 00
 0.317016 1  18F156F3x       Rx   d 8 00 00 00 00 00 00 00 00
 0.317588 1  18F100D0x       Rx   d 8 0C FF FF FF FF FF FF FF
 0.318175 1  18F157F3x       Rx   d 8 00 00 00 00 00 00 00 00
 0.319058 1  18F158F3x       Rx   d 8 00 00 00 00 00 00 00 00
 0.319915 1  18F159F3x       Rx   d 8 00 00 00 00 00 00 00 00
 0.320844 1  18F15AF3x       Rx   d 8 00 00 00 00 00 00 00 00
 0.321350 1  CFF21CAx        Rx   d 8 02 00 80 0C 44 3E 00 24
 0.321885 1  18F15BF3x       Rx   d 7 00 00 00 00 00 00 00
 0.322764 1  18F15CF3x       Rx   d 8 00 00 00 00 00 00 00 00
 0.323648 1  18F15DF3x       Rx   d 8 00 00 00 00 00 00 00 00
 0.324494 1  18F15EF3x       Rx   d 8 00 00 00 00 00 00 00 00
 0.333260 1  CFF21CAx        Rx   d 8 02 00 80 0C 44 3E 00 24
 0.341397 1  18F100D0x       Rx   d 8 0C FF FF FF FF FF FF FF
 0.345291 1  CFF21CAx        Rx   d 8 03 00 80 0C 44 3E 00 24
 0.348082 1  18FF2112x       Rx   d 8 01 00 00 00 00 00 00 00
 0.357858 1  CFF21CAx        Rx   d 8 03 00 80 0C 44 3E 00 24
 0.369405 1  CFF21CAx        Rx   d 8 03 00 80 0C 44 3E 00 24
 0.370061 1  18F100D0x       Rx   d 8 0C FF FF FF FF FF FF FF
 0.381701 1  CFF21CAx        Rx   d 8 03 00 80 0C 44 3E 00 24
 0.393528 1  CFF21CAx        Rx   d 8 03 00 80 0C 44 3E 00 24
 0.397528 1  18F100D0x       Rx   d 8 0C FF FF FF FF FF FF FF
 0.405590 1  CFF21CAx        Rx   d 8 03 00 80 0C 44 3E 00 24
 0.409817 1  18F100F3x       Rx   d 8 03 42 7D 10 FA FA 14 00
 0.410719 1  18F102F3x       Rx   d 8 10 4C 10 46 10 05 00 06
 0.412233 1  18F106F3x       Rx   d 8 45 E0 FC FF FF FF FF FF
 0.413517 1  18F107F3x       Rx   d 8 38 A4 27 10 01 77 00 00
 0.415338 1  18F108F3x       Rx   d 8 10 00 04 00 00 00 00 01
 0.416141 1  18F155F3x       Rx   d 8 3C 3C 3C 3C 3C 3D 3D 00
 0.417043 1  18F156F3x       Rx   d 8 00 00 00 00 00 00 00 00
 0.417592 1  CFF21CAx        Rx   d 8 03 00 80 0C 44 3E 00 24
 0.418312 1  18F100D0x       Rx   d 8 0C FF FF FF FF FF FF FF
 0.418757 1  18F157F3x       Rx   d 8 00 00 00 00 00 00 00 00
 0.419596 1  18F158F3x       Rx   d 8 00 00 00 00 00 00 00 00
 0.420519 1  18F159F3x       Rx   d 8 00 00 00 00 00 00 00 00
 0.421795 1  18F15AF3x       Rx   d 8 00 00 00 00 00 00 00 00
 0.422532 1  18F15BF3x       Rx   d 7 00 00 00 00 00 00 00
 0.423593 1  18F15CF3x       Rx   d 8 00 00 00 00 00 00 00 00
 0.424362 1  18F15DF3x       Rx   d 8 00 00 00 00 00 00 00 00
 0.425208 1  18F15EF3x       Rx   d 8 00 00 00 00 00 00 00 00
 0.438674 1  CFF21CAx        Rx   d 8 03 00 80 0C 44 3E 00 24
 0.438784 1  18F100D0x       Rx   d 8 0C FF FF FF FF FF FF FF
 0.441661 1  CFF21CAx        Rx   d 8 03 00 80 0C 44 3E 00 24
 0.445306 1  18FF2112x       Rx   d 8 01 00 00 00 00 00 00 00
 0.453768 1  CFF21CAx        Rx   d 8 03 00 80 0C 44 3E 00 24
 0.461817 1  18F100D0x       Rx   d 8 0C FF FF FF FF FF FF FF
 0.465968 1  CFF21CAx        Rx   d 8 03 00 80 0C 44 3E 00 24
 0.477818 1  CFF21CAx        Rx   d 8 03 00 80 0C 44 3E 00 24
 0.481895 1  18F100D0x       Rx   d 8 0C FF FF FF FF FF FF FF
 0.489931 1  CFF21CAx        Rx   d 8 03 00 80 0C 44 3E 00 24
 0.501957 1  CFF21CAx        Rx   d 8 02 00 80 0C 44 3E 00 24
 0.502479 1  18F100D0x       Rx   d 8 0C FF FF FF FF FF FF FF
 0.509727 1  18F100F3x       Rx   d 8 03 42 7D 10 FA FA 14 00
 0.510602 1  18F102F3x       Rx   d 8 10 4C 10 46 10 05 00 06
 0.512177 1  18F106F3x       Rx   d 8 45 E0 FC FF FF FF FF FF
 0.513482 1  18F107F3x       Rx   d 8 38 A4 27 10 01 77 00 00
 0.514034 1  CFF21CAx        Rx   d 8 02 00 80 0C 44 3E 00 24
 0.515275 1  18F108F3x       Rx   d 8 10 00 04 00 00 00 00 01
 0.516141 1  18F155F3x       Rx   d 8 3C 3C 3C 3C 3C 3D 3D 00
 0.517055 1  18F156F3x       Rx   d 8 00 00 00 00 00 00 00 00
 0.517935 1  18F157F3x       Rx   d 8 00 00 00 00 00 00 00 00
 0.518783 1  18F158F3x       Rx   d 8 00 00 00 00 00 00 00 00
 0.519861 1  18F159F3x       Rx   d 8 00 00 00 00 00 00 00 00
 0.520671 1  18F15AF3x       Rx   d 8 00 00 00 00 00 00 00 00
 0.521807 1  18F15BF3x       Rx   d 7 00 00 00 00 00 00 00
 0.522459 1  18F100D0x       Rx   d 8 0C FF FF FF FF FF FF FF
 0.522990 1  18F15CF3x       Rx   d 8 00 00 00 00 00 00 00 00
 0.523847 1  18F15DF3x       Rx   d 8 00 00 00 00 00 00 00 00
 0.524611 1  18F15EF3x       Rx   d 8 00 00 00 00 00 00 00 00
 0.525959 1  CFF21CAx        Rx   d 8 02 00 80 0C 44 3E 00 24
 0.538102 1  CFF21CAx        Rx   d 8 02 00 80 0C 44 3E 00 24
 0.542557 1  18FF2112x       Rx   d 8 01 00 00 00 00 00 00 00
 0.550091 1  CFF21CAx        Rx   d 8 02 00 80 0C 44 3E 00 24
 0.554148 1  18F100D0x       Rx   d 8 0C FF FF FF FF FF FF FF
 0.562148 1  CFF21CAx        Rx   d 8 02 00 80 0C 44 3E 00 24
 0.574402 1  CFF21CAx        Rx   d 8 03 00 80 0C 44 3E 00 24
 0.583904 1  18F100D0x       Rx   d 8 0C FF FF FF FF FF FF FF
 0.586235 1  CFF21CAx        Rx   d 8 03 00 80 0C 44 3E 00 24
 0.598676 1  CFF21CAx        Rx   d 8 03 00 80 0C 44 3E 00 24
 0.602321 1  18F100D0x       Rx   d 8 0C FF FF FF FF FF FF FF
 0.609720 1  18F100F3x       Rx   d 8 03 42 7D 10 FA FA 14 00
 0.610903 1  CFF21CAx        Rx   d 8 03 00 80 0C 44 3E 00 24
 0.611032 1  18F102F3x       Rx   d 8 10 4C 10 46 10 05 00 06
 0.612170 1  18F106F3x       Rx   d 8 45 E0 FC FF FF FF FF FF
 0.613632 1  18F107F3x       Rx   d 8 38 A4 27 10 01 77 00 00
 0.615510 1  18F108F3x       Rx   d 8 10 00 04 00 00 00 00 01
 0.616218 1  18F155F3x       Rx   d 8 3C 3C 3C 3C 3C 3D 3D 00
 0.617031 1  18F156F3x       Rx   d 8 00 00 00 00 00 00 00 00
 0.617934 1  18F157F3x       Rx   d 8 00 00 00 00 00 00 00 00
 0.618821 1  18F158F3x       Rx   d 8 00 00 00 00 00 00 00 00
 0.619800 1  18F159F3x       Rx   d 8 00 00 00 00 00 00 00 00
 0.620633 1  18F15AF3x       Rx   d 8 00 00 00 00 00 00 00 00
 0.621701 1  18F15BF3x       Rx   d 7 00 00 00 00 00 00 00
 0.622481 1  CFF21CAx        Rx   d 8 03 00 80 0C 44 3E 00 24
 0.622910 1  18F15CF3x       Rx   d 8 00 00 00 00 00 00 00 00
 0.624000 1  18F15DF3x       Rx   d 8 00 00 00 00 00 00 00 00
 0.624792 1  18F15EF3x       Rx   d 8 00 00 00 00 00 00 00 00
 0.634487 1  CFF21CAx        Rx   d 8 03 00 80 0C 44 3E 00 24
 0.635004 1  18F100D0x       Rx   d 8 0C FF FF FF FF FF FF FF
 0.640047 1  18FF2112x       Rx   d 8 01 00 00 00 00 00 00 00
 0.657916 1  CFF21CAx        Rx   d 8 03 00 80 0C 44 3E 00 24
 0.658031 1  18F100D0x       Rx   d 8 0C FF FF FF FF FF FF FF
 0.658530 1  CFF21CAx        Rx   d 8 03 00 80 0C 44 3E 00 24
 0.670601 1  CFF21CAx        Rx   d 8 03 00 80 0C 44 3E 00 24
 0.674623 1  18F100D0x       Rx   d 8 0C FF FF FF FF FF FF FF
 0.682692 1  CFF21CAx        Rx   d 8 03 00 80 0C 44 3E 00 24
 0.694747 1  CFF21CAx        Rx   d 8 03 00 80 0C 44 3E 00 24
 0.695283 1  18F100D0x       Rx   d 8 0C FF FF FF FF FF FF FF
 0.706820 1  CFF21CAx        Rx   d 8 03 00 80 0C 44 3E 00 24
 0.709742 1  18F100F3x       Rx   d 8 03 42 7D 10 FA FA 14 00
 0.710635 1  18F102F3x       Rx   d 8 10 4C 10 46 10 05 00 06
 0.712171 1  18F106F3x       Rx   d 8 45 E0 FC FF FF FF FF FF
 0.713510 1  18F107F3x       Rx   d 8 38 A4 27 10 01 77 00 00
 0.715266 1  18F108F3x       Rx   d 8 10 00 04 00 00 00 00 01
 0.716143 1  18F155F3x       Rx   d 8 3C 3C 3C 3C 3C 3D 3D 00
 0.717025 1  18F156F3x       Rx   d 8 00 00 00 00 00 00 00 00
 0.717911 1  18F157F3x       Rx   d 8 00 00 00 00 00 00 00 00
 0.718765 1  CFF21CAx        Rx   d 8 03 00 80 0C 44 3E 00 24
 0.719326 1  18F100D0x       Rx   d 8 0C FF FF FF FF FF FF FF
 0.719930 1  18F158F3x       Rx   d 8 00 00 00 00 00 00 00 00
 0.720876 1  18F159F3x       Rx   d 8 00 00 00 00 00 00 00 00
 0.721854 1  18F15AF3x       Rx   d 8 00 00 00 00 00 00 00 00
 0.722635 1  18F15BF3x       Rx   d 7 00 00 00 00 00 00 00
 0.723568 1  18F15CF3x       Rx   d 8 00 00 00 00 00 00 00 00
 0.724460 1  18F15DF3x       Rx   d 8 00 00 00 00 00 00 00 00
 0.725334 1  18F15EF3x       Rx   d 8 00 00 00 00 00 00 00 00
 0.730892 1  CFF21CAx        Rx   d 8 03 00 80 0C 44 3E 00 24
 0.737177 1  18FF2112x       Rx   d 8 01 00 00 00 00 00 00 00
 0.738883 1  18F100D0x       Rx   d 8 0C FF FF FF FF FF FF FF
 0.742943 1  CFF21CAx        Rx   d 8 03 00 80 0C 44 3E 00 24
 0.755020 1  CFF21CAx        Rx   d 8 03 00 80 0C 44 3E 00 24
 0.759091 1  18F100D0x       Rx   d 8 0C FF FF FF FF FF FF FF
 0.766956 1  CFF21CAx        Rx   d 8 03 00 80 0C 44 3E 00 24
 0.779152 1  CFF21CAx        Rx   d 8 03 00 80 0C 44 3E 00 24
 0.783085 1  18F100D0x       Rx   d 8 0C FF FF FF FF FF FF FF
 0.791189 1  CFF21CAx        Rx   d 8 03 00 80 0C 44 3E 00 24
 0.803287 1  CFF21CAx        Rx   d 8 03 00 80 0C 44 3E 00 24
 0.803711 1  18F100D0x       Rx   d 8 0C FF FF FF FF FF FF FF
 0.809857 1  18F100F3x       Rx   d 8 03 42 7D 10 FA FA 14 00
 0.810742 1  18F102F3x       Rx   d 8 10 4C 10 46 10 05 00 06
 0.812452 1  18F106F3x       Rx   d 8 45 E0 FC FF FF FF FF FF
 0.813611 1  18F107F3x       Rx   d 8 38 A4 27 10 01 77 00 00
 0.815296 1  CFF21CAx        Rx   d 8 03 00 80 0C 44 3E 00 24
 0.815864 1  18F108F3x       Rx   d 8 10 00 04 00 00 00 00 01
 0.816806 1  18F155F3x       Rx   d 8 3C 3C 3C 3C 3C 3D 3D 00
 0.817716 1  18F156F3x       Rx   d 8 00 00 00 00 00 00 00 00
 0.818638 1  18F157F3x       Rx   d 8 00 00 00 00 00 00 00 00
 0.819556 1  18F158F3x       Rx   d 8 00 00 00 00 00 00 00 00
 0.820363 1  18F159F3x       Rx   d 8 00 00 00 00 00 00 00 00
 0.821569 1  18F15AF3x       Rx   d 8 00 00 00 00 00 00 00 00
 0.822463 1  18F15BF3x       Rx   d 7 00 00 00 00 00 00 00
 0.823197 1  18F100D0x       Rx   d 8 0C FF FF FF FF FF FF FF
 0.823892 1  18F15CF3x       Rx   d 8 00 00 00 00 00 00 00 00
 0.824647 1  18F15DF3x       Rx   d 8 00 00 00 00 00 00 00 00
 0.825556 1  18F15EF3x       Rx   d 8 00 00 00 00 00 00 00 00
 0.827834 1  CFF21CAx        Rx   d 8 04 00 80 0C 44 3E 00 24
 0.834487 1  18FF2112x       Rx   d 8 01 00 00 00 00 00 00 00
 0.839416 1  CFF21CAx        Rx   d 8 04 00 80 0C 44 3E 00 24
 0.843433 1  18F100D0x       Rx   d 8 0C FF FF FF FF FF FF FF
 0.851461 1  CFF21CAx        Rx   d 8 04 00 80 0C 44 3E 00 24
 0.875170 1  CFF21CAx        Rx   d 8 04 00 80 0C 44 3E 00 24
 0.875355 1  18F100D0x       Rx   d 8 0C FF FF FF FF FF FF FF
 0.875468 1  CFF21CAx        Rx   d 8 04 00 80 0C 44 3E 00 24
 0.883544 1  18F100D0x       Rx   d 8 0C FF FF FF FF FF FF FF
 0.887419 1  CFF21CAx        Rx   d 8 04 00 80 0C 44 3E 00 24
 0.900033 1  CFF21CAx        Rx   d 8 04 00 80 0C 44 3E 00 24
 0.909806 1  18F100F3x       Rx   d 8 03 42 7D 10 FA FA 14 00
 0.910620 1  18F102F3x       Rx   d 8 10 4C 10 46 10 05 00 06
 0.911590 1  CFF21CAx        Rx   d 8 04 00 80 0C 44 3E 00 24
 0.912169 1  18F100D0x       Rx   d 8 0C FF FF FF FF FF FF FF
 0.912726 1  18F106F3x       Rx   d 8 45 E0 FC FF FF FF FF FF
 0.914033 1  18F107F3x       Rx   d 8 38 A4 27 10 01 77 00 00
 0.915869 1  18F108F3x       Rx   d 8 10 00 04 00 00 00 00 01
 0.916647 1  18F155F3x       Rx   d 8 3C 3C 3C 3C 3C 3D 3D 00
 0.917614 1  18F156F3x       Rx   d 8 00 00 00 00 00 00 00 00
 0.918531 1  18F157F3x       Rx   d 8 00 00 00 00 00 00 00 00
 0.919459 1  18F158F3x       Rx   d 8 00 00 00 00 00 00 00 00
 0.920377 1  18F159F3x       Rx   d 8 00 00 00 00 00 00 00 00
 0.921561 1  18F15AF3x       Rx   d 8 00 00 00 00 00 00 00 00
 0.922414 1  18F15BF3x       Rx   d 7 00 00 00 00 00 00 00
 0.923324 1  18F15CF3x       Rx   d 8 00 00 00 00 00 00 00 00
 0.923882 1  CFF21CAx        Rx   d 8 04 00 80 0C 44 3E 00 24
 0.924464 1  18F15DF3x       Rx   d 8 00 00 00 00 00 00 00 00
 0.925367 1  18F15EF3x       Rx   d 8 00 00 00 00 00 00 00 00
 0.931657 1  18FF2112x       Rx   d 8 01 00 00 00 00 00 00 00
 0.932221 1  18F100D0x       Rx   d 8 0C FF FF FF FF FF FF FF
 0.935691 1  CFF21CAx        Rx   d 8 04 00 80 0C 44 3E 00 24
 0.947807 1  CFF21CAx        Rx   d 8 04 00 80 0C 44 3E 00 24
 0.951795 1  18F100D0x       Rx   d 8 0C FF FF FF FF FF FF FF
 0.959770 1  CFF21CAx        Rx   d 8 04 00 80 0C 44 3E 00 24
 0.971893 1  CFF21CAx        Rx   d 8 04 00 80 0C 44 3E 00 24
 0.976014 1  18F100D0x       Rx   d 8 0C FF FF FF FF FF FF FF
 0.984012 1  CFF21CAx        Rx   d 8 04 00 80 0C 44 3E 00 24
 0.996493 1  CFF21CAx        Rx   d 8 04 00 80 0C 44 3E 00 24
 0.997046 1  18F100D0x       Rx   d 8 0C FF FF FF FF FF FF FF
 1.007221 1  18F104F3x       Rx   d 8 3D 3C 06 01 01 FF FF FF
 1.007928 1  CFF21CAx        Rx   d 8 04 00 80 0C 44 3E 00 24
 1.008476 1  18F113F3x       Rx   d 8 10 47 10 48 10 49 10 48
 1.009449 1  18F114F3x       Rx   d 8 10 46 10 46 10 49 10 49
 1.010406 1  18F100F3x       Rx   d 8 03 42 7D 10 FA FA 14 00
 1.011750 1  18F102F3x       Rx   d 8 10 4C 10 46 10 05 00 06
 1.013017 1  18F106F3x       Rx   d 8 45 E0 FC FF FF FF FF FF
 1.014398 1  18F107F3x       Rx   d 8 38 A4 27 10 01 77 00 00
 1.016361 1  18F108F3x       Rx   d 8 10 00 04 00 00 00 00 01
 1.017625 1  18F115F3x       Rx   d 8 10 46 10 46 10 46 10 46
 1.018243 1  18F116F3x       Rx   d 8 10 4A 10 47 10 4A 10 4C
 1.019141 1  18F117F3x       Rx   d 8 10 46 10 47 10 4B 10 4B
 1.020074 1  18F118F3x       Rx   d 8 00 00 00 00 00 00 00 00
 1.020641 1  CFF21CAx        Rx   d 8 04 00 80 0C 44 3E 00 24
 1.021207 1  18F119F3x       Rx   d 8 00 00 00 00 00 00 00 00
 1.022139 1  18F11AF3x       Rx   d 8 00 00 00 00 00 00 00 00
 1.023079 1  18F11BF3x       Rx   d 8 00 00 00 00 00 00 00 00
 1.023984 1  18F100D0x       Rx   d 8 0C FF FF FF FF FF FF FF
 1.024584 1  18F11CF3x       Rx   d 8 00 00 00 00 00 00 00 00
 1.025537 1  18F11DF3x       Rx   d 8 00 00 00 00 00 00 00 00
 1.026525 1  18F11EF3x       Rx   d 8 00 00 00 00 00 00 00 00
 1.027456 1  18F11FF3x       Rx   d 8 00 00 00 00 00 00 00 00
 1.028471 1  18F120F3x       Rx   d 8 00 00 00 00 00 00 00 00
 1.029152 1  18FF2112x       Rx   d 8 01 00 00 00 00 00 00 00
 1.029706 1  18F121F3x       Rx   d 8 00 00 00 00 00 00 00 00
 1.030681 1  18F122F3x       Rx   d 8 00 00 00 00 00 00 00 00
 1.031864 1  18F123F3x       Rx   d 8 00 00 00 00 00 00 00 00
 1.032529 1  CFF21CAx        Rx   d 8 04 00 80 0C 44 3E 00 24
 1.033013 1  18F124F3x       Rx   d 8 00 00 00 00 00 00 00 00
 1.033913 1  18F125F3x       Rx   d 8 00 00 00 00 00 00 00 00
 1.034841 1  18F126F3x       Rx   d 8 00 00 00 00 00 00 00 00
 1.035725 1  18F127F3x       Rx   d 8 00 00 00 00 00 00 00 00
 1.036780 1  18F128F3x       Rx   d 8 00 00 00 00 00 00 00 00
 1.037748 1  18F129F3x       Rx   d 8 00 00 00 00 00 00 00 00
 1.038682 1  18F12AF3x       Rx   d 8 00 00 00 00 00 00 00 00
 1.039637 1  18F12BF3x       Rx   d 8 00 00 00 00 00 00 00 00
 1.040688 1  18F12CF3x       Rx   d 8 00 00 00 00 00 00 00 00
 1.041774 1  18F12DF3x       Rx   d 8 00 00 00 00 00 00 00 00
 1.042664 1  18F12EF3x       Rx   d 8 00 00 00 00 00 00 00 00
 1.043597 1  18F12FF3x       Rx   d 8 00 00 00 00 00 00 00 00
 1.044155 1  CFF21CAx        Rx   d 8 03 00 80 0C 44 3E 00 24
 1.044847 1  18F130F3x       Rx   d 8 00 00 00 00 00 00 00 00
 1.045802 1  18F131F3x       Rx   d 8 00 00 00 00 00 00 00 00
 1.046638 1  18F132F3x       Rx   d 8 00 00 00 00 00 00 00 00
 1.047526 1  18F133F3x       Rx   d 8 00 00 00 00 00 00 00 00
 1.048126 1  18F100D0x       Rx   d 8 0C FF FF FF FF FF FF FF
 1.048821 1  18F134F3x       Rx   d 8 00 00 00 00 00 00 00 00
 1.049683 1  18F135F3x       Rx   d 8 00 00 00 00 00 00 00 00
 1.050599 1  18F136F3x       Rx   d 8 00 00 00 00 00 00 00 00
 1.051790 1  18F137F3x       Rx   d 8 00 00 00 00 00 00 00 00
 1.052640 1  18F138F3x       Rx   d 8 00 00 00 00 00 00 00 00
 1.053591 1  18F139F3x       Rx   d 8 00 00 00 00 00 00 00 00
 1.054618 1  18F13AF3x       Rx   d 8 00 00 00 00 00 00 00 00
 1.055509 1  18F13BF3x       Rx   d 8 00 00 00 00 00 00 00 00
 1.056239 1  CFF21CAx        Rx   d 8 03 00 80 0C 44 3E 00 24
 1.056820 1  18F13CF3x       Rx   d 8 00 00 00 00 00 00 00 00
 1.057929 1  18F155F3x       Rx   d 8 3C 3C 3C 3C 3C 3D 3D 00
 1.058610 1  18F156F3x       Rx   d 8 00 00 00 00 00 00 00 00
 1.059518 1  18F157F3x       Rx   d 8 00 00 00 00 00 00 00 00
 1.060455 1  18F158F3x       Rx   d 8 00 00 00 00 00 00 00 00
 1.061598 1  18F159F3x       Rx   d 8 00 00 00 00 00 00 00 00
 1.062630 1  18F15AF3x       Rx   d 8 00 00 00 00 00 00 00 00
 1.063353 1  18F15BF3x       Rx   d 7 00 00 00 00 00 00 00
 1.064218 1  18F15CF3x       Rx   d 8 00 00 00 00 00 00 00 00
 1.065352 1  18F15DF3x       Rx   d 8 00 00 00 00 00 00 00 00
 1.066001 1  18F15EF3x       Rx   d 8 00 00 00 00 00 00 00 00
 1.068249 1  CFF21CAx        Rx   d 8 03 00 80 0C 44 3E 00 24
