date Sat May 09 16:08:53.626 2026
base hex  timestamps absolute
internal events logged
Begin Triggerblock Sat May 09 16:08:53.631 2026
 0.000000 Start of measurement
 0.000000 1  18F100D0x       Rx   d 8 0C FF FF FF FF FF FF FF
 0.000172 1  CFF21CAx        Rx   d 8 04 00 80 0C 47 3F 00 24
 0.000274 1  CFF21CAx        Rx   d 8 04 00 80 0C 47 3F 00 24
 0.000367 1  18F100D0x       Rx   d 8 0C FF FF FF FF FF FF FF
 0.004279 1  CFF21CAx        Rx   d 8 04 00 80 0C 47 3F 00 24
 0.012279 1  18F100D0x       Rx   d 8 0C FF FF FF FF FF FF FF
 0.016332 1  CFF21CAx        Rx   d 8 04 00 80 0C 47 3F 00 24
 0.027394 1  18F100F3x       Rx   d 8 03 27 7D 10 E0 FA 14 00
 0.028276 1  18F102F3x       Rx   d 8 0F C9 0F C2 10 06 00 07
 0.028783 1  CFF21CAx        Rx   d 8 04 00 80 0C 47 3F 00 24
 0.029375 1  18FF2112x       Rx   d 8 01 00 00 00 00 00 00 00
 0.029972 1  18F106F3x       Rx   d 8 45 E0 FC FF FF FF FF FF
 0.031263 1  18F107F3x       Rx   d 8 38 A4 30 70 01 6B 00 C2
 0.033073 1  18F108F3x       Rx   d 8 00 00 00 00 00 00 00 00
 0.033938 1  18F155F3x       Rx   d 8 3B 3B 3C 3C 3B 3D 3D 00
 0.034835 1  18F156F3x       Rx   d 8 00 00 00 00 00 00 00 00
 0.035715 1  18F157F3x       Rx   d 8 00 00 00 00 00 00 00 00
 0.036589 1  18F158F3x       Rx   d 8 00 00 00 00 00 00 00 00
 0.037463 1  18F159F3x       Rx   d 8 00 00 00 00 00 00 00 00
 0.038339 1  18F15AF3x       Rx   d 8 00 00 00 00 00 00 00 00
 0.039215 1  18F15BF3x       Rx   d 7 00 00 00 00 00 00 00
 0.040073 1  18F15CF3x       Rx   d 8 00 00 00 00 00 00 00 00
 0.040630 1  CFF21CAx        Rx   d 8 04 00 80 0C 47 3F 00 24
 0.041335 1  18F15DF3x       Rx   d 8 00 00 00 00 00 00 00 00
 0.042159 1  18F15EF3x       Rx   d 8 00 00 00 00 00 00 00 00
 0.044430 1  18F100D0x       Rx   d 8 0C FF FF FF FF FF FF FF
 0.052436 1  CFF21CAx        Rx   d 8 04 00 80 0C 47 3F 00 24
 0.064540 1  CFF21CAx        Rx   d 8 04 00 80 0C 47 3F 00 24
 0.065030 1  18F100D0x       Rx   d 8 0C FF FF FF FF FF FF FF
 0.076568 1  CFF21CAx        Rx   d 8 04 00 80 0C 47 3F 00 24
 0.088619 1  CFF21CAx        Rx   d 8 04 00 80 0C 47 3F 00 24
 0.089147 1  18F100D0x       Rx   d 8 0C FF FF FF FF FF FF FF
 0.100697 1  CFF21CAx        Rx   d 8 03 00 80 0C 47 3F 00 24
 0.108687 1  18F100D0x       Rx   d 8 0C FF FF FF FF FF FF FF
 0.112701 1  CFF21CAx        Rx   d 8 03 00 80 0C 47 3F 00 24
 0.124796 1  CFF21CAx        Rx   d 8 03 00 80 0C 47 3F 00 24
 0.126016 1  18FF2112x       Rx   d 8 01 00 00 00 00 00 00 00
 0.127398 1  18F100F3x       Rx   d 8 03 27 7D 10 E0 FA 14 00
 0.128293 1  18F102F3x       Rx   d 8 0F C9 0F C2 10 06 00 07
 0.129580 1  18F106F3x       Rx   d 8 45 E0 FC FF FF FF FF FF
 0.130811 1  18F107F3x       Rx   d 8 38 A4 30 70 01 6B 00 C2
 0.132634 1  18F108F3x       Rx   d 8 00 00 00 00 00 00 00 00
 0.133445 1  18F155F3x       Rx   d 8 3B 3B 3C 3C 3B 3D 3D 00
 0.134348 1  18F156F3x       Rx   d 8 00 00 00 00 00 00 00 00
 0.135300 1  18F157F3x       Rx   d 8 00 00 00 00 00 00 00 00
 0.136468 1  18F158F3x       Rx   d 8 00 00 00 00 00 00 00 00
 0.137028 1  CFF21CAx        Rx   d 8 03 00 80 0C 47 3F 00 24
 0.137628 1  18F100D0x       Rx   d 8 0C FF FF FF FF FF FF FF
 0.138203 1  18F159F3x       Rx   d 8 00 00 00 00 00 00 00 00
 0.139115 1  18F15AF3x       Rx   d 8 00 00 00 00 00 00 00 00
 0.140152 1  18F15BF3x       Rx   d 7 00 00 00 00 00 00 00
 0.140886 1  18F15CF3x       Rx   d 8 00 00 00 00 00 00 00 00
 0.141693 1  18F15DF3x       Rx   d 8 00 00 00 00 00 00 00 00
 0.142675 1  18F15EF3x       Rx   d 8 00 00 00 00 00 00 00 00
 0.148902 1  CFF21CAx        Rx   d 8 03 00 80 0C 47 3F 00 24
 0.156935 1  18F100D0x       Rx   d 8 0C FF FF FF FF FF FF FF
 0.160977 1  CFF21CAx        Rx   d 8 03 00 80 0C 47 3F 00 24
 0.173035 1  CFF21CAx        Rx   d 8 03 00 80 0C 47 3F 00 24
 0.185094 1  CFF21CAx        Rx   d 8 03 00 80 0C 47 3F 00 24
 0.185597 1  18F100D0x       Rx   d 8 0C FF FF FF FF FF FF FF
 0.197081 1  CFF21CAx        Rx   d 8 03 00 80 0C 47 3F 00 24
 0.215333 1  CFF21CAx        Rx   d 8 03 00 80 0C 47 3F 00 24
 0.215492 1  18F100D0x       Rx   d 8 0C FF FF FF FF FF FF FF
 0.220913 1  18F104F3x       Rx   d 8 3D 3B 06 01 02 FF FF FF
 0.221454 1  CFF21CAx        Rx   d 8 03 00 80 0C 47 3F 00 24
 0.221999 1  18F113F3x       Rx   d 8 0F C4 0F C4 0F C5 0F C5
 0.222907 1  18F114F3x       Rx   d 8 0F C3 0F C2 0F C6 0F C5
 0.223481 1  18FF2112x       Rx   d 8 01 00 00 00 00 00 00 00
 0.224024 1  18F115F3x       Rx   d 8 0F C3 0F C3 0F C3 0F C2
 0.224927 1  18F116F3x       Rx   d 8 0F C6 0F C4 0F C7 0F C9
 0.225825 1  18F117F3x       Rx   d 8 0F C4 0F C5 0F C8 0F C8
 0.226810 1  18F118F3x       Rx   d 8 00 00 00 00 00 00 00 00
 0.227728 1  18F100F3x       Rx   d 8 03 27 7D 10 E0 FA 14 00
 0.228645 1  18F102F3x       Rx   d 8 0F C9 0F C2 10 06 00 07
 0.229978 1  18F106F3x       Rx   d 8 45 E0 FC FF FF FF FF FF
 0.231326 1  18F107F3x       Rx   d 8 38 A4 30 70 01 6B 00 C2
 0.233317 1  18F108F3x       Rx   d 8 00 00 00 00 00 00 00 00
 0.233772 1  CFF21CAx        Rx   d 8 02 00 80 0C 47 3F 00 24
 0.234347 1  18F119F3x       Rx   d 8 00 00 00 00 00 00 00 00
 0.235337 1  18F11AF3x       Rx   d 8 00 00 00 00 00 00 00 00
 0.236672 1  18F11BF3x       Rx   d 8 00 00 00 00 00 00 00 00
 0.237292 1  18F100D0x       Rx   d 8 0C FF FF FF FF FF FF FF
 0.237810 1  18F11CF3x       Rx   d 8 00 00 00 00 00 00 00 00
 0.238726 1  18F11DF3x       Rx   d 8 00 00 00 00 00 00 00 00
 0.239652 1  18F11EF3x       Rx   d 8 00 00 00 00 00 00 00 00
 0.240579 1  18F11FF3x       Rx   d 8 00 00 00 00 00 00 00 00
 0.241510 1  18F120F3x       Rx   d 8 00 00 00 00 00 00 00 00
 0.242521 1  18F121F3x       Rx   d 8 00 00 00 00 00 00 00 00
 0.243405 1  18F122F3x       Rx   d 8 00 00 00 00 00 00 00 00
 0.244350 1  18F123F3x       Rx   d 8 00 00 00 00 00 00 00 00
 0.245456 1  CFF21CAx        Rx   d 8 02 00 80 0C 47 3F 00 24
 0.246054 1  18F124F3x       Rx   d 8 00 00 00 00 00 00 00 00
 0.246736 1  18F125F3x       Rx   d 8 00 00 00 00 00 00 00 00
 0.247635 1  18F126F3x       Rx   d 8 00 00 00 00 00 00 00 00
 0.248518 1  18F127F3x       Rx   d 8 00 00 00 00 00 00 00 00
 0.249455 1  18F128F3x       Rx   d 8 00 00 00 00 00 00 00 00
 0.250457 1  18F129F3x       Rx   d 8 00 00 00 00 00 00 00 00
 0.251299 1  18F12AF3x       Rx   d 8 00 00 00 00 00 00 00 00
 0.252309 1  18F12BF3x       Rx   d 8 00 00 00 00 00 00 00 00
 0.253182 1  18F12CF3x       Rx   d 8 00 00 00 00 00 00 00 00
 0.254132 1  18F12DF3x       Rx   d 8 00 00 00 00 00 00 00 00
 0.255087 1  18F12EF3x       Rx   d 8 00 00 00 00 00 00 00 00
 0.256283 1  18F12FF3x       Rx   d 8 00 00 00 00 00 00 00 00
 0.257271 1  18F130F3x       Rx   d 8 00 00 00 00 00 00 00 00
 0.257773 1  CFF21CAx        Rx   d 8 03 00 80 0C 47 3F 00 24
 0.258386 1  18F100D0x       Rx   d 8 0C FF FF FF FF FF FF FF
 0.258951 1  18F131F3x       Rx   d 8 00 00 00 00 00 00 00 00
 0.259822 1  18F132F3x       Rx   d 8 00 00 00 00 00 00 00 00
 0.260704 1  18F133F3x       Rx   d 8 00 00 00 00 00 00 00 00
 0.261592 1  18F134F3x       Rx   d 8 00 00 00 00 00 00 00 00
 0.262466 1  18F135F3x       Rx   d 8 00 00 00 00 00 00 00 00
 0.263329 1  18F136F3x       Rx   d 8 00 00 00 00 00 00 00 00
 0.264276 1  18F137F3x       Rx   d 8 00 00 00 00 00 00 00 00
 0.265280 1  18F138F3x       Rx   d 8 00 00 00 00 00 00 00 00
 0.266395 1  18F139F3x       Rx   d 8 00 00 00 00 00 00 00 00
 0.267301 1  18F13AF3x       Rx   d 8 00 00 00 00 00 00 00 00
 0.268187 1  18F13BF3x       Rx   d 8 00 00 00 00 00 00 00 00
 0.269142 1  18F13CF3x       Rx   d 8 00 00 00 00 00 00 00 00
 0.269659 1  CFF21CAx        Rx   d 8 03 00 80 0C 47 3F 00 24
 0.270261 1  18F155F3x       Rx   d 8 3B 3B 3C 3C 3B 3D 3D 00
 0.271154 1  18F156F3x       Rx   d 8 00 00 00 00 00 00 00 00
 0.272103 1  18F157F3x       Rx   d 8 00 00 00 00 00 00 00 00
 0.272965 1  18F158F3x       Rx   d 8 00 00 00 00 00 00 00 00
 0.273836 1  18F159F3x       Rx   d 8 00 00 00 00 00 00 00 00
 0.274702 1  18F15AF3x       Rx   d 8 00 00 00 00 00 00 00 00
 0.275529 1  18F15BF3x       Rx   d 7 00 00 00 00 00 00 00
 0.276523 1  18F15CF3x       Rx   d 8 00 00 00 00 00 00 00 00
 0.277351 1  18F15DF3x       Rx   d 8 00 00 00 00 00 00 00 00
 0.277903 1  18F100D0x       Rx   d 8 0C FF FF FF FF FF FF FF
 0.278479 1  18F15EF3x       Rx   d 8 00 00 00 00 00 00 00 00
 0.281369 1  CFF21CAx        Rx   d 8 03 00 80 0C 47 3F 00 24
 0.293511 1  CFF21CAx        Rx   d 8 02 00 80 0C 47 3F 00 24
 0.305538 1  CFF21CAx        Rx   d 8 02 00 80 0C 47 3F 00 24
 0.306090 1  18F100D0x       Rx   d 8 0C FF FF FF FF FF FF FF
 0.317599 1  CFF21CAx        Rx   d 8 02 00 80 0C 47 3F 00 24
 0.320649 1  18FF2112x       Rx   d 8 01 00 00 00 00 00 00 00
 0.327383 1  18F100F3x       Rx   d 8 03 27 7D 10 E0 FA 14 00
 0.328246 1  18F102F3x       Rx   d 8 0F C9 0F C2 10 06 00 07
 0.329572 1  18F106F3x       Rx   d 8 45 E0 FC FF FF FF FF FF
 0.330106 1  CFF21CAx        Rx   d 8 02 00 80 0C 47 3F 00 24
 0.330747 1  18F100D0x       Rx   d 8 0C FF FF FF FF FF FF FF
 0.331286 1  18F107F3x       Rx   d 8 38 A4 30 70 01 6B 00 C2
 0.333260 1  18F108F3x       Rx   d 8 00 00 00 00 00 00 00 00
 0.334003 1  18F155F3x       Rx   d 8 3B 3B 3C 3C 3B 3D 3D 00
 0.335035 1  18F156F3x       Rx   d 8 00 00 00 00 00 00 00 00
 0.335743 1  18F157F3x       Rx   d 8 00 00 00 00 00 00 00 00
 0.336613 1  18F158F3x       Rx   d 8 00 00 00 00 00 00 00 00
 0.337482 1  18F159F3x       Rx   d 8 00 00 00 00 00 00 00 00
 0.338387 1  18F15AF3x       Rx   d 8 00 00 00 00 00 00 00 00
 0.339258 1  18F15BF3x       Rx   d 7 00 00 00 00 00 00 00
 0.340143 1  18F15CF3x       Rx   d 8 00 00 00 00 00 00 00 00
 0.341042 1  18F15DF3x       Rx   d 8 00 00 00 00 00 00 00 00
 0.341672 1  CFF21CAx        Rx   d 8 02 00 80 0C 47 3F 00 24
 0.342395 1  18F15EF3x       Rx   d 8 00 00 00 00 00 00 00 00
 0.349753 1  18F100D0x       Rx   d 8 0C FF FF FF FF FF FF FF
 0.353653 1  CFF21CAx        Rx   d 8 02 00 80 0C 47 3F 00 24
 0.365840 1  CFF21CAx        Rx   d 8 02 00 80 0C 47 3F 00 24
 0.369771 1  18F100D0x       Rx   d 8 0C FF FF FF FF FF FF FF
 0.377791 1  CFF21CAx        Rx   d 8 02 00 80 0C 47 3F 00 24
 0.390450 1  CFF21CAx        Rx   d 8 02 00 80 0C 47 3F 00 24
 0.391002 1  18F100D0x       Rx   d 8 0C FF FF FF FF FF FF FF
 0.402047 1  CFF21CAx        Rx   d 8 02 00 80 0C 47 3F 00 24
 0.414416 1  CFF21CAx        Rx   d 8 02 00 80 0C 47 3F 00 24
 0.417826 1  18FF2112x       Rx   d 8 01 00 00 00 00 00 00 00
 0.432968 1  18F100D0x       Rx   d 8 0C FF FF FF FF FF FF FF
 0.433139 1  CFF21CAx        Rx   d 8 03 00 80 0C 47 3F 00 24
 0.433266 1  18F100F3x       Rx   d 8 03 27 7D 10 E0 FA 14 00
 0.433398 1  18F102F3x       Rx   d 8 0F C9 0F C2 10 06 00 07
 0.433532 1  18F106F3x       Rx   d 8 45 E0 FC FF FF FF FF FF
 0.433648 1  18F107F3x       Rx   d 8 38 A4 30 70 01 6B 00 C2
 0.433752 1  18F108F3x       Rx   d 8 00 00 00 00 00 00 00 00
 0.433850 1  18F155F3x       Rx   d 8 3B 3B 3C 3C 3B 3D 3D 00
 0.434338 1  18F156F3x       Rx   d 8 00 00 00 00 00 00 00 00
 0.435286 1  18F157F3x       Rx   d 8 00 00 00 00 00 00 00 00
 0.436463 1  18F158F3x       Rx   d 8 00 00 00 00 00 00 00 00
 0.437361 1  18F159F3x       Rx   d 8 00 00 00 00 00 00 00 00
 0.438035 1  CFF21CAx        Rx   d 8 03 00 80 0C 47 3F 00 24
 0.438613 1  18F15AF3x       Rx   d 8 00 00 00 00 00 00 00 00
 0.439437 1  18F15BF3x       Rx   d 7 00 00 00 00 00 00 00
 0.440294 1  18F15CF3x       Rx   d 8 00 00 00 00 00 00 00 00
 0.441273 1  18F15DF3x       Rx   d 8 00 00 00 00 00 00 00 00
 0.442024 1  18F100D0x       Rx   d 8 0C FF FF FF FF FF FF FF
 0.442594 1  18F15EF3x       Rx   d 8 00 00 00 00 00 00 00 00
 0.450123 1  CFF21CAx        Rx   d 8 02 00 80 0C 47 3F 00 24
 0.462678 1  CFF21CAx        Rx   d 8 02 00 80 0C 47 3F 00 24
 0.463186 1  18F100D0x       Rx   d 8 0C FF FF FF FF FF FF FF
 0.474184 1  CFF21CAx        Rx   d 8 02 00 80 0C 47 3F 00 24
 0.482358 1  18F100D0x       Rx   d 8 0C FF FF FF FF FF FF FF
 0.486320 1  CFF21CAx        Rx   d 8 03 00 80 0C 47 3F 00 24
 0.498405 1  CFF21CAx        Rx   d 8 03 00 80 0C 47 3F 00 24
 0.502352 1  18F100D0x       Rx   d 8 0C FF FF FF FF FF FF FF
 0.510768 1  CFF21CAx        Rx   d 8 02 00 80 0C 47 3F 00 24
 0.515164 1  18FF2112x       Rx   d 8 01 00 00 00 00 00 00 00
 0.522455 1  CFF21CAx        Rx   d 8 02 00 80 0C 47 3F 00 24
 0.522969 1  18F100D0x       Rx   d 8 0C FF FF FF FF FF FF FF
 0.527586 1  18F100F3x       Rx   d 8 03 27 7D 10 E0 FA 14 00
 0.528327 1  18F102F3x       Rx   d 8 0F C9 0F C2 10 06 00 07
 0.529750 1  18F106F3x       Rx   d 8 45 E0 FC FF FF FF FF FF
 0.530925 1  18F107F3x       Rx   d 8 38 A4 30 70 01 6B 00 C2
 0.532718 1  18F108F3x       Rx   d 8 00 00 00 00 00 00 00 00
 0.533459 1  18F155F3x       Rx   d 8 3B 3B 3C 3C 3B 3D 3D 00
 0.534422 1  18F156F3x       Rx   d 8 00 00 00 00 00 00 00 00
 0.535004 1  CFF21CAx        Rx   d 8 02 00 80 0C 47 3F 00 24
 0.535463 1  18F157F3x       Rx   d 8 00 00 00 00 00 00 00 00
 0.536487 1  18F158F3x       Rx   d 8 00 00 00 00 00 00 00 00
 0.537382 1  18F159F3x       Rx   d 8 00 00 00 00 00 00 00 00
 0.538311 1  18F15AF3x       Rx   d 8 00 00 00 00 00 00 00 00
 0.539181 1  18F15BF3x       Rx   d 7 00 00 00 00 00 00 00
 0.540154 1  18F15CF3x       Rx   d 8 00 00 00 00 00 00 00 00
 0.540987 1  18F15DF3x       Rx   d 8 00 00 00 00 00 00 00 00
 0.541841 1  18F15EF3x       Rx   d 8 00 00 00 00 00 00 00 00
 0.542806 1  18F100D0x       Rx   d 8 0C FF FF FF FF FF FF FF
 0.546423 1  CFF21CAx        Rx   d 8 02 00 80 0C 47 3F 00 24
 0.559125 1  CFF21CAx        Rx   d 8 02 00 80 0C 47 3F 00 24
 0.570574 1  CFF21CAx        Rx   d 8 02 00 80 0C 47 3F 00 24
 0.571135 1  18F100D0x       Rx   d 8 0C FF FF FF FF FF FF FF
 0.583329 1  CFF21CAx        Rx   d 8 03 00 80 0C 47 3F 00 24
 0.594879 1  CFF21CAx        Rx   d 8 03 00 80 0C 47 3F 00 24
 0.595351 1  18F100D0x       Rx   d 8 0C FF FF FF FF FF FF FF
 0.606846 1  CFF21CAx        Rx   d 8 03 00 80 0C 47 3F 00 24
 0.612403 1  18FF2112x       Rx   d 8 01 00 00 00 00 00 00 00
 0.614879 1  18F100D0x       Rx   d 8 0C FF FF FF FF FF FF FF
 0.618759 1  CFF21CAx        Rx   d 8 02 00 80 0C 47 3F 00 24
 0.627426 1  18F100F3x       Rx   d 8 03 27 7D 10 E0 FA 14 00
 0.628446 1  18F102F3x       Rx   d 8 0F C9 0F C2 10 06 00 07
 0.629578 1  18F106F3x       Rx   d 8 45 E0 FC FF FF FF FF FF
 0.630977 1  18F107F3x       Rx   d 8 38 A4 30 70 01 6B 00 C2
 0.631522 1  CFF21CAx        Rx   d 8 02 00 80 0C 47 3F 00 24
 0.632742 1  18F108F3x       Rx   d 8 00 00 00 00 00 00 00 00
 0.633524 1  18F155F3x       Rx   d 8 3B 3B 3C 3C 3B 3D 3D 00
 0.634362 1  18F156F3x       Rx   d 8 00 00 00 00 00 00 00 00
 0.635053 1  18F100D0x       Rx   d 8 0C FF FF FF FF FF FF FF
 0.635532 1  18F157F3x       Rx   d 8 00 00 00 00 00 00 00 00
 0.636662 1  18F158F3x       Rx   d 8 00 00 00 00 00 00 00 00
 0.637550 1  18F159F3x       Rx   d 8 00 00 00 00 00 00 00 00
 0.638319 1  18F15AF3x       Rx   d 8 00 00 00 00 00 00 00 00
 0.639145 1  18F15BF3x       Rx   d 7 00 00 00 00 00 00 00
 0.653139 1  18F15CF3x       Rx   d 8 00 00 00 00 00 00 00 00
 0.653275 1  18F15DF3x       Rx   d 8 00 00 00 00 00 00 00 00
 0.653383 1  18F15EF3x       Rx   d 8 00 00 00 00 00 00 00 00
 0.653484 1  CFF21CAx        Rx   d 8 02 00 80 0C 47 3F 00 24
 0.655388 1  CFF21CAx        Rx   d 8 02 00 80 0C 47 3F 00 24
 0.655909 1  18F100D0x       Rx   d 8 0C FF FF FF FF FF FF FF
 0.666937 1  CFF21CAx        Rx   d 8 02 00 80 0C 47 3F 00 24
 0.674994 1  18F100D0x       Rx   d 8 0C FF FF FF FF FF FF FF
 0.679091 1  CFF21CAx        Rx   d 8 03 00 80 0C 47 3F 00 24
 0.691049 1  CFF21CAx        Rx   d 8 03 00 80 0C 47 3F 00 24
 0.695076 1  18F100D0x       Rx   d 8 0C FF FF FF FF FF FF FF
 0.703176 1  CFF21CAx        Rx   d 8 03 00 80 0C 47 3F 00 24
 0.709622 1  18FF2112x       Rx   d 8 01 00 00 00 00 00 00 00
 0.715148 1  CFF21CAx        Rx   d 8 03 00 80 0C 47 3F 00 24
 0.723174 1  18F100D0x       Rx   d 8 0C FF FF FF FF FF FF FF
 0.727297 1  CFF21CAx        Rx   d 8 03 00 80 0C 47 3F 00 24
 0.727785 1  18F100F3x       Rx   d 8 03 27 7D 10 E0 FA 14 00
 0.728634 1  18F102F3x       Rx   d 8 0F C9 0F C2 10 06 00 07
 0.729887 1  18F106F3x       Rx   d 8 45 E0 FC FF FF FF FF FF
 0.731328 1  18F107F3x       Rx   d 8 38 A4 30 70 01 6B 00 C2
 0.732930 1  18F108F3x       Rx   d 8 00 00 00 00 00 00 00 00
 0.733757 1  18F155F3x       Rx   d 8 3B 3B 3C 3C 3B 3D 3D 00
 0.734641 1  18F156F3x       Rx   d 8 00 00 00 00 00 00 00 00
 0.735626 1  18F157F3x       Rx   d 8 00 00 00 00 00 00 00 00
 0.736570 1  18F158F3x       Rx   d 8 00 00 00 00 00 00 00 00
 0.737382 1  18F159F3x       Rx   d 8 00 00 00 00 00 00 00 00
 0.738304 1  18F15AF3x       Rx   d 8 00 00 00 00 00 00 00 00
 0.739147 1  18F15BF3x       Rx   d 7 00 00 00 00 00 00 00
 0.739740 1  CFF21CAx        Rx   d 8 03 00 80 0C 47 3F 00 24
 0.740303 1  18F15CF3x       Rx   d 8 00 00 00 00 00 00 00 00
 0.741252 1  18F15DF3x       Rx   d 8 00 00 00 00 00 00 00 00
 0.742096 1  18F15EF3x       Rx   d 8 00 00 00 00 00 00 00 00
 0.747270 1  18F100D0x       Rx   d 8 0C FF FF FF FF FF FF FF
 0.751703 1  CFF21CAx        Rx   d 8 03 00 80 0C 47 3F 00 24
 0.763320 1  CFF21CAx        Rx   d 8 03 00 80 0C 47 3F 00 24
 0.775972 1  CFF21CAx        Rx   d 8 03 00 80 0C 47 3F 00 24
 0.776434 1  18F100D0x       Rx   d 8 0C FF FF FF FF FF FF FF
 0.787584 1  CFF21CAx        Rx   d 8 03 00 80 0C 47 3F 00 24
 0.799705 1  CFF21CAx        Rx   d 8 03 00 80 0C 47 3F 00 24
 0.803683 1  18F100D0x       Rx   d 8 0C FF FF FF FF FF FF FF
 0.806897 1  18FF2112x       Rx   d 8 01 00 00 00 00 00 00 00
 0.811706 1  CFF21CAx        Rx   d 8 03 00 80 0C 47 3F 00 24
 0.823571 1  CFF21CAx        Rx   d 8 03 00 80 0C 47 3F 00 24
 0.824117 1  18F100D0x       Rx   d 8 0C FF FF FF FF FF FF FF
 0.827478 1  18F100F3x       Rx   d 8 03 27 7D 10 E0 FA 14 00
 0.828289 1  18F102F3x       Rx   d 8 0F C9 0F C2 10 06 00 07
 0.829575 1  18F106F3x       Rx   d 8 45 E0 FC FF FF FF FF FF
 0.830799 1  18F107F3x       Rx   d 8 38 A4 30 70 01 6B 00 C2
 0.832588 1  18F108F3x       Rx   d 8 00 00 00 00 00 00 00 00
 0.833440 1  18F155F3x       Rx   d 8 3B 3B 3C 3C 3B 3D 3D 00
 0.834324 1  18F156F3x       Rx   d 8 00 00 00 00 00 00 00 00
 0.835314 1  18F157F3x       Rx   d 8 00 00 00 00 00 00 00 00
 0.835863 1  CFF21CAx        Rx   d 8 03 00 80 0C 47 3F 00 24
 0.836493 1  18F158F3x       Rx   d 8 00 00 00 00 00 00 00 00
 0.837405 1  18F159F3x       Rx   d 8 00 00 00 00 00 00 00 00
 0.838257 1  18F15AF3x       Rx   d 8 00 00 00 00 00 00 00 00
 0.839102 1  18F15BF3x       Rx   d 7 00 00 00 00 00 00 00
 0.840015 1  18F15CF3x       Rx   d 8 00 00 00 00 00 00 00 00
 0.840857 1  18F15DF3x       Rx   d 8 00 00 00 00 00 00 00 00
 0.841710 1  18F15EF3x       Rx   d 8 00 00 00 00 00 00 00 00
 0.843616 1  18F100D0x       Rx   d 8 0C FF FF FF FF FF FF FF
 0.848122 1  CFF21CAx        Rx   d 8 03 00 80 0C 47 3F 00 24
 0.872221 1  CFF21CAx        Rx   d 8 03 00 80 0C 47 3F 00 24
 0.872350 1  18F100D0x       Rx   d 8 0C FF FF FF FF FF FF FF
 0.872456 1  CFF21CAx        Rx   d 8 03 00 80 0C 47 3F 00 24
 0.883857 1  CFF21CAx        Rx   d 8 03 00 80 0C 47 3F 00 24
 0.895996 1  CFF21CAx        Rx   d 8 03 00 80 0C 47 3F 00 24
 0.896533 1  18F100D0x       Rx   d 8 0C FF FF FF FF FF FF FF
 0.904292 1  18FF2112x       Rx   d 8 01 00 00 00 00 00 00 00
 0.907965 1  CFF21CAx        Rx   d 8 03 00 80 0C 47 3F 00 24
 0.915984 1  18F100D0x       Rx   d 8 0C FF FF FF FF FF FF FF
 0.919958 1  CFF21CAx        Rx   d 8 03 00 80 0C 47 3F 00 24
 0.927559 1  18F100F3x       Rx   d 8 03 27 7D 10 E0 FA 14 00
 0.928340 1  18F102F3x       Rx   d 8 0F C9 0F C2 10 06 00 07
 0.929617 1  18F106F3x       Rx   d 8 45 E0 FC FF FF FF FF FF
 0.930858 1  18F107F3x       Rx   d 8 38 A4 30 70 01 6B 00 C2
 0.932461 1  CFF21CAx        Rx   d 8 03 00 80 0C 47 3F 00 24
 0.933007 1  18F108F3x       Rx   d 8 00 00 00 00 00 00 00 00
 0.933870 1  18F155F3x       Rx   d 8 3B 3B 3C 3C 3B 3D 3D 00
 0.934752 1  18F156F3x       Rx   d 8 00 00 00 00 00 00 00 00
 0.935630 1  18F157F3x       Rx   d 8 00 00 00 00 00 00 00 00
 0.936551 1  18F158F3x       Rx   d 8 00 00 00 00 00 00 00 00
 0.937442 1  18F159F3x       Rx   d 8 00 00 00 00 00 00 00 00
 0.938357 1  18F15AF3x       Rx   d 8 00 00 00 00 00 00 00 00
 0.939275 1  18F15BF3x       Rx   d 7 00 00 00 00 00 00 00
 0.940044 1  18F100D0x       Rx   d 8 0C FF FF FF FF FF FF FF
 0.940607 1  18F15CF3x       Rx   d 8 00 00 00 00 00 00 00 00
 0.941463 1  18F15DF3x       Rx   d 8 00 00 00 00 00 00 00 00
 0.942319 1  18F15EF3x       Rx   d 8 00 00 00 00 00 00 00 00
 0.944527 1  CFF21CAx        Rx   d 8 03 00 80 0C 47 3F 00 24
 0.948154 1  18FECACAx       Rx   d 8 00 00 00 00 00 00 FF FF
 0.956115 1  CFF21CAx        Rx   d 8 03 00 80 0C 47 3F 00 24
 0.960314 1  18F100D0x       Rx   d 8 0C FF FF FF FF FF FF FF
 0.968156 1  CFF21CAx        Rx   d 8 03 00 80 0C 47 3F 00 24
 0.980402 1  CFF21CAx        Rx   d 8 03 00 80 0C 47 3F 00 24
 0.984334 1  18F100D0x       Rx   d 8 0C FF FF FF FF FF FF FF
 0.992271 1  CFF21CAx        Rx   d 8 03 00 80 0C 47 3F 00 24
 1.001505 1  18FF2112x       Rx   d 8 01 00 00 00 00 00 00 00
 1.004292 1  CFF21CAx        Rx   d 8 03 00 80 0C 47 3F 00 24
 1.004852 1  18F100D0x       Rx   d 8 0C FF FF FF FF FF FF FF
 1.016572 1  CFF21CAx        Rx   d 8 03 00 80 0C 47 3F 00 24
 1.024544 1  18F100D0x       Rx   d 8 0C FF FF FF FF FF FF FF
 1.027496 1  18F100F3x       Rx   d 8 03 27 7D 10 E0 FA 14 00
 1.028348 1  18F102F3x       Rx   d 8 0F C9 0F C2 10 06 00 07
 1.028871 1  CFF21CAx        Rx   d 8 03 00 80 0C 47 3F 00 24
 1.029583 1  18F106F3x       Rx   d 8 45 E0 FC FF FF FF FF FF
 1.030933 1  18F107F3x       Rx   d 8 38 A4 30 70 01 6B 00 C2
 1.032695 1  18F108F3x       Rx   d 8 00 00 00 00 00 00 00 00
 1.033638 1  18F155F3x       Rx   d 8 3B 3B 3C 3C 3B 3D 3D 00
 1.034380 1  18F156F3x       Rx   d 8 00 00 00 00 00 00 00 00
 1.035296 1  18F157F3x       Rx   d 8 00 00 00 00 00 00 00 00
 1.036483 1  18F158F3x       Rx   d 8 00 00 00 00 00 00 00 00
 1.037369 1  18F159F3x       Rx   d 8 00 00 00 00 00 00 00 00
 1.038465 1  18F15AF3x       Rx   d 8 00 00 00 00 00 00 00 00
 1.039141 1  18F15BF3x       Rx   d 7 00 00 00 00 00 00 00
 1.040199 1  18F15CF3x       Rx   d 8 00 00 00 00 00 00 00 00
 1.040757 1  CFF21CAx        Rx   d 8 02 00 80 0C 47 3F 00 24
 1.041408 1  18F15DF3x       Rx   d 8 00 00 00 00 00 00 00 00
 1.042236 1  18F15EF3x       Rx   d 8 00 00 00 00 00 00 00 00
 1.044501 1  18F100D0x       Rx   d 8 0C FF FF FF FF FF FF FF
 1.052514 1  CFF21CAx        Rx   d 8 02 00 80 0C 47 3F 00 24
 1.064771 1  CFF21CAx        Rx   d 8 03 00 80 0C 47 3F 00 24
 1.065270 1  18F100D0x       Rx   d 8 0C FF FF FF FF FF FF FF
 1.076690 1  CFF21CAx        Rx   d 8 03 00 80 0C 47 3F 00 24
 1.091864 1  CFF21CAx        Rx   d 8 03 00 80 0C 47 3F 00 24
 1.096713 1  18F100D0x       Rx   d 8 0C FF FF FF FF FF FF FF
 1.098766 1  18FF2112x       Rx   d 8 01 00 00 00 00 00 00 00
 1.100677 1  CFF21CAx        Rx   d 8 03 00 80 0C 47 3F 00 24
 1.112780 1  CFF21CAx        Rx   d 8 03 00 80 0C 47 3F 00 24
 1.116795 1  18F100D0x       Rx   d 8 0C FF FF FF FF FF FF FF
 1.124845 1  CFF21CAx        Rx   d 8 03 00 80 0C 47 3F 00 24
 1.127449 1  18F100F3x       Rx   d 8 03 27 7D 10 E0 FA 14 00
 1.128321 1  18F102F3x       Rx   d 8 0F C9 0F C2 10 06 00 07
 1.129613 1  18F106F3x       Rx   d 8 45 E0 FC FF FF FF FF FF
 1.130841 1  18F107F3x       Rx   d 8 38 A4 30 70 01 6B 00 C2
 1.132651 1  18F108F3x       Rx   d 8 00 00 00 00 00 00 00 00
 1.133542 1  18F155F3x       Rx   d 8 3B 3B 3C 3C 3B 3D 3D 00
 1.134382 1  18F156F3x       Rx   d 8 00 00 00 00 00 00 00 00
 1.135333 1  18F157F3x       Rx   d 8 00 00 00 00 00 00 00 00
 1.136509 1  18F158F3x       Rx   d 8 00 00 00 00 00 00 00 00
 1.137057 1  CFF21CAx        Rx   d 8 03 00 80 0C 47 3F 00 24
 1.137654 1  18F159F3x       Rx   d 8 00 00 00 00 00 00 00 00
 1.138527 1  18F15AF3x       Rx   d 8 00 00 00 00 00 00 00 00
 1.139324 1  18F15BF3x       Rx   d 7 00 00 00 00 00 00 00
 1.140243 1  18F15CF3x       Rx   d 8 00 00 00 00 00 00 00 00
 1.140830 1  18F100D0x       Rx   d 8 0C FF FF FF FF FF FF FF
 1.141414 1  18F15DF3x       Rx   d 8 00 00 00 00 00 00 00 00
 1.142302 1  18F15EF3x       Rx   d 8 00 00 00 00 00 00 00 00
 1.148939 1  CFF21CAx        Rx   d 8 03 00 80 0C 47 3F 00 24
 1.160950 1  CFF21CAx        Rx   d 8 03 00 80 0C 47 3F 00 24
 1.169039 1  18F100D0x       Rx   d 8 0C FF FF FF FF FF FF FF
 1.173039 1  CFF21CAx        Rx   d 8 03 00 80 0C 47 3F 00 24
 1.185089 1  CFF21CAx        Rx   d 8 03 00 80 0C 47 3F 00 24
 1.189093 1  18F100D0x       Rx   d 8 0C FF FF FF FF FF FF FF
 1.196085 1  18FF2112x       Rx   d 8 01 00 00 00 00 00 00 00
 1.197056 1  CFF21CAx        Rx   d 8 03 00 80 0C 47 3F 00 24
 1.209193 1  CFF21CAx        Rx   d 8 03 00 80 0C 47 3F 00 24
 1.209940 1  18F100D0x       Rx   d 8 0C FF FF FF FF FF FF FF
 1.220971 1  18F104F3x       Rx   d 8 3D 3B 06 01 02 FF FF FF
 1.221501 1  CFF21CAx        Rx   d 8 03 00 80 0C 47 3F 00 24
 1.222078 1  18F113F3x       Rx   d 8 0F C4 0F C4 0F C5 0F C5
 1.222980 1  18F114F3x       Rx   d 8 0F C3 0F C2 0F C5 0F C5
 1.223878 1  18F115F3x       Rx   d 8 0F C3 0F C3 0F C3 0F C2
 1.224770 1  18F116F3x       Rx   d 8 0F C6 0F C4 0F C7 0F C9
 1.225773 1  18F117F3x       Rx   d 8 0F C3 0F C5 0F C8 0F C8
 1.226587 1  18F118F3x       Rx   d 8 00 00 00 00 00 00 00 00
 1.227606 1  18F100F3x       Rx   d 8 03 27 7D 10 E0 FA 14 00
 1.228128 1  18F102F3x       Rx   d 8 0F C9 0F C2 10 06 00 07
 1.229537 1  18F106F3x       Rx   d 8 45 E0 FC FF FF FF FF FF
 1.230889 1  18F107F3x       Rx   d 8 38 A4 30 70 01 6B 00 C2
 1.232753 1  18F108F3x       Rx   d 8 00 00 00 00 00 00 00 00
 1.233333 1  CFF21CAx        Rx   d 8 03 00 80 0C 47 3F 00 24
 1.233931 1  18F119F3x       Rx   d 8 00 00 00 00 00 00 00 00
 1.234824 1  18F11AF3x       Rx   d 8 00 00 00 00 00 00 00 00
 1.235673 1  18F11BF3x       Rx   d 8 00 00 00 00 00 00 00 00
 1.236692 1  18F11CF3x       Rx   d 8 00 00 00 00 00 00 00 00
 1.237314 1  18F100D0x       Rx   d 8 0C FF FF FF FF FF FF FF
 1.237812 1  18F11DF3x       Rx   d 8 00 00 00 00 00 00 00 00
 1.238834 1  18F11EF3x       Rx   d 8 00 00 00 00 00 00 00 00
 1.239770 1  18F11FF3x       Rx   d 8 00 00 00 00 00 00 00 00
 1.240689 1  18F120F3x       Rx   d 8 00 00 00 00 00 00 00 00
 1.241608 1  18F121F3x       Rx   d 8 00 00 00 00 00 00 00 00
 1.242458 1  18F122F3x       Rx   d 8 00 00 00 00 00 00 00 00
 1.243432 1  18F123F3x       Rx   d 8 00 00 00 00 00 00 00 00
 1.244340 1  18F124F3x       Rx   d 8 00 00 00 00 00 00 00 00
 1.245260 1  CFF21CAx        Rx   d 8 03 00 80 0C 47 3F 00 24
 1.245822 1  18F125F3x       Rx   d 8 00 00 00 00 00 00 00 00
 1.246764 1  18F126F3x       Rx   d 8 00 00 00 00 00 00 00 00
 1.247646 1  18F127F3x       Rx   d 8 00 00 00 00 00 00 00 00
 1.248633 1  18F128F3x       Rx   d 8 00 00 00 00 00 00 00 00
 1.249532 1  18F129F3x       Rx   d 8 00 00 00 00 00 00 00 00
 1.250812 1  18F12AF3x       Rx   d 8 00 00 00 00 00 00 00 00
 1.251385 1  18F12BF3x       Rx   d 8 00 00 00 00 00 00 00 00
 1.252265 1  18F12CF3x       Rx   d 8 00 00 00 00 00 00 00 00
 1.253266 1  18F12DF3x       Rx   d 8 00 00 00 00 00 00 00 00
 1.254141 1  18F12EF3x       Rx   d 8 00 00 00 00 00 00 00 00
 1.255178 1  18F12FF3x       Rx   d 8 00 00 00 00 00 00 00 00
 1.256349 1  18F130F3x       Rx   d 8 00 00 00 00 00 00 00 00
 1.257328 1  18F131F3x       Rx   d 8 00 00 00 00 00 00 00 00
 1.257842 1  CFF21CAx        Rx   d 8 03 00 80 0C 47 3F 00 24
 1.258386 1  18F100D0x       Rx   d 8 0C FF FF FF FF FF FF FF
 1.259182 1  18F132F3x       Rx   d 8 00 00 00 00 00 00 00 00
 1.259904 1  18F133F3x       Rx   d 8 00 00 00 00 00 00 00 00
 1.260748 1  18F134F3x       Rx   d 8 00 00 00 00 00 00 00 00
 1.261641 1  18F135F3x       Rx   d 8 00 00 00 00 00 00 00 00
 1.262533 1  18F136F3x       Rx   d 8 00 00 00 00 00 00 00 00
 1.263370 1  18F137F3x       Rx   d 8 00 00 00 00 00 00 00 00
 1.264330 1  18F138F3x       Rx   d 8 00 00 00 00 00 00 00 00
 1.265255 1  18F139F3x       Rx   d 8 00 00 00 00 00 00 00 00
 1.266498 1  18F13AF3x       Rx   d 8 00 00 00 00 00 00 00 00
 1.267347 1  18F13BF3x       Rx   d 8 00 00 00 00 00 00 00 00
 1.268287 1  18F13CF3x       Rx   d 8 00 00 00 00 00 00 00 00
 1.269135 1  18F155F3x       Rx   d 8 3B 3B 3C 3C 3B 3D 3D 00
 1.269656 1  CFF21CAx        Rx   d 8 03 00 80 0C 47 3F 00 24
 1.270282 1  18F156F3x       Rx   d 8 00 00 00 00 00 00 00 00
 1.271151 1  18F157F3x       Rx   d 8 00 00 00 00 00 00 00 00
 1.272066 1  18F158F3x       Rx   d 8 00 00 00 00 00 00 00 00
 1.272937 1  18F159F3x       Rx   d 8 00 00 00 00 00 00 00 00
 1.273805 1  18F15AF3x       Rx   d 8 00 00 00 00 00 00 00 00
 1.274678 1  18F15BF3x       Rx   d 7 00 00 00 00 00 00 00
 1.275735 1  18F15CF3x       Rx   d 8 00 00 00 00 00 00 00 00
 1.276578 1  18F15DF3x       Rx   d 8 00 00 00 00 00 00 00 00
 1.277430 1  18F15EF3x       Rx   d 8 00 00 00 00 00 00 00 00
 1.281490 1  CFF21CAx        Rx   d 8 03 00 80 0C 47 3F 00 24
 1.289546 1  18F100D0x       Rx   d 8 0C FF FF FF FF FF FF FF
 1.293310 1  18FF2112x       Rx   d 8 01 00 00 00 00 00 00 00
 1.293832 1  CFF21CAx        Rx   d 8 03 00 80 0C 47 3F 00 24
 1.311098 1  CFF21CAx        Rx   d 8 03 00 80 0C 47 3F 00 24
 1.311212 1  18F100D0x       Rx   d 8 0C FF FF FF FF FF FF FF
 1.317626 1  CFF21CAx        Rx   d 8 03 00 80 0C 47 3F 00 24
 1.327494 1  18F100F3x       Rx   d 8 03 27 7D 10 E0 FA 14 00
 1.328352 1  18F102F3x       Rx   d 8 0F C9 0F C2 10 06 00 07
 1.329639 1  18F106F3x       Rx   d 8 45 E0 FC FF FF FF FF FF
 1.330180 1  CFF21CAx        Rx   d 8 03 00 80 0C 47 3F 00 24
 1.330866 1  18F107F3x       Rx   d 8 38 A4 30 70 01 6B 00 C2
 1.332659 1  18F108F3x       Rx   d 8 00 00 00 00 00 00 00 00
 1.333487 1  18F155F3x       Rx   d 8 3B 3B 3C 3C 3B 3D 3D 00
 1.334416 1  18F156F3x       Rx   d 8 00 00 00 00 00 00 00 00
 1.335323 1  18F157F3x       Rx   d 8 00 00 00 00 00 00 00 00
 1.336506 1  18F158F3x       Rx   d 8 00 00 00 00 00 00 00 00
 1.337379 1  18F159F3x       Rx   d 8 00 00 00 00 00 00 00 00
 1.337963 1  18F100D0x       Rx   d 8 0C FF FF FF FF FF FF FF
 1.338538 1  18F15AF3x       Rx   d 8 00 00 00 00 00 00 00 00
 1.339364 1  18F15BF3x       Rx   d 7 00 00 00 00 00 00 00
 1.340282 1  18F15CF3x       Rx   d 8 00 00 00 00 00 00 00 00
 1.341158 1  18F15DF3x       Rx   d 8 00 00 00 00 00 00 00 00
 1.341726 1  CFF21CAx        Rx   d 8 03 00 80 0C 47 3F 00 24
 1.342310 1  18F15EF3x       Rx   d 8 00 00 00 00 00 00 00 00
 1.353726 1  CFF21CAx        Rx   d 8 03 00 80 0C 47 3F 00 24
 1.361802 1  18F100D0x       Rx   d 8 0C FF FF FF FF FF FF FF
 1.365874 1  CFF21CAx        Rx   d 8 03 00 80 0C 47 3F 00 24
 1.377853 1  CFF21CAx        Rx   d 8 03 00 80 0C 47 3F 00 24
 1.381968 1  18F100D0x       Rx   d 8 0C FF FF FF FF FF FF FF
 1.389985 1  CFF21CAx        Rx   d 8 03 00 80 0C 47 3F 00 24
 1.390582 1  18FF2112x       Rx   d 8 01 00 00 00 00 00 00 00
 1.401911 1  CFF21CAx        Rx   d 8 03 00 80 0C 47 3F 00 24
 1.402466 1  18F100D0x       Rx   d 8 0C FF FF FF FF FF FF FF
 1.414463 1  CFF21CAx        Rx   d 8 04 00 80 0C 47 3F 00 24
 1.426063 1  CFF21CAx        Rx   d 8 04 00 80 0C 47 3F 00 24
 1.427443 1  18F100F3x       Rx   d 8 03 27 7D 10 E0 FA 14 00
 1.428328 1  18F102F3x       Rx   d 8 0F C9 0F C2 10 0C 00 07
 1.429602 1  18F106F3x       Rx   d 8 45 E0 FC FF FF FF FF FF
 1.430414 1  18F100D0x       Rx   d 8 0C FF FF FF FF FF FF FF
 1.430962 1  18F107F3x       Rx   d 8 38 A4 30 70 01 6B 00 C2
 1.432907 1  18F108F3x       Rx   d 8 00 00 00 00 00 00 00 00
 1.433767 1  18F155F3x       Rx   d 8 3B 3B 3C 3C 3B 3D 3D 00
 1.434482 1  18F156F3x       Rx   d 8 00 00 00 00 00 00 00 00
 1.435373 1  18F157F3x       Rx   d 8 00 00 00 00 00 00 00 00
 1.436539 1  18F158F3x       Rx   d 8 00 00 00 00 00 00 00 00
 1.437417 1  18F159F3x       Rx   d 8 00 00 00 00 00 00 00 00
 1.438380 1  18F15AF3x       Rx   d 8 00 00 00 00 00 00 00 00
 1.438920 1  CFF21CAx        Rx   d 8 04 00 80 0C 47 3F 00 24
 1.439457 1  18F15BF3x       Rx   d 7 00 00 00 00 00 00 00
 1.440337 1  18F15CF3x       Rx   d 8 00 00 00 00 00 00 00 00
 1.441265 1  18F15DF3x       Rx   d 8 00 00 00 00 00 00 00 00
 1.442183 1  18F15EF3x       Rx   d 8 00 00 00 00 00 00 00 00
 1.450294 1  CFF21CAx        Rx   d 8 03 00 80 0C 47 3F 00 24
 1.454200 1  18F100D0x       Rx   d 8 0C FF FF FF FF FF FF FF
 1.462287 1  CFF21CAx        Rx   d 8 03 00 80 0C 47 3F 00 24
 1.474277 1  CFF21CAx        Rx   d 8 03 00 80 0C 47 3F 00 24
 1.482334 1  18F100D0x       Rx   d 8 0C FF FF FF FF FF FF FF
 1.486705 1  CFF21CAx        Rx   d 8 03 00 80 0C 47 3F 00 24
 1.487830 1  18FF2112x       Rx   d 8 01 00 00 00 00 00 00 00
 1.498278 1  CFF21CAx        Rx   d 8 03 00 80 0C 47 3F 00 24
 1.510461 1  CFF21CAx        Rx   d 8 03 00 80 0C 47 3F 00 24
 1.511016 1  18F100D0x       Rx   d 8 0C FF FF FF FF FF FF FF
 1.529470 1  CFF21CAx        Rx   d 8 03 00 80 0C 47 3F 00 24
 1.529595 1  18F100F3x       Rx   d 8 03 27 7D 10 E0 FA 14 00
 1.529702 1  18F102F3x       Rx   d 8 0F C9 0F C2 10 0C 00 07
 1.529804 1  18F106F3x       Rx   d 8 45 E0 FC FF FF FF FF FF
 1.530427 1  18F100D0x       Rx   d 8 0C FF FF FF FF FF FF FF
 1.530995 1  18F107F3x       Rx   d 8 38 A4 30 70 01 6B 00 C2
 1.532769 1  18F108F3x       Rx   d 8 00 00 00 00 00 00 00 00
 1.533642 1  18F155F3x       Rx   d 8 3B 3B 3C 3C 3B 3D 3D 00
 1.534530 1  18F156F3x       Rx   d 8 00 00 00 00 00 00 00 00
 1.535073 1  CFF21CAx        Rx   d 8 03 00 80 0C 47 3F 00 24
 1.535635 1  18F157F3x       Rx   d 8 00 00 00 00 00 00 00 00
 1.536551 1  18F158F3x       Rx   d 8 00 00 00 00 00 00 00 00
 1.537427 1  18F159F3x       Rx   d 8 00 00 00 00 00 00 00 00
 1.538360 1  18F15AF3x       Rx   d 8 00 00 00 00 00 00 00 00
 1.539225 1  18F15BF3x       Rx   d 7 00 00 00 00 00 00 00
 1.540137 1  18F15CF3x       Rx   d 8 00 00 00 00 00 00 00 00
 1.540995 1  18F15DF3x       Rx   d 8 00 00 00 00 00 00 00 00
 1.541815 1  18F15EF3x       Rx   d 8 00 00 00 00 00 00 00 00
 1.546513 1  CFF21CAx        Rx   d 8 03 00 80 0C 47 3F 00 24
 1.550937 1  18F100D0x       Rx   d 8 0C FF FF FF FF FF FF FF
 1.558731 1  CFF21CAx        Rx   d 8 03 00 80 0C 47 3F 00 24
 1.570609 1  CFF21CAx        Rx   d 8 02 00 80 0C 47 3F 00 24
 1.574672 1  18F100D0x       Rx   d 8 0C FF FF FF FF FF FF FF
 1.583066 1  CFF21CAx        Rx   d 8 02 00 80 0C 47 3F 00 24
 1.585155 1  18FF2112x       Rx   d 8 01 00 00 00 00 00 00 00
 1.594700 1  CFF21CAx        Rx   d 8 02 00 80 0C 47 3F 00 24
 1.602756 1  18F100D0x       Rx   d 8 0C FF FF FF FF FF FF FF
 1.607297 1  CFF21CAx        Rx   d 8 02 00 80 0C 47 3F 00 24
 1.618886 1  CFF21CAx        Rx   d 8 03 00 80 0C 47 3F 00 24
 1.622868 1  18F100D0x       Rx   d 8 0C FF FF FF FF FF FF FF
 1.627642 1  18F100F3x       Rx   d 8 03 27 7D 10 E0 FA 14 00
 1.628490 1  18F102F3x       Rx   d 8 0F C9 0F C2 10 0C 00 07
 1.629787 1  18F106F3x       Rx   d 8 45 E0 FC FF FF FF FF FF
 1.630901 1  18F107F3x       Rx   d 8 38 A4 30 70 01 6B 00 C2
 1.631584 1  CFF21CAx        Rx   d 8 03 00 80 0C 47 3F 00 24
 1.632828 1  18F108F3x       Rx   d 8 00 00 00 00 00 00 00 00
 1.633665 1  18F155F3x       Rx   d 8 3B 3B 3C 3C 3B 3D 3D 00
 1.634429 1  18F156F3x       Rx   d 8 00 00 00 00 00 00 00 00
 1.635491 1  18F157F3x       Rx   d 8 00 00 00 00 00 00 00 00
 1.636678 1  18F158F3x       Rx   d 8 00 00 00 00 00 00 00 00
 1.637546 1  18F159F3x       Rx   d 8 00 00 00 00 00 00 00 00
 1.638362 1  18F15AF3x       Rx   d 8 00 00 00 00 00 00 00 00
 1.639277 1  18F15BF3x       Rx   d 7 00 00 00 00 00 00 00
 1.640120 1  18F15CF3x       Rx   d 8 00 00 00 00 00 00 00 00
 1.640980 1  18F15DF3x       Rx   d 8 00 00 00 00 00 00 00 00
 1.641811 1  18F15EF3x       Rx   d 8 00 00 00 00 00 00 00 00
 1.643364 1  CFF21CAx        Rx   d 8 03 00 80 0C 47 3F 00 24
 1.646966 1  18F100D0x       Rx   d 8 0C FF FF FF FF FF FF FF
 1.654989 1  CFF21CAx        Rx   d 8 03 00 80 0C 47 3F 00 24
 1.667127 1  CFF21CAx        Rx   d 8 03 00 80 0C 47 3F 00 24
 1.667532 1  18F100D0x       Rx   d 8 0C FF FF FF FF FF FF FF
 1.679666 1  CFF21CAx        Rx   d 8 03 00 80 0C 47 3F 00 24
 1.682547 1  18FF2112x       Rx   d 8 01 00 00 00 00 00 00 00
 1.687221 1  18F100D0x       Rx   d 8 0C FF FF FF FF FF FF FF
 1.691203 1  CFF21CAx        Rx   d 8 03 00 80 0C 47 3F 00 24
 1.703323 1  CFF21CAx        Rx   d 8 03 00 80 0C 47 3F 00 24
 1.715355 1  CFF21CAx        Rx   d 8 03 00 80 0C 47 3F 00 24
 1.715902 1  18F100D0x       Rx   d 8 0C FF FF FF FF FF FF FF
 1.727455 1  CFF21CAx        Rx   d 8 03 00 80 0C 47 3F 00 24
 1.727988 1  18F100F3x       Rx   d 8 03 27 7D 10 E0 FA 14 00
 1.728819 1  18F102F3x       Rx   d 8 0F C9 0F C2 10 0C 00 07
 1.729969 1  18F106F3x       Rx   d 8 45 E0 FC FF FF FF FF FF
 1.731393 1  18F107F3x       Rx   d 8 38 A4 30 70 01 6B 00 C2
 1.733123 1  18F108F3x       Rx   d 8 00 00 00 00 00 00 00 00
 1.733841 1  18F155F3x       Rx   d 8 3B 3B 3C 3C 3B 3D 3D 00
 1.734738 1  18F156F3x       Rx   d 8 00 00 00 00 00 00 00 00
 1.735764 1  18F157F3x       Rx   d 8 00 00 00 00 00 00 00 00
 1.749546 1  18F158F3x       Rx   d 8 00 00 00 00 00 00 00 00
 1.749675 1  18F159F3x       Rx   d 8 00 00 00 00 00 00 00 00
 1.749780 1  18F15AF3x       Rx   d 8 00 00 00 00 00 00 00 00
 1.749882 1  CFF21CAx        Rx   d 8 03 00 80 0C 47 3F 00 24
 1.749978 1  18F15BF3x       Rx   d 7 00 00 00 00 00 00 00
 1.750078 1  18F15CF3x       Rx   d 8 00 00 00 00 00 00 00 00
 1.750177 1  18F15DF3x       Rx   d 8 00 00 00 00 00 00 00 00
 1.750278 1  18F15EF3x       Rx   d 8 00 00 00 00 00 00 00 00
 1.750376 1  18F100D0x       Rx   d 8 0C FF FF FF FF FF FF FF
 1.751351 1  CFF21CAx        Rx   d 8 03 00 80 0C 47 3F 00 24
 1.763340 1  CFF21CAx        Rx   d 8 03 00 80 0C 47 3F 00 24
 1.775834 1  CFF21CAx        Rx   d 8 03 00 80 0C 47 3F 00 24
 1.776394 1  18F100D0x       Rx   d 8 0C FF FF FF FF FF FF FF
 1.779715 1  18FF2112x       Rx   d 8 01 00 00 00 00 00 00 00
 1.787481 1  CFF21CAx        Rx   d 8 03 00 80 0C 47 3F 00 24
 1.795513 1  18F100D0x       Rx   d 8 0C FF FF FF FF FF FF FF
 1.800007 1  CFF21CAx        Rx   d 8 03 00 80 0C 47 3F 00 24
 1.811596 1  CFF21CAx        Rx   d 8 03 00 80 0C 47 3F 00 24
 1.815571 1  18F100D0x       Rx   d 8 0C FF FF FF FF FF FF FF
 1.823722 1  CFF21CAx        Rx   d 8 03 00 80 0C 47 3F 00 24
 1.827509 1  18F100F3x       Rx   d 8 03 27 7D 10 E0 FA 14 00
 1.828354 1  18F102F3x       Rx   d 8 0F C9 0F C2 10 0C 00 07
 1.829674 1  18F106F3x       Rx   d 8 45 E0 FC FF FF FF FF FF
 1.830895 1  18F107F3x       Rx   d 8 38 A4 30 70 01 6B 00 C2
 1.832686 1  18F108F3x       Rx   d 8 00 00 00 00 00 00 00 00
 1.833518 1  18F155F3x       Rx   d 8 3B 3B 3C 3C 3B 3D 3D 00
 1.834584 1  18F156F3x       Rx   d 8 00 00 00 00 00 00 00 00
 1.835362 1  18F157F3x       Rx   d 8 00 00 00 00 00 00 00 00
 1.835953 1  CFF21CAx        Rx   d 8 03 00 80 0C 47 3F 00 24
 1.836478 1  18F100D0x       Rx   d 8 0C FF FF FF FF FF FF FF
 1.837102 1  18F158F3x       Rx   d 8 00 00 00 00 00 00 00 00
 1.837945 1  18F159F3x       Rx   d 8 00 00 00 00 00 00 00 00
 1.838805 1  18F15AF3x       Rx   d 8 00 00 00 00 00 00 00 00
 1.839640 1  18F15BF3x       Rx   d 7 00 00 00 00 00 00 00
 1.840497 1  18F15CF3x       Rx   d 8 00 00 00 00 00 00 00 00
 1.841337 1  18F15DF3x       Rx   d 8 00 00 00 00 00 00 00 00
 1.842411 1  18F15EF3x       Rx   d 8 00 00 00 00 00 00 00 00
 1.847691 1  CFF21CAx        Rx   d 8 03 00 80 0C 47 3F 00 24
 1.859789 1  CFF21CAx        Rx   d 8 03 00 80 0C 47 3F 00 24
 1.867854 1  18F100D0x       Rx   d 8 0C FF FF FF FF FF FF FF
 1.872374 1  CFF21CAx        Rx   d 8 03 00 80 0C 47 3F 00 24
 1.877085 1  18FF2112x       Rx   d 8 01 00 00 00 00 00 00 00
 1.884049 1  CFF21CAx        Rx   d 8 03 00 80 0C 47 3F 00 24
 1.888001 1  18F100D0x       Rx   d 8 0C FF FF FF FF FF FF FF
 1.896087 1  CFF21CAx        Rx   d 8 03 00 80 0C 47 3F 00 24
 1.908006 1  CFF21CAx        Rx   d 8 03 00 80 0C 47 3F 00 24
 1.908535 1  18F100D0x       Rx   d 8 0C FF FF FF FF FF FF FF
 1.920108 1  CFF21CAx        Rx   d 8 03 00 80 0C 47 3F 00 24
 1.927518 1  18F100F3x       Rx   d 8 03 27 7D 10 E0 FA 14 00
 1.928051 1  18F100D0x       Rx   d 8 0C FF FF FF FF FF FF FF
 1.928607 1  18F102F3x       Rx   d 8 0F C9 0F C2 10 0C 00 07
 1.929943 1  18F106F3x       Rx   d 8 45 E0 FC FF FF FF FF FF
 1.931239 1  18F107F3x       Rx   d 8 38 A4 30 70 01 6B 00 C2
 1.932521 1  CFF21CAx        Rx   d 8 04 00 80 0C 47 3F 00 24
 1.933224 1  18F108F3x       Rx   d 8 00 00 00 00 00 00 00 00
 1.933948 1  18F155F3x       Rx   d 8 3B 3B 3C 3C 3B 3D 3D 00
 1.934832 1  18F156F3x       Rx   d 8 00 00 00 00 00 00 00 00
 1.935633 1  18F157F3x       Rx   d 8 00 00 00 00 00 00 00 00
 1.936572 1  18F158F3x       Rx   d 8 00 00 00 00 00 00 00 00
 1.937474 1  18F159F3x       Rx   d 8 00 00 00 00 00 00 00 00
 1.938393 1  18F15AF3x       Rx   d 8 00 00 00 00 00 00 00 00
 1.939304 1  18F15BF3x       Rx   d 7 00 00 00 00 00 00 00
 1.940193 1  18F15CF3x       Rx   d 8 00 00 00 00 00 00 00 00
 1.941026 1  18F15DF3x       Rx   d 8 00 00 00 00 00 00 00 00
 1.941817 1  18F15EF3x       Rx   d 8 00 00 00 00 00 00 00 00
 1.944153 1  CFF21CAx        Rx   d 8 04 00 80 0C 47 3F 00 24
 1.948215 1  18F100D0x       Rx   d 8 0C FF FF FF FF FF FF FF
 1.964138 1  CFF21CAx        Rx   d 8 04 00 80 0C 47 3F 00 24
 1.964260 1  18FECACAx       Rx   d 8 00 00 00 00 00 00 FF FF
 1.968630 1  CFF21CAx        Rx   d 8 04 00 80 0C 47 3F 00 24
 1.972205 1  18F100D0x       Rx   d 8 0C FF FF FF FF FF FF FF
 1.974292 1  18FF2112x       Rx   d 8 01 00 00 00 00 00 00 00
 1.980325 1  CFF21CAx        Rx   d 8 04 00 80 0C 47 3F 00 24
 1.992333 1  CFF21CAx        Rx   d 8 04 00 80 0C 47 3F 00 24
 1.996405 1  18F100D0x       Rx   d 8 0C FF FF FF FF FF FF FF
 2.004364 1  CFF21CAx        Rx   d 8 04 00 80 0C 47 3F 00 24
 2.016430 1  CFF21CAx        Rx   d 8 04 00 80 0C 47 3F 00 24
 2.016940 1  18F100D0x       Rx   d 8 0C FF FF FF FF FF FF FF
 2.027589 1  18F100F3x       Rx   d 8 03 27 7D 10 E0 FA 14 00
 2.028410 1  18F102F3x       Rx   d 8 0F C9 0F C2 10 0C 00 07
 2.029091 1  CFF21CAx        Rx   d 8 03 00 80 0C 47 3F 00 24
 2.029661 1  18F106F3x       Rx   d 8 45 E0 FC FF FF FF FF FF
 2.030938 1  18F107F3x       Rx   d 8 38 A4 30 70 01 6B 00 C2
 2.032694 1  18F108F3x       Rx   d 8 00 00 00 00 00 00 00 00
 2.033530 1  18F155F3x       Rx   d 8 3B 3B 3C 3C 3B 3D 3D 00
 2.034457 1  18F156F3x       Rx   d 8 00 00 00 00 00 00 00 00
 2.035342 1  18F157F3x       Rx   d 8 00 00 00 00 00 00 00 00
 2.036444 1  18F100D0x       Rx   d 8 0C FF FF FF FF FF FF FF
 2.037006 1  18F158F3x       Rx   d 8 00 00 00 00 00 00 00 00
 2.037872 1  18F159F3x       Rx   d 8 00 00 00 00 00 00 00 00
 2.038736 1  18F15AF3x       Rx   d 8 00 00 00 00 00 00 00 00
 2.039623 1  18F15BF3x       Rx   d 7 00 00 00 00 00 00 00
 2.040428 1  18F15CF3x       Rx   d 8 00 00 00 00 00 00 00 00
 2.040991 1  CFF21CAx        Rx   d 8 03 00 80 0C 47 3F 00 24
 2.041569 1  18F15DF3x       Rx   d 8 00 00 00 00 00 00 00 00
 2.042527 1  18F15EF3x       Rx   d 8 00 00 00 00 00 00 00 00
 2.052539 1  CFF21CAx        Rx   d 8 04 00 80 0C 47 3F 00 24
 2.056580 1  18F100D0x       Rx   d 8 0C FF FF FF FF FF FF FF
 2.064567 1  CFF21CAx        Rx   d 8 04 00 80 0C 47 3F 00 24
 2.071503 1  18FF2112x       Rx   d 8 01 00 00 00 00 00 00 00
 2.076646 1  CFF21CAx        Rx   d 8 04 00 80 0C 47 3F 00 24
 2.077187 1  18F100D0x       Rx   d 8 0C FF FF FF FF FF FF FF
 2.088719 1  CFF21CAx        Rx   d 8 03 00 80 0C 47 3F 00 24
 2.100825 1  CFF21CAx        Rx   d 8 03 00 80 0C 47 3F 00 24
 2.104770 1  18F100D0x       Rx   d 8 0C FF FF FF FF FF FF FF
 2.112816 1  CFF21CAx        Rx   d 8 03 00 80 0C 47 3F 00 24
 2.124966 1  CFF21CAx        Rx   d 8 04 00 80 0C 47 3F 00 24
 2.127516 1  18F100F3x       Rx   d 8 03 27 7D 10 E0 FA 14 00
 2.128377 1  18F102F3x       Rx   d 8 0F C9 0F C2 10 0C 00 07
 2.128940 1  18F100D0x       Rx   d 8 0C FF FF FF FF FF FF FF
 2.129796 1  18F106F3x       Rx   d 8 45 E0 FC FF FF FF FF FF
 2.131158 1  18F107F3x       Rx   d 8 38 A4 30 70 01 6B 00 C2
 2.132941 1  18F108F3x       Rx   d 8 00 00 00 00 00 00 00 00
 2.133934 1  18F155F3x       Rx   d 8 3B 3B 3C 3C 3B 3D 3D 00
 2.134616 1  18F156F3x       Rx   d 8 00 00 00 00 00 00 00 00
 2.135492 1  18F157F3x       Rx   d 8 00 00 00 00 00 00 00 00
 2.136575 1  18F158F3x       Rx   d 8 00 00 00 00 00 00 00 00
 2.137127 1  CFF21CAx        Rx   d 8 04 00 80 0C 47 3F 00 24
 2.137713 1  18F159F3x       Rx   d 8 00 00 00 00 00 00 00 00
 2.138585 1  18F15AF3x       Rx   d 8 00 00 00 00 00 00 00 00
 2.139472 1  18F15BF3x       Rx   d 7 00 00 00 00 00 00 00
 2.140377 1  18F15CF3x       Rx   d 8 00 00 00 00 00 00 00 00
 2.141313 1  18F15DF3x       Rx   d 8 00 00 00 00 00 00 00 00
 2.142180 1  18F15EF3x       Rx   d 8 00 00 00 00 00 00 00 00
 2.148931 1  CFF21CAx        Rx   d 8 04 00 80 0C 47 3F 00 24
 2.149462 1  18F100D0x       Rx   d 8 0C FF FF FF FF FF FF FF
 2.160967 1  CFF21CAx        Rx   d 8 04 00 80 0C 47 3F 00 24
 2.169023 1  18F100D0x       Rx   d 8 0C FF FF FF FF FF FF FF
 2.169671 1  18FF2112x       Rx   d 8 01 00 00 00 00 00 00 00
 2.183628 1  CFF21CAx        Rx   d 8 04 00 80 0C 47 3F 00 24
 2.185082 1  CFF21CAx        Rx   d 8 04 00 80 0C 47 3F 00 24
 2.189083 1  18F100D0x       Rx   d 8 0C FF FF FF FF FF FF FF
 2.197125 1  CFF21CAx        Rx   d 8 04 00 80 0C 47 3F 00 24
 2.209170 1  CFF21CAx        Rx   d 8 04 00 80 0C 47 3F 00 24
 2.221118 1  18F104F3x       Rx   d 8 3D 3B 06 01 02 FF FF FF
 2.221581 1  CFF21CAx        Rx   d 8 04 00 80 0C 47 3F 00 24
 2.222396 1  18F100D0x       Rx   d 8 0C FF FF FF FF FF FF FF
 2.222690 1  18F113F3x       Rx   d 8 0F C4 0F C4 0F C5 0F C5
 2.223635 1  18F114F3x       Rx   d 8 0F C3 0F C3 0F C5 0F C6
 2.224465 1  18F115F3x       Rx   d 8 0F C3 0F C3 0F C3 0F C2
 2.225431 1  18F116F3x       Rx   d 8 0F C6 0F C4 0F C7 0F C9
 2.226621 1  18F117F3x       Rx   d 8 0F C4 0F C4 0F C8 0F C8
 2.227667 1  18F100F3x       Rx   d 8 03 27 7D 10 E0 FA 14 00
 2.228272 1  18F102F3x       Rx   d 8 0F C9 0F C2 10 0C 00 07
 2.229567 1  18F106F3x       Rx   d 8 45 E0 FC FF FF FF FF FF
 2.230870 1  18F107F3x       Rx   d 8 38 A4 30 70 01 6B 00 C2
 2.232744 1  18F108F3x       Rx   d 8 00 00 00 00 00 00 00 00
 2.233303 1  CFF21CAx        Rx   d 8 04 00 80 0C 47 3F 00 24
 2.233882 1  18F118F3x       Rx   d 8 00 00 00 00 00 00 00 00
 2.234842 1  18F119F3x       Rx   d 8 00 00 00 00 00 00 00 00
 2.235779 1  18F11AF3x       Rx   d 8 00 00 00 00 00 00 00 00
 2.236705 1  18F11BF3x       Rx   d 8 00 00 00 00 00 00 00 00
 2.237669 1  18F11CF3x       Rx   d 8 00 00 00 00 00 00 00 00
 2.238569 1  18F11DF3x       Rx   d 8 00 00 00 00 00 00 00 00
 2.239489 1  18F11EF3x       Rx   d 8 00 00 00 00 00 00 00 00
 2.240493 1  18F11FF3x       Rx   d 8 00 00 00 00 00 00 00 00
 2.241475 1  18F120F3x       Rx   d 8 00 00 00 00 00 00 00 00
 2.242444 1  18F121F3x       Rx   d 8 00 00 00 00 00 00 00 00
 2.243393 1  18F122F3x       Rx   d 8 00 00 00 00 00 00 00 00
 2.244352 1  18F123F3x       Rx   d 8 00 00 00 00 00 00 00 00
 2.245295 1  18F124F3x       Rx   d 8 00 00 00 00 00 00 00 00
 2.245860 1  CFF21CAx        Rx   d 8 04 00 80 0C 47 3F 00 24
 2.246548 1  18F125F3x       Rx   d 8 00 00 00 00 00 00 00 00
 2.247442 1  18F126F3x       Rx   d 8 00 00 00 00 00 00 00 00
 2.248391 1  18F127F3x       Rx   d 8 00 00 00 00 00 00 00 00
 2.249319 1  18F100D0x       Rx   d 8 0C FF FF FF FF FF FF FF
 2.249892 1  18F128F3x       Rx   d 8 00 00 00 00 00 00 00 00
 2.250782 1  18F129F3x       Rx   d 8 00 00 00 00 00 00 00 00
 2.251708 1  18F12AF3x       Rx   d 8 00 00 00 00 00 00 00 00
 2.252586 1  18F12BF3x       Rx   d 8 00 00 00 00 00 00 00 00
 2.253501 1  18F12CF3x       Rx   d 8 00 00 00 00 00 00 00 00
 2.254557 1  18F12DF3x       Rx   d 8 00 00 00 00 00 00 00 00
 2.255356 1  18F12EF3x       Rx   d 8 00 00 00 00 00 00 00 00
 2.256578 1  18F12FF3x       Rx   d 8 00 00 00 00 00 00 00 00
 2.257317 1  CFF21CAx        Rx   d 8 03 00 80 0C 47 3F 00 24
 2.257875 1  18F130F3x       Rx   d 8 00 00 00 00 00 00 00 00
 2.258814 1  18F131F3x       Rx   d 8 00 00 00 00 00 00 00 00
 2.259828 1  18F132F3x       Rx   d 8 00 00 00 00 00 00 00 00
 2.260543 1  18F133F3x       Rx   d 8 00 00 00 00 00 00 00 00
 2.261406 1  18F134F3x       Rx   d 8 00 00 00 00 00 00 00 00
 2.262343 1  18F135F3x       Rx   d 8 00 00 00 00 00 00 00 00
 2.263290 1  18F136F3x       Rx   d 8 00 00 00 00 00 00 00 00
 2.264286 1  18F137F3x       Rx   d 8 00 00 00 00 00 00 00 00
 2.265132 1  18F138F3x       Rx   d 8 00 00 00 00 00 00 00 00
 2.266054 1  18FF2112x       Rx   d 8 01 00 00 00 00 00 00 00
 2.266711 1  18F139F3x       Rx   d 8 00 00 00 00 00 00 00 00
 2.267479 1  18F13AF3x       Rx   d 8 00 00 00 00 00 00 00 00
 2.268419 1  18F13BF3x       Rx   d 8 00 00 00 00 00 00 00 00
 2.269335 1  18F13CF3x       Rx   d 8 00 00 00 00 00 00 00 00
 2.269812 1  CFF21CAx        Rx   d 8 03 00 80 0C 47 3F 00 24
 2.270439 1  18F100D0x       Rx   d 8 0C FF FF FF FF FF FF FF
 2.270965 1  18F155F3x       Rx   d 8 3B 3B 3C 3C 3B 3D 3D 00
 2.271850 1  18F156F3x       Rx   d 8 00 00 00 00 00 00 00 00
 2.272740 1  18F157F3x       Rx   d 8 00 00 00 00 00 00 00 00
 2.273620 1  18F158F3x       Rx   d 8 00 00 00 00 00 00 00 00
 2.274524 1  18F159F3x       Rx   d 8 00 00 00 00 00 00 00 00
 2.275549 1  18F15AF3x       Rx   d 8 00 00 00 00 00 00 00 00
 2.276553 1  18F15BF3x       Rx   d 7 00 00 00 00 00 00 00
 2.277372 1  18F15CF3x       Rx   d 8 00 00 00 00 00 00 00 00
 2.278264 1  18F15DF3x       Rx   d 8 00 00 00 00 00 00 00 00
 2.279153 1  18F15EF3x       Rx   d 8 00 00 00 00 00 00 00 00
 2.281428 1  CFF21CAx        Rx   d 8 03 00 80 0C 47 3F 00 24
 2.293492 1  CFF21CAx        Rx   d 8 03 00 80 0C 47 3F 00 24
 2.297540 1  18F100D0x       Rx   d 8 0C FF FF FF FF FF FF FF
 2.305616 1  CFF21CAx        Rx   d 8 03 00 80 0C 47 3F 00 24
 2.317712 1  CFF21CAx        Rx   d 8 04 00 80 0C 47 3F 00 24
 2.318328 1  18F100D0x       Rx   d 8 0C FF FF FF FF FF FF FF
 2.327534 1  18F100F3x       Rx   d 8 03 27 7D 10 E0 FA 14 00
 2.328388 1  18F102F3x       Rx   d 8 0F C9 0F C2 10 0C 00 07
 2.329663 1  18F106F3x       Rx   d 8 45 E0 FC FF FF FF FF FF
 2.330239 1  CFF21CAx        Rx   d 8 04 00 80 0C 47 3F 00 24
 2.330927 1  18F107F3x       Rx   d 8 38 A4 30 70 01 6B 00 C2
 2.332730 1  18F108F3x       Rx   d 8 00 00 00 00 00 00 00 00
 2.333579 1  18F155F3x       Rx   d 8 3B 3B 3C 3C 3B 3D 3D 00
